vsim -cvgperinstance -vopt -voptargs="+acc" -coverage -sva -c -do " log -r /* ;coverage save -onexit mem_cov6;run -all; exit" -wlf wave_file6.wlf -l test6.log -sv_seed 611557549 work.axi2ahb_bridge_tb_top "+UVM_TESTNAME=axi_test_write_burst" "+UVM_VERBOSITY=UVM_HIGH" 
Start time: 12:15:54 on Feb 07,2025
** Note: (vsim-8009) Loading existing optimized design _opt
//  Questa Sim-64
//  Version 2019.2 linux_x86_64 Apr 16 2019
//
//  Copyright 1991-2019 Mentor Graphics Corporation
//  All Rights Reserved.
//
//  QuestaSim and its associated documentation contain trade
//  secrets and commercial or financial information that are the property of
//  Mentor Graphics Corporation and are privileged, confidential,
//  and exempt from disclosure under the Freedom of Information Act,
//  5 U.S.C. Section 552. Furthermore, this information
//  is prohibited from disclosure under the Trade Secrets Act,
//  18 U.S.C. Section 1905.
//
Loading sv_std.std
Loading work.ahb_if(fast)
Loading work.axi_rst_if(fast)
Loading mtiUvm.uvm_pkg
Loading work.axi2ahb_pkg(fast)
Loading work.axi_if(fast)
Loading work.ahb_rst_if(fast)
Loading mtiUvm.questa_uvm_pkg(fast)
Loading work.axi2ahb_bridge_tb_top(fast)
Loading work.axi_if(fast)
Loading work.ahb_if(fast)
Loading work.axi_rst_if(fast)
Loading work.ahb_rst_if(fast)
Loading work.axi2ahb_bridge_top(fast)
Loading work.axi_controller(fast)
Loading work.axi2fifo(fast)
Loading work.fifo2axi(fast)
Loading work.fifo_wrapper(fast)
Loading work.id_resp_fifo(fast)
Loading work.resp_fifo(fast)
Loading work.rdata_fifo(fast)
Loading work.size_fifo(fast)
Loading work.id_send_fifo(fast)
Loading work.write_fifo(fast)
Loading work.data_fifo(fast)
Loading work.addr_fifo(fast)
Loading work.ahb_controller(fast)
** Warning: (vsim-8441) Clocking block output vif.axi_drv_cb.arlen is not legal in this
or another expression.
   Time: 0 ns  Iteration: 0  Region: /axi2ahb_pkg::axi_driver File: ../AXI_AGENT/axi_driver.sv Line: 177
# Loading /home/cad/eda/Questa_2019/questasim/uvm-1.1d/linux_x86_64/uvm_dpi.so
** Warning: (vsim-8634) Code was not compiled with coverage options.
 log -r /* 
coverage save -onexit mem_cov6
run -all
----------------------------------------------------------------
UVM-1.1d
(C) 2007-2013 Mentor Graphics Corporation
(C) 2007-2013 Cadence Design Systems, Inc.
(C) 2006-2013 Synopsys, Inc.
(C) 2011-2013 Cypress Semiconductor Corp.
----------------------------------------------------------------

  ***********       IMPORTANT RELEASE NOTES         ************

  You are using a version of the UVM library that has been compiled
  with `UVM_NO_DEPRECATED undefined.
  See http://www.eda.org/svdb/view.php?id=3313 for more details.

  You are using a version of the UVM library that has been compiled
  with `UVM_OBJECT_MUST_HAVE_CONSTRUCTOR undefined.
  See http://www.eda.org/svdb/view.php?id=3770 for more details.

      (Specify +UVM_NO_RELNOTES to turn off this notice)

UVM_INFO verilog_src/questa_uvm_pkg-1.2/src/questa_uvm_pkg.sv(277) @ 0: reporter [Questa UVM] QUESTA_UVM-1.2.3
UVM_INFO verilog_src/questa_uvm_pkg-1.2/src/questa_uvm_pkg.sv(278) @ 0: reporter [Questa UVM]  questa_uvm::init(+struct)
UVM_INFO @ 0: reporter [RNTST] Running test axi_test_write_burst...
 lengths : 3
 lengths : 3
 lengths : 3
 lengths : 7
 lengths : 7
 lengths : 7
 lengths : 3
 lengths : 3
 lengths : 7
 lengths : 3
 lengths : 15
 lengths : 7
 lengths : 7
 lengths : 15
 lengths : 15
 lengths : 15
 lengths : 3
 lengths : 7
 lengths : 3
 lengths : 3
UVM_INFO ../AHB_AGENT/ahb_agent.sv(30) @ 0: uvm_test_top.envh.ahb_agth[0] [ahb_agent] ahb agent build_phase
UVM_INFO ../AHB_RST_AGENT/ahb_rst_agent.sv(31) @ 0: uvm_test_top.envh.ahb_rst_agth[0] [ahb_rst_agent] ahb rst agent  build_phase
UVM_INFO ../AHB_RST_AGENT/ahb_rst_driver.sv(29) @ 0: uvm_test_top.envh.ahb_rst_agth[0].drvh [ahb_rst_driver] ahb rst driver build_phase
UVM_INFO ../AHB_RST_AGENT/ahb_rst_monitor.sv(31) @ 0: uvm_test_top.envh.ahb_rst_agth[0].monh [ahb_rst_monitor] ahb rst monitor build_phase
UVM_INFO ../AXI_AGENT/axi_agent.sv(26) @ 0: uvm_test_top.envh.axi_agth[0] [axi_agent] axi agent build_phase
UVM_INFO ../AXI_RST_AGENT/axi_rst_agent.sv(28) @ 0: uvm_test_top.envh.axi_rst_agth[0] [axi_rst_agent] axi rst agent  build_phase
UVM_INFO ../AXI_RST_AGENT/axi_rst_driver.sv(24) @ 0: uvm_test_top.envh.axi_rst_agth[0].drvh [axi_rst_driver] axi rst driver build_phase
UVM_INFO ../AXI_RST_AGENT/axi_rst_monitor.sv(32) @ 0: uvm_test_top.envh.axi_rst_agth[0].monh [axi_rst_monitor] axi rst monitor build_phase
UVM_INFO ../AHB_AGENT/ahb_agent.sv(36) @ 0: uvm_test_top.envh.ahb_agth[0] [ahb_agent] ahb agent connect _phase
UVM_INFO ../AHB_RST_AGENT/ahb_rst_driver.sv(36) @ 0: uvm_test_top.envh.ahb_rst_agth[0].drvh [ahb_rst_driver] ahb rst driver connect_phase
UVM_INFO ../AHB_RST_AGENT/ahb_rst_monitor.sv(38) @ 0: uvm_test_top.envh.ahb_rst_agth[0].monh [ahb_rst_monitor] ahb rst monitor connect_phase
UVM_INFO ../AHB_RST_AGENT/ahb_rst_agent.sv(38) @ 0: uvm_test_top.envh.ahb_rst_agth[0] [ahb_rst_agent] ahb rst agent connect_phase
UVM_INFO ../AXI_AGENT/axi_agent.sv(33) @ 0: uvm_test_top.envh.axi_agth[0] [axi_agent] axi agent connect_phase
UVM_INFO ../AXI_RST_AGENT/axi_rst_driver.sv(30) @ 0: uvm_test_top.envh.axi_rst_agth[0].drvh [axi_rst_driver] axi rst driver connecr_phase
UVM_INFO ../AXI_RST_AGENT/axi_rst_monitor.sv(39) @ 0: uvm_test_top.envh.axi_rst_agth[0].monh [axi_rst_monitor] axi rst monitor connect_phase
UVM_INFO ../AXI_RST_AGENT/axi_rst_agent.sv(35) @ 0: uvm_test_top.envh.axi_rst_agth[0] [axi_rst_agent] axi rst agent connnect_phase
UVM_INFO ../test/test.sv(131) @ 0: uvm_test_top [axi_test_write_burst] test end of elaboration__phase
UVM_INFO @ 0: reporter [UVMTOP] UVM testbench topology:
----------------------------------------------------------------------------
Name                                 Type                        Size  Value
----------------------------------------------------------------------------
uvm_test_top                         axi_test_write_burst        -     @491 
  envh                               environment                 -     @511 
    ahb_agth[0]                      ahb_agent                   -     @541 
      drvh                           ahb_driver                  -     @696 
        rsp_port                     uvm_analysis_port           -     @711 
        seq_item_port                uvm_seq_item_pull_port      -     @703 
      monh                           ahb_monitor                 -     @681 
        monitor_port                 uvm_analysis_port           -     @688 
      seqrh                          ahb_sequencer               -     @719 
        rsp_export                   uvm_analysis_export         -     @726 
        seq_item_export              uvm_seq_item_pull_imp       -     @820 
        arbitration_queue            array                       0     -    
        lock_queue                   array                       0     -    
        num_last_reqs                integral                    32    'd1  
        num_last_rsps                integral                    32    'd1  
    ahb_rst_agth[0]                  ahb_rst_agent               -     @552 
      drvh                           ahb_rst_driver              -     @854 
        rsp_port                     uvm_analysis_port           -     @869 
        seq_item_port                uvm_seq_item_pull_port      -     @861 
      monh                           ahb_rst_monitor             -     @839 
        rst_monitor_port             uvm_analysis_port           -     @846 
      seqrh                          ahb_rst_sequencer           -     @877 
        rsp_export                   uvm_analysis_export         -     @884 
        seq_item_export              uvm_seq_item_pull_imp       -     @978 
        arbitration_queue            array                       0     -    
        lock_queue                   array                       0     -    
        num_last_reqs                integral                    32    'd1  
        num_last_rsps                integral                    32    'd1  
    axi_agth[0]                      axi_agent                   -     @519 
      drvh                           axi_driver                  -     @1028
        rsp_port                     uvm_analysis_port           -     @1043
        seq_item_port                uvm_seq_item_pull_port      -     @1035
      monh                           axi_monitor                 -     @997 
        axi_monitor_port             uvm_analysis_port           -     @1004
        axi_read_data_monitor_port   uvm_analysis_port           -     @1020
        axi_write_data_monitor_port  uvm_analysis_port           -     @1012
      seqrh                          axi_sequencer               -     @1051
        rsp_export                   uvm_analysis_export         -     @1058
        seq_item_export              uvm_seq_item_pull_imp       -     @1152
        arbitration_queue            array                       0     -    
        lock_queue                   array                       0     -    
        num_last_reqs                integral                    32    'd1  
        num_last_rsps                integral                    32    'd1  
    axi_rst_agth[0]                  axi_rst_agent               -     @530 
      drvh                           axi_rst_driver              -     @1185
        rsp_port                     uvm_analysis_port           -     @1200
        seq_item_port                uvm_seq_item_pull_port      -     @1192
      monh                           axi_rst_monitor             -     @1170
        rst_monitor_port             uvm_analysis_port           -     @1177
      seqrh                          axi_rst_sequencer           -     @1208
        rsp_export                   uvm_analysis_export         -     @1215
        seq_item_export              uvm_seq_item_pull_imp       -     @1309
        arbitration_queue            array                       0     -    
        lock_queue                   array                       0     -    
        num_last_reqs                integral                    32    'd1  
        num_last_rsps                integral                    32    'd1  
    scoreboardh                      scoreboard                  -     @672 
      fifo_ahb_h[0]                  uvm_tlm_analysis_fifo #(T)  -     @1565
        analysis_export              uvm_analysis_imp            -     @1604
        get_ap                       uvm_analysis_port           -     @1596
        get_peek_export              uvm_get_peek_imp            -     @1580
        put_ap                       uvm_analysis_port           -     @1588
        put_export                   uvm_put_imp                 -     @1572
      fifo_ahb_rst_h[0]              uvm_tlm_analysis_fifo #(T)  -     @1377
        analysis_export              uvm_analysis_imp            -     @1416
        get_ap                       uvm_analysis_port           -     @1408
        get_peek_export              uvm_get_peek_imp            -     @1392
        put_ap                       uvm_analysis_port           -     @1400
        put_export                   uvm_put_imp                 -     @1384
      fifo_axi_h[0]                  uvm_tlm_analysis_fifo #(T)  -     @1424
        analysis_export              uvm_analysis_imp            -     @1463
        get_ap                       uvm_analysis_port           -     @1455
        get_peek_export              uvm_get_peek_imp            -     @1439
        put_ap                       uvm_analysis_port           -     @1447
        put_export                   uvm_put_imp                 -     @1431
      fifo_axi_rdata_h[0]            uvm_tlm_analysis_fifo #(T)  -     @1518
        analysis_export              uvm_analysis_imp            -     @1557
        get_ap                       uvm_analysis_port           -     @1549
        get_peek_export              uvm_get_peek_imp            -     @1533
        put_ap                       uvm_analysis_port           -     @1541
        put_export                   uvm_put_imp                 -     @1525
      fifo_axi_rst_h[0]              uvm_tlm_analysis_fifo #(T)  -     @1330
        analysis_export              uvm_analysis_imp            -     @1369
        get_ap                       uvm_analysis_port           -     @1361
        get_peek_export              uvm_get_peek_imp            -     @1345
        put_ap                       uvm_analysis_port           -     @1353
        put_export                   uvm_put_imp                 -     @1337
      fifo_axi_wdata_h[0]            uvm_tlm_analysis_fifo #(T)  -     @1471
        analysis_export              uvm_analysis_imp            -     @1510
        get_ap                       uvm_analysis_port           -     @1502
        get_peek_export              uvm_get_peek_imp            -     @1486
        put_ap                       uvm_analysis_port           -     @1494
        put_export                   uvm_put_imp                 -     @1478
    vseqrh                           virtual_sequencer           -     @563 
      rsp_export                     uvm_analysis_export         -     @570 
      seq_item_export                uvm_seq_item_pull_imp       -     @664 
      arbitration_queue              array                       0     -    
      lock_queue                     array                       0     -    
      num_last_reqs                  integral                    32    'd1  
      num_last_rsps                  integral                    32    'd1  
----------------------------------------------------------------------------

UVM_INFO verilog_src/questa_uvm_pkg-1.2/src/questa_uvm_pkg.sv(339) @ 0: reporter [Questa UVM] End Of Elaboration
UVM_INFO ../test/test.sv(265) @ 0: uvm_test_top [axi_test_write_burst] reset_test run phase
UVM_INFO ../tb/virtual_sequence.sv(36) @ 0: uvm_test_top.envh.vseqrh@@axi_rst_vseqh [axi_rst_vseq] virtual seq base body
/////////////////////// 0
UVM_INFO ../tb/scoreboard.sv(235) @ 25: uvm_test_top.envh.scoreboardh [scoreboard] axi reset operation is successful
UVM_INFO ../tb/virtual_sequence.sv(36) @ 25: uvm_test_top.envh.vseqrh@@ahb_rst_vseqh [ahb_rst_vseq] virtual seq base body
/////////////////////// 1
UVM_INFO ../tb/scoreboard.sv(245) @ 72: uvm_test_top.envh.scoreboardh [scoreboard] ahb reset operation successful
UVM_INFO ../tb/virtual_sequence.sv(36) @ 124: uvm_test_top.envh.vseqrh@@axi_vseqh [axi_burst_vseq] virtual seq base body
UVM_INFO ../tb/virtual_sequence.sv(36) @ 124: uvm_test_top.envh.vseqrh@@ahb_vseqh [ahb_vseq] virtual seq base body

 AWLEN  :           3 
 axi_length = '{3, 3, 7, 7, 7, 3, 3, 7, 3, 15, 7, 7, 15, 15, 15, 3, 7, 3, 3}
ahb_length :'{3, 3, 3, 7, 7, 7, 3, 3, 7, 3, 15, 7, 7, 15, 15, 15, 3, 7, 3, 3}
UVM_INFO ../AHB_AGENT/ahb_driver.sv(46) @ 124: uvm_test_top.envh.ahb_agth[0].drvh [ahb_driver] in ahb driver           1
UVM_INFO ../AXI_AGENT/axi_driver.sv(61) @ 135: uvm_test_top.envh.axi_agth[0].drvh [axi_driver] axi_trans :
 "---------------------------------------------------------------------------------------------------
Name                           Type       Size  Value                                              
---------------------------------------------------------------------------------------------------
req                            axi_trans  -     @1824                                              
  begin_time                   time       64    124                                                
  depth                        int        32    'd2                                                
  parent sequence (name)       string     15    axi_burst_vseqh                                    
  parent sequence (full name)  string     51    uvm_test_top.envh.axi_agth[0].seqrh.axi_burst_vseqh
  sequencer                    string     35    uvm_test_top.envh.axi_agth[0].seqrh                
  AWID                         integral   8     'd0                                                
  AWADDR                       integral   32    'd929121565                                        
  AWLEN                        integral   8     'd3                                                
  AWSIZE                       integral   3     'd0                                                
  AWBURST                      integral   2     2                                                  
  AWVALID                      integral   1     1                                                  
  AWREADY                      integral   1     'd0                                                
  WID                          integral   8     'd0                                                
  WDATA[0]                     integral   64    11628061821867342993                               
  WDATA[1]                     integral   64    15037387613962450915                               
  WDATA[2]                     integral   64    15644924441330858259                               
  WDATA[3]                     integral   64    12272704164971803063                               
  WSTRB[0]                     integral   8     'b100000                                           
  WSTRB[1]                     integral   8     'b1000000                                          
  WSTRB[2]                     integral   8     'b10000000                                         
  WSTRB[3]                     integral   8     'b1                                                
  WLAST                        integral   1     'd0                                                
  WVALID                       integral   1     1                                                  
  WREADY                       integral   1     'd0                                                
  bid                          integral   8     'd0                                                
  bresp                        integral   2     'd0                                                
  bvalid                       integral   1     'd0                                                
  bready                       integral   1     'd0                                                
  arid                         integral   8     'd0                                                
  araddr                       integral   32    'd1785169025                                       
  arlen                        integral   8     'd3                                                
  arsize                       integral   3     'd0                                                
  arburst                      integral   2     'd0                                                
  arvalid                      integral   1     'd0                                                
  arready                      integral   1     'd0                                                
  rid                          integral   8     'd0                                                
  rlast                        integral   1     'd0                                                
  rvalid                       integral   1     'd0                                                
  rready                       integral   1     'd0                                                
---------------------------------------------------------------------------------------------------
"
UVM_INFO ../AXI_AGENT/axi_monitor.sv(70) @ 145: uvm_test_top.envh.axi_agth[0].monh [axi_monitor] after write address channel
 temp_data =       48378511622144 
 strb = 00100000
strb= 00100000
 temp_data =    49258120924364800 
 strb = 01000000
strb= 01000000
 temp_data = 15636497906230362112 
 strb = 10000000
strb= 10000000
UVM_INFO ../AHB_AGENT/ahb_driver.sv(46) @ 200: uvm_test_top.envh.ahb_agth[0].drvh [ahb_driver] in ahb driver           0
 temp_data =                  183 
 strb = 00000001
strb= 00000001
UVM_INFO ../AXI_AGENT/axi_monitor.sv(155) @ 215: uvm_test_top.envh.axi_agth[0].monh [axi_monitor] axi_trans :
 "-------------------------------------------------
Name        Type       Size  Value               
-------------------------------------------------
axi_xtn     axi_trans  -     @1641               
  AWID      integral   8     'd0                 
  AWADDR    integral   32    'd929121565         
  AWLEN     integral   8     'd3                 
  AWSIZE    integral   3     'd0                 
  AWBURST   integral   2     2                   
  AWVALID   integral   1     1                   
  AWREADY   integral   1     1                   
  WID       integral   8     'd0                 
  WDATA[0]  integral   64    11628061821867342993
  WDATA[1]  integral   64    15037387613962450915
  WDATA[2]  integral   64    15644924441330858259
  WDATA[3]  integral   64    12272704164971803063
  WSTRB[0]  integral   8     'b100000            
  WSTRB[1]  integral   8     'b1000000           
  WSTRB[2]  integral   8     'b10000000          
  WSTRB[3]  integral   8     'b1                 
  WLAST     integral   1     1                   
  WVALID    integral   1     1                   
  WREADY    integral   1     1                   
  bid       integral   8     'd0                 
  bresp     integral   2     'd0                 
  bvalid    integral   1     'd0                 
  bready    integral   1     'd0                 
  arid      integral   8     'd0                 
  araddr    integral   32    'd0                 
  arlen     integral   8     'd0                 
  arsize    integral   3     'd0                 
  arburst   integral   2     'd0                 
  arvalid   integral   1     'd0                 
  arready   integral   1     'd0                 
  rid       integral   8     'd0                 
  rlast     integral   1     'd0                 
  rvalid    integral   1     'd0                 
  rready    integral   1     'd0                 
-------------------------------------------------
"
UVM_INFO ../AXI_AGENT/axi_monitor.sv(78) @ 215: uvm_test_top.envh.axi_agth[0].monh [axi_monitor] after write data channel
UVM_INFO ../AHB_AGENT/ahb_driver.sv(46) @ 216: uvm_test_top.envh.ahb_agth[0].drvh [ahb_driver] in ahb driver           1
hwrite =1 time=                 280 
UVM_INFO ../AHB_AGENT/ahb_monitor.sv(67) @ 296: uvm_test_top.envh.ahb_agth[0].monh [ahb_monitor] ahb_trans: 
 "--------------------------------------------
Name       Type       Size  Value           
--------------------------------------------
ahb_xtn    ahb_trans  -     @1657           
  hwrite   integral   1     1               
  haddr    integral   32    'd929121565     
  htrans   integral   2     2               
  hsize    integral   3     'd0             
  hburst   integral   3     'd0             
  hrdata   integral   64    'd0             
  hwdata   integral   64    'd48378511622144
  hready   integral   1     1               
  hresp    integral   1     'd0             
  hmaster  integral   1     'd0             
--------------------------------------------
"
hwrite =1 time=                 296 
############################################# -- 3
UVM_INFO ../tb/scoreboard.sv(259) @ 296: uvm_test_top.envh.scoreboardh [scoreboard] data is matched
UVM_INFO ../tb/scoreboard.sv(260) @ 296: uvm_test_top.envh.scoreboardh [scoreboard] axi_temp_wdata: 48378511622144 , ahb_hwdata: 48378511622144
UVM_INFO ../AHB_AGENT/ahb_monitor.sv(67) @ 312: uvm_test_top.envh.ahb_agth[0].monh [ahb_monitor] ahb_trans: 
 "-----------------------------------------------
Name       Type       Size  Value              
-----------------------------------------------
ahb_xtn    ahb_trans  -     @1864              
  hwrite   integral   1     1                  
  haddr    integral   32    'd929121566        
  htrans   integral   2     2                  
  hsize    integral   3     'd0                
  hburst   integral   3     'd0                
  hrdata   integral   64    'd0                
  hwdata   integral   64    'd49258120924364800
  hready   integral   1     1                  
  hresp    integral   1     'd0                
  hmaster  integral   1     'd0                
-----------------------------------------------
"
UVM_INFO ../tb/scoreboard.sv(259) @ 312: uvm_test_top.envh.scoreboardh [scoreboard] data is matched
UVM_INFO ../tb/scoreboard.sv(260) @ 312: uvm_test_top.envh.scoreboardh [scoreboard] axi_temp_wdata: 49258120924364800 , ahb_hwdata: 49258120924364800
UVM_INFO ../test/test.sv(265) @ 1296: uvm_test_top [axi_test_write_burst] reset_test run phase
UVM_INFO ../tb/virtual_sequence.sv(36) @ 1296: uvm_test_top.envh.vseqrh@@axi_rst_vseqh [axi_rst_vseq] virtual seq base body
/////////////////////// 0
UVM_INFO ../tb/scoreboard.sv(235) @ 1325: uvm_test_top.envh.scoreboardh [scoreboard] axi reset operation is successful
UVM_INFO ../tb/virtual_sequence.sv(36) @ 1325: uvm_test_top.envh.vseqrh@@ahb_rst_vseqh [ahb_rst_vseq] virtual seq base body
/////////////////////// 1
UVM_INFO ../tb/scoreboard.sv(245) @ 1368: uvm_test_top.envh.scoreboardh [scoreboard] ahb reset operation successful
UVM_INFO ../tb/virtual_sequence.sv(36) @ 1420: uvm_test_top.envh.vseqrh@@axi_vseqh [axi_burst_vseq] virtual seq base body
UVM_INFO ../tb/virtual_sequence.sv(36) @ 1420: uvm_test_top.envh.vseqrh@@ahb_vseqh [ahb_vseq] virtual seq base body

 AWLEN  :           3 
 axi_length = '{3, 7, 7, 7, 3, 3, 7, 3, 15, 7, 7, 15, 15, 15, 3, 7, 3, 3}
ahb_length :'{3, 3, 7, 7, 7, 3, 3, 7, 3, 15, 7, 7, 15, 15, 15, 3, 7, 3, 3}
UVM_INFO ../AHB_AGENT/ahb_driver.sv(46) @ 1420: uvm_test_top.envh.ahb_agth[0].drvh [ahb_driver] in ahb driver           2
UVM_INFO ../AXI_AGENT/axi_driver.sv(61) @ 1435: uvm_test_top.envh.axi_agth[0].drvh [axi_driver] axi_trans :
 "---------------------------------------------------------------------------------------------------
Name                           Type       Size  Value                                              
---------------------------------------------------------------------------------------------------
req                            axi_trans  -     @1924                                              
  begin_time                   time       64    1420                                               
  depth                        int        32    'd2                                                
  parent sequence (name)       string     15    axi_burst_vseqh                                    
  parent sequence (full name)  string     51    uvm_test_top.envh.axi_agth[0].seqrh.axi_burst_vseqh
  sequencer                    string     35    uvm_test_top.envh.axi_agth[0].seqrh                
  AWID                         integral   8     'd0                                                
  AWADDR                       integral   32    3956739584                                         
  AWLEN                        integral   8     'd3                                                
  AWSIZE                       integral   3     'd1                                                
  AWBURST                      integral   2     2                                                  
  AWVALID                      integral   1     1                                                  
  AWREADY                      integral   1     'd0                                                
  WID                          integral   8     'd0                                                
  WDATA[0]                     integral   64    'd3407075578619630551                              
  WDATA[1]                     integral   64    'd4150220649495806703                              
  WDATA[2]                     integral   64    'd6696267357778157097                              
  WDATA[3]                     integral   64    'd8636783647669593411                              
  WSTRB[0]                     integral   8     'b11                                               
  WSTRB[1]                     integral   8     'b1100                                             
  WSTRB[2]                     integral   8     'b110000                                           
  WSTRB[3]                     integral   8     'b11000000                                         
  WLAST                        integral   1     'd0                                                
  WVALID                       integral   1     1                                                  
  WREADY                       integral   1     'd0                                                
  bid                          integral   8     'd0                                                
  bresp                        integral   2     'd0                                                
  bvalid                       integral   1     'd0                                                
  bready                       integral   1     'd0                                                
  arid                         integral   8     'd0                                                
  araddr                       integral   32    2406255804                                         
  arlen                        integral   8     'd3                                                
  arsize                       integral   3     'd0                                                
  arburst                      integral   2     'd0                                                
  arvalid                      integral   1     'd0                                                
  arready                      integral   1     'd0                                                
  rid                          integral   8     'd0                                                
  rlast                        integral   1     'd0                                                
  rvalid                       integral   1     'd0                                                
  rready                       integral   1     'd0                                                
---------------------------------------------------------------------------------------------------
"
UVM_INFO ../AXI_AGENT/axi_monitor.sv(70) @ 1445: uvm_test_top.envh.axi_agth[0].monh [axi_monitor] after write address channel
 temp_data =                 5079 
 strb = 00000011
strb= 00000011
 temp_data =            548405248 
 strb = 00001100
strb= 00001100
UVM_INFO ../AHB_AGENT/ahb_driver.sv(46) @ 1480: uvm_test_top.envh.ahb_agth[0].drvh [ahb_driver] in ahb driver           2
 temp_data =      259132556836864 
 strb = 00110000
strb= 00110000
 temp_data =  8636778185389768704 
 strb = 11000000
strb= 11000000
UVM_INFO ../AXI_AGENT/axi_monitor.sv(155) @ 1515: uvm_test_top.envh.axi_agth[0].monh [axi_monitor] axi_trans :
 "--------------------------------------------------
Name        Type       Size  Value                
--------------------------------------------------
axi_xtn     axi_trans  -     @1835                
  AWID      integral   8     'd0                  
  AWADDR    integral   32    3956739584           
  AWLEN     integral   8     'd3                  
  AWSIZE    integral   3     'd1                  
  AWBURST   integral   2     2                    
  AWVALID   integral   1     1                    
  AWREADY   integral   1     1                    
  WID       integral   8     'd0                  
  WDATA[0]  integral   64    'd3407075578619630551
  WDATA[1]  integral   64    'd4150220649495806703
  WDATA[2]  integral   64    'd6696267357778157097
  WDATA[3]  integral   64    'd8636783647669593411
  WSTRB[0]  integral   8     'b11                 
  WSTRB[1]  integral   8     'b1100               
  WSTRB[2]  integral   8     'b110000             
  WSTRB[3]  integral   8     'b11000000           
  WLAST     integral   1     1                    
  WVALID    integral   1     1                    
  WREADY    integral   1     1                    
  bid       integral   8     'd0                  
  bresp     integral   2     'd0                  
  bvalid    integral   1     'd0                  
  bready    integral   1     'd0                  
  arid      integral   8     'd0                  
  araddr    integral   32    'd0                  
  arlen     integral   8     'd0                  
  arsize    integral   3     'd0                  
  arburst   integral   2     'd0                  
  arvalid   integral   1     'd0                  
  arready   integral   1     'd0                  
  rid       integral   8     'd0                  
  rlast     integral   1     'd0                  
  rvalid    integral   1     'd0                  
  rready    integral   1     'd0                  
--------------------------------------------------
"
UVM_INFO ../AXI_AGENT/axi_monitor.sv(78) @ 1515: uvm_test_top.envh.axi_agth[0].monh [axi_monitor] after write data channel
UVM_INFO ../AHB_AGENT/ahb_driver.sv(46) @ 1544: uvm_test_top.envh.ahb_agth[0].drvh [ahb_driver] in ahb driver           0
hwrite =1 time=                1560 
############################################# -- 6
UVM_INFO ../AHB_AGENT/ahb_monitor.sv(67) @ 1576: uvm_test_top.envh.ahb_agth[0].monh [ahb_monitor] ahb_trans: 
 "--------------------------------------
Name       Type       Size  Value     
--------------------------------------
ahb_xtn    ahb_trans  -     @1868     
  hwrite   integral   1     1         
  haddr    integral   32    3956739584
  htrans   integral   2     2         
  hsize    integral   3     'd1       
  hburst   integral   3     'd0       
  hrdata   integral   64    'd0       
  hwdata   integral   64    'd5079    
  hready   integral   1     1         
  hresp    integral   1     'd0       
  hmaster  integral   1     'd0       
--------------------------------------
"
hwrite =1 time=                1576 
UVM_ERROR ../tb/scoreboard.sv(264) @ 1576: uvm_test_top.envh.scoreboardh [scoreboard] data is mismatched
UVM_ERROR ../tb/scoreboard.sv(265) @ 1576: uvm_test_top.envh.scoreboardh [scoreboard] axi_temp_wdata: 15636497906230362112 , ahb_hwdata: 5079
UVM_INFO ../AHB_AGENT/ahb_monitor.sv(67) @ 1592: uvm_test_top.envh.ahb_agth[0].monh [ahb_monitor] ahb_trans: 
 "---------------------------------------
Name       Type       Size  Value      
---------------------------------------
ahb_xtn    ahb_trans  -     @1958      
  hwrite   integral   1     1          
  haddr    integral   32    3956739586 
  htrans   integral   2     2          
  hsize    integral   3     'd1        
  hburst   integral   3     'd0        
  hrdata   integral   64    'd0        
  hwdata   integral   64    'd548405248
  hready   integral   1     1          
  hresp    integral   1     'd0        
  hmaster  integral   1     'd0        
---------------------------------------
"
hwrite =1 time=                1592 
UVM_ERROR ../tb/scoreboard.sv(264) @ 1592: uvm_test_top.envh.scoreboardh [scoreboard] data is mismatched
UVM_ERROR ../tb/scoreboard.sv(265) @ 1592: uvm_test_top.envh.scoreboardh [scoreboard] axi_temp_wdata: 183 , ahb_hwdata: 548405248
UVM_INFO ../AHB_AGENT/ahb_monitor.sv(67) @ 1608: uvm_test_top.envh.ahb_agth[0].monh [ahb_monitor] ahb_trans: 
 "---------------------------------------------
Name       Type       Size  Value            
---------------------------------------------
ahb_xtn    ahb_trans  -     @1962            
  hwrite   integral   1     1                
  haddr    integral   32    3956739588       
  htrans   integral   2     2                
  hsize    integral   3     'd1              
  hburst   integral   3     'd0              
  hrdata   integral   64    'd0              
  hwdata   integral   64    'd259132556836864
  hready   integral   1     1                
  hresp    integral   1     'd0              
  hmaster  integral   1     'd0              
---------------------------------------------
"
hwrite =1 time=                1608 
UVM_ERROR ../tb/scoreboard.sv(264) @ 1608: uvm_test_top.envh.scoreboardh [scoreboard] data is mismatched
UVM_ERROR ../tb/scoreboard.sv(265) @ 1608: uvm_test_top.envh.scoreboardh [scoreboard] axi_temp_wdata: 5079 , ahb_hwdata: 259132556836864
UVM_INFO ../AHB_AGENT/ahb_monitor.sv(67) @ 1624: uvm_test_top.envh.ahb_agth[0].monh [ahb_monitor] ahb_trans: 
 "-------------------------------------------------
Name       Type       Size  Value                
-------------------------------------------------
ahb_xtn    ahb_trans  -     @1966                
  hwrite   integral   1     1                    
  haddr    integral   32    3956739590           
  htrans   integral   2     2                    
  hsize    integral   3     'd1                  
  hburst   integral   3     'd0                  
  hrdata   integral   64    'd0                  
  hwdata   integral   64    'd8636778185389768704
  hready   integral   1     1                    
  hresp    integral   1     'd0                  
  hmaster  integral   1     'd0                  
-------------------------------------------------
"
UVM_ERROR ../tb/scoreboard.sv(264) @ 1624: uvm_test_top.envh.scoreboardh [scoreboard] data is mismatched
UVM_ERROR ../tb/scoreboard.sv(265) @ 1624: uvm_test_top.envh.scoreboardh [scoreboard] axi_temp_wdata: 548405248 , ahb_hwdata: 8636778185389768704
UVM_INFO ../AXI_AGENT/axi_monitor.sv(170) @ 1655: uvm_test_top.envh.axi_agth[0].monh [axi_monitor] axi_trans:
 "-------------------------------------------------
Name        Type       Size  Value               
-------------------------------------------------
axi_xtn     axi_trans  -     @1641               
  AWID      integral   8     'd0                 
  AWADDR    integral   32    'd929121565         
  AWLEN     integral   8     'd3                 
  AWSIZE    integral   3     'd0                 
  AWBURST   integral   2     2                   
  AWVALID   integral   1     1                   
  AWREADY   integral   1     1                   
  WID       integral   8     'd0                 
  WDATA[0]  integral   64    11628061821867342993
  WDATA[1]  integral   64    15037387613962450915
  WDATA[2]  integral   64    15644924441330858259
  WDATA[3]  integral   64    12272704164971803063
  WSTRB[0]  integral   8     'b100000            
  WSTRB[1]  integral   8     'b1000000           
  WSTRB[2]  integral   8     'b10000000          
  WSTRB[3]  integral   8     'b1                 
  WLAST     integral   1     1                   
  WVALID    integral   1     1                   
  WREADY    integral   1     1                   
  bid       integral   8     'd0                 
  bresp     integral   2     'd0                 
  bvalid    integral   1     1                   
  bready    integral   1     'd0                 
  arid      integral   8     'd0                 
  araddr    integral   32    'd0                 
  arlen     integral   8     'd0                 
  arsize    integral   3     'd0                 
  arburst   integral   2     'd0                 
  arvalid   integral   1     'd0                 
  arready   integral   1     'd0                 
  rid       integral   8     'd0                 
  rlast     integral   1     'd0                 
  rvalid    integral   1     'd0                 
  rready    integral   1     'd0                 
-------------------------------------------------
"
UVM_INFO ../AXI_AGENT/axi_monitor.sv(86) @ 1665: uvm_test_top.envh.axi_agth[0].monh [axi_monitor] after write response channel
UVM_INFO ../test/test.sv(265) @ 2560: uvm_test_top [axi_test_write_burst] reset_test run phase
UVM_INFO ../tb/virtual_sequence.sv(36) @ 2560: uvm_test_top.envh.vseqrh@@axi_rst_vseqh [axi_rst_vseq] virtual seq base body
/////////////////////// 0
UVM_INFO ../tb/scoreboard.sv(235) @ 2585: uvm_test_top.envh.scoreboardh [scoreboard] axi reset operation is successful
UVM_INFO ../tb/virtual_sequence.sv(36) @ 2585: uvm_test_top.envh.vseqrh@@ahb_rst_vseqh [ahb_rst_vseq] virtual seq base body
/////////////////////// 1
UVM_INFO ../tb/scoreboard.sv(245) @ 2632: uvm_test_top.envh.scoreboardh [scoreboard] ahb reset operation successful
UVM_INFO ../tb/virtual_sequence.sv(36) @ 2684: uvm_test_top.envh.vseqrh@@axi_vseqh [axi_burst_vseq] virtual seq base body
UVM_INFO ../tb/virtual_sequence.sv(36) @ 2684: uvm_test_top.envh.vseqrh@@ahb_vseqh [ahb_vseq] virtual seq base body

 AWLEN  :           3 
 axi_length = '{7, 7, 7, 3, 3, 7, 3, 15, 7, 7, 15, 15, 15, 3, 7, 3, 3}
ahb_length :'{3, 7, 7, 7, 3, 3, 7, 3, 15, 7, 7, 15, 15, 15, 3, 7, 3, 3}
UVM_INFO ../AHB_AGENT/ahb_driver.sv(46) @ 2684: uvm_test_top.envh.ahb_agth[0].drvh [ahb_driver] in ahb driver           2
UVM_INFO ../AXI_AGENT/axi_driver.sv(61) @ 2695: uvm_test_top.envh.axi_agth[0].drvh [axi_driver] axi_trans :
 "---------------------------------------------------------------------------------------------------
Name                           Type       Size  Value                                              
---------------------------------------------------------------------------------------------------
req                            axi_trans  -     @2030                                              
  begin_time                   time       64    2684                                               
  depth                        int        32    'd2                                                
  parent sequence (name)       string     15    axi_burst_vseqh                                    
  parent sequence (full name)  string     51    uvm_test_top.envh.axi_agth[0].seqrh.axi_burst_vseqh
  sequencer                    string     35    uvm_test_top.envh.axi_agth[0].seqrh                
  AWID                         integral   8     'd0                                                
  AWADDR                       integral   32    2484653334                                         
  AWLEN                        integral   8     'd3                                                
  AWSIZE                       integral   3     'd1                                                
  AWBURST                      integral   2     2                                                  
  AWVALID                      integral   1     1                                                  
  AWREADY                      integral   1     'd0                                                
  WID                          integral   8     'd0                                                
  WDATA[0]                     integral   64    9902117474358794747                                
  WDATA[1]                     integral   64    'd5500973666768628315                              
  WDATA[2]                     integral   64    10010637890806691719                               
  WDATA[3]                     integral   64    'd5239764693064604287                              
  WSTRB[0]                     integral   8     'b11000000                                         
  WSTRB[1]                     integral   8     'b11                                               
  WSTRB[2]                     integral   8     'b1100                                             
  WSTRB[3]                     integral   8     'b110000                                           
  WLAST                        integral   1     'd0                                                
  WVALID                       integral   1     1                                                  
  WREADY                       integral   1     'd0                                                
  bid                          integral   8     'd0                                                
  bresp                        integral   2     'd0                                                
  bvalid                       integral   1     'd0                                                
  bready                       integral   1     'd0                                                
  arid                         integral   8     'd0                                                
  araddr                       integral   32    4233195543                                         
  arlen                        integral   8     'd3                                                
  arsize                       integral   3     'd0                                                
  arburst                      integral   2     'd0                                                
  arvalid                      integral   1     'd0                                                
  arready                      integral   1     'd0                                                
  rid                          integral   8     'd0                                                
  rlast                        integral   1     'd0                                                
  rvalid                       integral   1     'd0                                                
  rready                       integral   1     'd0                                                
---------------------------------------------------------------------------------------------------
"
UVM_INFO ../AXI_AGENT/axi_monitor.sv(70) @ 2705: uvm_test_top.envh.axi_agth[0].monh [axi_monitor] after write address channel
 temp_data =  9902008205704167424 
 strb = 11000000
strb= 11000000
 temp_data =                43611 
 strb = 00000011
strb= 00000011
UVM_INFO ../AHB_AGENT/ahb_driver.sv(46) @ 2744: uvm_test_top.envh.ahb_agth[0].drvh [ahb_driver] in ahb driver           2
 temp_data =           2157510656 
 strb = 00001100
strb= 00001100
 temp_data =      108001247625216 
 strb = 00110000
strb= 00110000
UVM_INFO ../AXI_AGENT/axi_monitor.sv(155) @ 2775: uvm_test_top.envh.axi_agth[0].monh [axi_monitor] axi_trans :
 "--------------------------------------------------
Name        Type       Size  Value                
--------------------------------------------------
axi_xtn     axi_trans  -     @1934                
  AWID      integral   8     'd0                  
  AWADDR    integral   32    2484653334           
  AWLEN     integral   8     'd3                  
  AWSIZE    integral   3     'd1                  
  AWBURST   integral   2     2                    
  AWVALID   integral   1     1                    
  AWREADY   integral   1     1                    
  WID       integral   8     'd0                  
  WDATA[0]  integral   64    9902117474358794747  
  WDATA[1]  integral   64    'd5500973666768628315
  WDATA[2]  integral   64    10010637890806691719 
  WDATA[3]  integral   64    'd5239764693064604287
  WSTRB[0]  integral   8     'b11000000           
  WSTRB[1]  integral   8     'b11                 
  WSTRB[2]  integral   8     'b1100               
  WSTRB[3]  integral   8     'b110000             
  WLAST     integral   1     1                    
  WVALID    integral   1     1                    
  WREADY    integral   1     1                    
  bid       integral   8     'd0                  
  bresp     integral   2     'd0                  
  bvalid    integral   1     1                    
  bready    integral   1     1                    
  arid      integral   8     'd0                  
  araddr    integral   32    'd0                  
  arlen     integral   8     'd0                  
  arsize    integral   3     'd0                  
  arburst   integral   2     'd0                  
  arvalid   integral   1     'd0                  
  arready   integral   1     'd0                  
  rid       integral   8     'd0                  
  rlast     integral   1     'd0                  
  rvalid    integral   1     'd0                  
  rready    integral   1     'd0                  
--------------------------------------------------
"
UVM_INFO ../AXI_AGENT/axi_monitor.sv(78) @ 2775: uvm_test_top.envh.axi_agth[0].monh [axi_monitor] after write data channel
UVM_INFO ../AHB_AGENT/ahb_driver.sv(46) @ 2808: uvm_test_top.envh.ahb_agth[0].drvh [ahb_driver] in ahb driver           1
hwrite =1 time=                2872 
UVM_INFO ../AHB_AGENT/ahb_monitor.sv(67) @ 2888: uvm_test_top.envh.ahb_agth[0].monh [ahb_monitor] ahb_trans: 
 "-----------------------------------------------
Name       Type       Size  Value              
-----------------------------------------------
ahb_xtn    ahb_trans  -     @1970              
  hwrite   integral   1     1                  
  haddr    integral   32    2484653334         
  htrans   integral   2     2                  
  hsize    integral   3     'd1                
  hburst   integral   3     'd0                
  hrdata   integral   64    'd0                
  hwdata   integral   64    9902008205704167424
  hready   integral   1     1                  
  hresp    integral   1     'd0                
  hmaster  integral   1     'd0                
-----------------------------------------------
"
hwrite =1 time=                2888 
############################################# -- 9
UVM_ERROR ../tb/scoreboard.sv(264) @ 2888: uvm_test_top.envh.scoreboardh [scoreboard] data is mismatched
UVM_ERROR ../tb/scoreboard.sv(265) @ 2888: uvm_test_top.envh.scoreboardh [scoreboard] axi_temp_wdata: 259132556836864 , ahb_hwdata: 9902008205704167424
UVM_INFO ../AHB_AGENT/ahb_monitor.sv(67) @ 2904: uvm_test_top.envh.ahb_agth[0].monh [ahb_monitor] ahb_trans: 
 "--------------------------------------
Name       Type       Size  Value     
--------------------------------------
ahb_xtn    ahb_trans  -     @2064     
  hwrite   integral   1     1         
  haddr    integral   32    2484653332
  htrans   integral   2     2         
  hsize    integral   3     'd1       
  hburst   integral   3     'd0       
  hrdata   integral   64    'd0       
  hwdata   integral   64    'd43611   
  hready   integral   1     1         
  hresp    integral   1     'd0       
  hmaster  integral   1     'd0       
--------------------------------------
"
UVM_ERROR ../tb/scoreboard.sv(264) @ 2904: uvm_test_top.envh.scoreboardh [scoreboard] data is mismatched
UVM_ERROR ../tb/scoreboard.sv(265) @ 2904: uvm_test_top.envh.scoreboardh [scoreboard] axi_temp_wdata: 8636778185389768704 , ahb_hwdata: 43611
UVM_INFO ../test/test.sv(265) @ 3888: uvm_test_top [axi_test_write_burst] reset_test run phase
UVM_INFO ../tb/virtual_sequence.sv(36) @ 3888: uvm_test_top.envh.vseqrh@@axi_rst_vseqh [axi_rst_vseq] virtual seq base body
/////////////////////// 0
UVM_INFO ../tb/scoreboard.sv(235) @ 3915: uvm_test_top.envh.scoreboardh [scoreboard] axi reset operation is successful
UVM_INFO ../tb/virtual_sequence.sv(36) @ 3915: uvm_test_top.envh.vseqrh@@ahb_rst_vseqh [ahb_rst_vseq] virtual seq base body
/////////////////////// 1
UVM_INFO ../tb/scoreboard.sv(245) @ 3960: uvm_test_top.envh.scoreboardh [scoreboard] ahb reset operation successful
UVM_INFO ../tb/virtual_sequence.sv(36) @ 4012: uvm_test_top.envh.vseqrh@@axi_vseqh [axi_burst_vseq] virtual seq base body
UVM_INFO ../tb/virtual_sequence.sv(36) @ 4012: uvm_test_top.envh.vseqrh@@ahb_vseqh [ahb_vseq] virtual seq base body

 AWLEN  :           7 
 axi_length = '{7, 7, 3, 3, 7, 3, 15, 7, 7, 15, 15, 15, 3, 7, 3, 3}
ahb_length :'{7, 7, 7, 3, 3, 7, 3, 15, 7, 7, 15, 15, 15, 3, 7, 3, 3}
UVM_INFO ../AHB_AGENT/ahb_driver.sv(46) @ 4012: uvm_test_top.envh.ahb_agth[0].drvh [ahb_driver] in ahb driver           0
UVM_INFO ../AHB_AGENT/ahb_driver.sv(46) @ 4024: uvm_test_top.envh.ahb_agth[0].drvh [ahb_driver] in ahb driver           2
UVM_INFO ../AXI_AGENT/axi_driver.sv(61) @ 4025: uvm_test_top.envh.axi_agth[0].drvh [axi_driver] axi_trans :
 "---------------------------------------------------------------------------------------------------
Name                           Type       Size  Value                                              
---------------------------------------------------------------------------------------------------
req                            axi_trans  -     @2124                                              
  begin_time                   time       64    4012                                               
  depth                        int        32    'd2                                                
  parent sequence (name)       string     15    axi_burst_vseqh                                    
  parent sequence (full name)  string     51    uvm_test_top.envh.axi_agth[0].seqrh.axi_burst_vseqh
  sequencer                    string     35    uvm_test_top.envh.axi_agth[0].seqrh                
  AWID                         integral   8     'd0                                                
  AWADDR                       integral   32    'd1312320612                                       
  AWLEN                        integral   8     'd7                                                
  AWSIZE                       integral   3     'd1                                                
  AWBURST                      integral   2     2                                                  
  AWVALID                      integral   1     1                                                  
  AWREADY                      integral   1     'd0                                                
  WID                          integral   8     'd0                                                
  WDATA[0]                     integral   64    'd4886857038717423337                              
  WDATA[1]                     integral   64    'd5090607947935004233                              
  WDATA[2]                     integral   64    'd305967793390528780                               
  WDATA[3]                     integral   64    15218201484175870909                               
  WDATA[4]                     integral   64    16772852677360124620                               
  WDATA[5]                     integral   64    'd6971034644288129061                              
  WDATA[6]                     integral   64    'd8297940364827419771                              
  WDATA[7]                     integral   64    'd3719413874907814946                              
  WSTRB[0]                     integral   8     'b110000                                           
  WSTRB[1]                     integral   8     'b11000000                                         
  WSTRB[2]                     integral   8     'b11                                               
  WSTRB[3]                     integral   8     'b1100                                             
  WSTRB[4]                     integral   8     'b110000                                           
  WSTRB[5]                     integral   8     'b11000000                                         
  WSTRB[6]                     integral   8     'b11                                               
  WSTRB[7]                     integral   8     'b1100                                             
  WLAST                        integral   1     'd0                                                
  WVALID                       integral   1     1                                                  
  WREADY                       integral   1     'd0                                                
  bid                          integral   8     'd0                                                
  bresp                        integral   2     'd0                                                
  bvalid                       integral   1     'd0                                                
  bready                       integral   1     'd0                                                
  arid                         integral   8     'd0                                                
  araddr                       integral   32    'd1797704747                                       
  arlen                        integral   8     'd7                                                
  arsize                       integral   3     'd1                                                
  arburst                      integral   2     'd1                                                
  arvalid                      integral   1     'd0                                                
  arready                      integral   1     'd0                                                
  rid                          integral   8     'd0                                                
  rlast                        integral   1     'd0                                                
  rvalid                       integral   1     'd0                                                
  rready                       integral   1     'd0                                                
---------------------------------------------------------------------------------------------------
"
UVM_INFO ../AXI_AGENT/axi_monitor.sv(70) @ 4035: uvm_test_top.envh.axi_agth[0].monh [axi_monitor] after write address channel
 temp_data =      169964740804608 
 strb = 00110000
strb= 00110000
 temp_data =  5090474953812213760 
 strb = 11000000
strb= 11000000
 temp_data =                43276 
 strb = 00000011
strb= 00000011
UVM_INFO ../AHB_AGENT/ahb_driver.sv(46) @ 4088: uvm_test_top.envh.ahb_agth[0].drvh [ahb_driver] in ahb driver           2
 temp_data =           3500146688 
 strb = 00001100
strb= 00001100
UVM_INFO ../AXI_AGENT/axi_monitor.sv(155) @ 4105: uvm_test_top.envh.axi_agth[0].monh [axi_monitor] axi_trans :
 "--------------------------------------------------
Name        Type       Size  Value                
--------------------------------------------------
axi_xtn     axi_trans  -     @1934                
  AWID      integral   8     'd0                  
  AWADDR    integral   32    2484653334           
  AWLEN     integral   8     'd3                  
  AWSIZE    integral   3     'd1                  
  AWBURST   integral   2     2                    
  AWVALID   integral   1     1                    
  AWREADY   integral   1     1                    
  WID       integral   8     'd0                  
  WDATA[0]  integral   64    'd4886857038717423337
  WDATA[1]  integral   64    'd5090607947935004233
  WDATA[2]  integral   64    'd305967793390528780 
  WDATA[3]  integral   64    15218201484175870909 
  WSTRB[0]  integral   8     'b110000             
  WSTRB[1]  integral   8     'b11000000           
  WSTRB[2]  integral   8     'b11                 
  WSTRB[3]  integral   8     'b1100               
  WLAST     integral   1     'd0                  
  WVALID    integral   1     1                    
  WREADY    integral   1     1                    
  bid       integral   8     'd0                  
  bresp     integral   2     'd0                  
  bvalid    integral   1     1                    
  bready    integral   1     1                    
  arid      integral   8     'd0                  
  araddr    integral   32    'd0                  
  arlen     integral   8     'd0                  
  arsize    integral   3     'd0                  
  arburst   integral   2     'd0                  
  arvalid   integral   1     'd0                  
  arready   integral   1     'd0                  
  rid       integral   8     'd0                  
  rlast     integral   1     'd0                  
  rvalid    integral   1     'd0                  
  rready    integral   1     'd0                  
--------------------------------------------------
"
UVM_INFO ../AXI_AGENT/axi_monitor.sv(78) @ 4105: uvm_test_top.envh.axi_agth[0].monh [axi_monitor] after write data channel
UVM_INFO ../AHB_AGENT/ahb_driver.sv(46) @ 4152: uvm_test_top.envh.ahb_agth[0].drvh [ahb_driver] in ahb driver           1
hwrite =1 time=                4216 
UVM_INFO ../AHB_AGENT/ahb_monitor.sv(67) @ 4232: uvm_test_top.envh.ahb_agth[0].monh [ahb_monitor] ahb_trans: 
 "---------------------------------------------
Name       Type       Size  Value            
---------------------------------------------
ahb_xtn    ahb_trans  -     @2068            
  hwrite   integral   1     1                
  haddr    integral   32    'd1312320612     
  htrans   integral   2     2                
  hsize    integral   3     'd1              
  hburst   integral   3     'd0              
  hrdata   integral   64    'd0              
  hwdata   integral   64    'd169964740804608
  hready   integral   1     1                
  hresp    integral   1     'd0              
  hmaster  integral   1     'd0              
---------------------------------------------
"
hwrite =1 time=                4232 
UVM_ERROR ../tb/scoreboard.sv(264) @ 4232: uvm_test_top.envh.scoreboardh [scoreboard] data is mismatched
UVM_ERROR ../tb/scoreboard.sv(265) @ 4232: uvm_test_top.envh.scoreboardh [scoreboard] axi_temp_wdata: 9902008205704167424 , ahb_hwdata: 169964740804608
UVM_INFO ../AHB_AGENT/ahb_driver.sv(46) @ 4232: uvm_test_top.envh.ahb_agth[0].drvh [ahb_driver] in ahb driver           0
UVM_INFO ../AHB_AGENT/ahb_monitor.sv(67) @ 4248: uvm_test_top.envh.ahb_agth[0].monh [ahb_monitor] ahb_trans: 
 "-------------------------------------------------
Name       Type       Size  Value                
-------------------------------------------------
ahb_xtn    ahb_trans  -     @2158                
  hwrite   integral   1     1                    
  haddr    integral   32    'd1312320614         
  htrans   integral   2     2                    
  hsize    integral   3     'd1                  
  hburst   integral   3     'd0                  
  hrdata   integral   64    'd0                  
  hwdata   integral   64    'd5090474953812213760
  hready   integral   1     1                    
  hresp    integral   1     'd0                  
  hmaster  integral   1     'd0                  
-------------------------------------------------
"
hwrite =1 time=                4248 
UVM_ERROR ../tb/scoreboard.sv(264) @ 4248: uvm_test_top.envh.scoreboardh [scoreboard] data is mismatched
UVM_ERROR ../tb/scoreboard.sv(265) @ 4248: uvm_test_top.envh.scoreboardh [scoreboard] axi_temp_wdata: 43611 , ahb_hwdata: 5090474953812213760
UVM_INFO ../AHB_AGENT/ahb_driver.sv(46) @ 4248: uvm_test_top.envh.ahb_agth[0].drvh [ahb_driver] in ahb driver           1
UVM_INFO ../AHB_AGENT/ahb_monitor.sv(67) @ 4264: uvm_test_top.envh.ahb_agth[0].monh [ahb_monitor] ahb_trans: 
 "----------------------------------------
Name       Type       Size  Value       
----------------------------------------
ahb_xtn    ahb_trans  -     @2162       
  hwrite   integral   1     1           
  haddr    integral   32    'd1312320616
  htrans   integral   2     2           
  hsize    integral   3     'd1         
  hburst   integral   3     'd0         
  hrdata   integral   64    'd0         
  hwdata   integral   64    'd43276     
  hready   integral   1     1           
  hresp    integral   1     'd0         
  hmaster  integral   1     'd0         
----------------------------------------
"
UVM_ERROR ../tb/scoreboard.sv(264) @ 4264: uvm_test_top.envh.scoreboardh [scoreboard] data is mismatched
UVM_ERROR ../tb/scoreboard.sv(265) @ 4264: uvm_test_top.envh.scoreboardh [scoreboard] axi_temp_wdata: 2157510656 , ahb_hwdata: 43276
hwrite =1 time=                4312 
UVM_INFO ../AHB_AGENT/ahb_monitor.sv(67) @ 4328: uvm_test_top.envh.ahb_agth[0].monh [ahb_monitor] ahb_trans: 
 "----------------------------------------
Name       Type       Size  Value       
----------------------------------------
ahb_xtn    ahb_trans  -     @2166       
  hwrite   integral   1     1           
  haddr    integral   32    'd1312320618
  htrans   integral   2     2           
  hsize    integral   3     'd1         
  hburst   integral   3     'd0         
  hrdata   integral   64    'd0         
  hwdata   integral   64    'd3500146688
  hready   integral   1     1           
  hresp    integral   1     'd0         
  hmaster  integral   1     'd0         
----------------------------------------
"
hwrite =1 time=                4328 
UVM_ERROR ../tb/scoreboard.sv(264) @ 4328: uvm_test_top.envh.scoreboardh [scoreboard] data is mismatched
UVM_ERROR ../tb/scoreboard.sv(265) @ 4328: uvm_test_top.envh.scoreboardh [scoreboard] axi_temp_wdata: 108001247625216 , ahb_hwdata: 3500146688
UVM_INFO ../AHB_AGENT/ahb_driver.sv(46) @ 4328: uvm_test_top.envh.ahb_agth[0].drvh [ahb_driver] in ahb driver           2
UVM_INFO ../AHB_AGENT/ahb_monitor.sv(67) @ 4344: uvm_test_top.envh.ahb_agth[0].monh [ahb_monitor] ahb_trans: 
 "--------------------------------------------
Name       Type       Size  Value           
--------------------------------------------
ahb_xtn    ahb_trans  -     @2170           
  hwrite   integral   1     1               
  haddr    integral   32    'd1312320620    
  htrans   integral   2     2               
  hsize    integral   3     'd1             
  hburst   integral   3     'd0             
  hrdata   integral   64    'd0             
  hwdata   integral   64    'd40286793236480
  hready   integral   1     1               
  hresp    integral   1     'd0             
  hmaster  integral   1     'd0             
--------------------------------------------
"
UVM_ERROR ../tb/scoreboard.sv(264) @ 4344: uvm_test_top.envh.scoreboardh [scoreboard] data is mismatched
UVM_ERROR ../tb/scoreboard.sv(265) @ 4344: uvm_test_top.envh.scoreboardh [scoreboard] axi_temp_wdata: 169964740804608 , ahb_hwdata: 40286793236480
hwrite =1 time=                4376 
############################################# -- 16
UVM_INFO ../AHB_AGENT/ahb_monitor.sv(67) @ 4392: uvm_test_top.envh.ahb_agth[0].monh [ahb_monitor] ahb_trans: 
 "-------------------------------------------------
Name       Type       Size  Value                
-------------------------------------------------
ahb_xtn    ahb_trans  -     @2174                
  hwrite   integral   1     1                    
  haddr    integral   32    'd1312320622         
  htrans   integral   2     2                    
  hsize    integral   3     'd1                  
  hburst   integral   3     'd0                  
  hrdata   integral   64    'd0                  
  hwdata   integral   64    'd6971009273216106496
  hready   integral   1     1                    
  hresp    integral   1     1                    
  hmaster  integral   1     'd0                  
-------------------------------------------------
"
UVM_ERROR ../tb/scoreboard.sv(264) @ 4392: uvm_test_top.envh.scoreboardh [scoreboard] data is mismatched
UVM_ERROR ../tb/scoreboard.sv(265) @ 4392: uvm_test_top.envh.scoreboardh [scoreboard] axi_temp_wdata: 5090474953812213760 , ahb_hwdata: 6971009273216106496
UVM_INFO ../test/test.sv(265) @ 5376: uvm_test_top [axi_test_write_burst] reset_test run phase
UVM_INFO ../tb/virtual_sequence.sv(36) @ 5376: uvm_test_top.envh.vseqrh@@axi_rst_vseqh [axi_rst_vseq] virtual seq base body
/////////////////////// 0
UVM_INFO ../tb/scoreboard.sv(235) @ 5405: uvm_test_top.envh.scoreboardh [scoreboard] axi reset operation is successful
UVM_INFO ../tb/virtual_sequence.sv(36) @ 5405: uvm_test_top.envh.vseqrh@@ahb_rst_vseqh [ahb_rst_vseq] virtual seq base body
/////////////////////// 1
UVM_INFO ../tb/scoreboard.sv(245) @ 5448: uvm_test_top.envh.scoreboardh [scoreboard] ahb reset operation successful
UVM_INFO ../tb/virtual_sequence.sv(36) @ 5500: uvm_test_top.envh.vseqrh@@axi_vseqh [axi_burst_vseq] virtual seq base body
UVM_INFO ../tb/virtual_sequence.sv(36) @ 5500: uvm_test_top.envh.vseqrh@@ahb_vseqh [ahb_vseq] virtual seq base body

 AWLEN  :           7 
 axi_length = '{7, 3, 3, 7, 3, 15, 7, 7, 15, 15, 15, 3, 7, 3, 3}
ahb_length :'{7, 7, 3, 3, 7, 3, 15, 7, 7, 15, 15, 15, 3, 7, 3, 3}
UVM_INFO ../AHB_AGENT/ahb_driver.sv(46) @ 5500: uvm_test_top.envh.ahb_agth[0].drvh [ahb_driver] in ahb driver           1
UVM_INFO ../AXI_AGENT/axi_driver.sv(61) @ 5515: uvm_test_top.envh.axi_agth[0].drvh [axi_driver] axi_trans :
 "---------------------------------------------------------------------------------------------------
Name                           Type       Size  Value                                              
---------------------------------------------------------------------------------------------------
req                            axi_trans  -     @2234                                              
  begin_time                   time       64    5500                                               
  depth                        int        32    'd2                                                
  parent sequence (name)       string     15    axi_burst_vseqh                                    
  parent sequence (full name)  string     51    uvm_test_top.envh.axi_agth[0].seqrh.axi_burst_vseqh
  sequencer                    string     35    uvm_test_top.envh.axi_agth[0].seqrh                
  AWID                         integral   8     'd0                                                
  AWADDR                       integral   32    2933070488                                         
  AWLEN                        integral   8     'd7                                                
  AWSIZE                       integral   3     'd2                                                
  AWBURST                      integral   2     2                                                  
  AWVALID                      integral   1     1                                                  
  AWREADY                      integral   1     'd0                                                
  WID                          integral   8     'd0                                                
  WDATA[0]                     integral   64    18062525615027528080                               
  WDATA[1]                     integral   64    'd7346816563322529907                              
  WDATA[2]                     integral   64    12599353522368850397                               
  WDATA[3]                     integral   64    'd4395395805917134593                              
  WDATA[4]                     integral   64    16290025808363183995                               
  WDATA[5]                     integral   64    'd8092773993674771407                              
  WDATA[6]                     integral   64    17593260479293028313                               
  WDATA[7]                     integral   64    15807584664759556447                               
  WSTRB[0]                     integral   8     'b1111                                             
  WSTRB[1]                     integral   8     'b11110000                                         
  WSTRB[2]                     integral   8     'b1111                                             
  WSTRB[3]                     integral   8     'b11110000                                         
  WSTRB[4]                     integral   8     'b1111                                             
  WSTRB[5]                     integral   8     'b11110000                                         
  WSTRB[6]                     integral   8     'b1111                                             
  WSTRB[7]                     integral   8     'b11110000                                         
  WLAST                        integral   1     'd0                                                
  WVALID                       integral   1     1                                                  
  WREADY                       integral   1     'd0                                                
  bid                          integral   8     'd0                                                
  bresp                        integral   2     'd0                                                
  bvalid                       integral   1     'd0                                                
  bready                       integral   1     'd0                                                
  arid                         integral   8     'd0                                                
  araddr                       integral   32    2444161696                                         
  arlen                        integral   8     'd7                                                
  arsize                       integral   3     'd1                                                
  arburst                      integral   2     'd0                                                
  arvalid                      integral   1     'd0                                                
  arready                      integral   1     'd0                                                
  rid                          integral   8     'd0                                                
  rlast                        integral   1     'd0                                                
  rvalid                       integral   1     'd0                                                
  rready                       integral   1     'd0                                                
---------------------------------------------------------------------------------------------------
"
UVM_INFO ../AXI_AGENT/axi_monitor.sv(70) @ 5525: uvm_test_top.envh.axi_agth[0].monh [axi_monitor] after write address channel
 temp_data =           4129038736 
 strb = 00001111
strb= 00001111
 temp_data =  7346816562268995584 
 strb = 11110000
strb= 11110000
 temp_data =           1012705757 
 strb = 00001111
strb= 00001111
UVM_INFO ../AHB_AGENT/ahb_driver.sv(46) @ 5576: uvm_test_top.envh.ahb_agth[0].drvh [ahb_driver] in ahb driver           1
 temp_data =  4395395803317796864 
 strb = 11110000
strb= 11110000
 temp_data =            426696571 
 strb = 00001111
strb= 00001111
 temp_data =  8092773989841108992 
 strb = 11110000
strb= 11110000
 temp_data =           1563293657 
 strb = 00001111
strb= 00001111
hwrite =1 time=                5656 
UVM_INFO ../AHB_AGENT/ahb_driver.sv(46) @ 5656: uvm_test_top.envh.ahb_agth[0].drvh [ahb_driver] in ahb driver           2
 temp_data = 15807584664291377152 
 strb = 11110000
strb= 11110000
UVM_INFO ../AHB_AGENT/ahb_monitor.sv(67) @ 5672: uvm_test_top.envh.ahb_agth[0].monh [ahb_monitor] ahb_trans: 
 "----------------------------------------
Name       Type       Size  Value       
----------------------------------------
ahb_xtn    ahb_trans  -     @2178       
  hwrite   integral   1     1           
  haddr    integral   32    2933070488  
  htrans   integral   2     2           
  hsize    integral   3     'd2         
  hburst   integral   3     'd0         
  hrdata   integral   64    'd0         
  hwdata   integral   64    'd4129038736
  hready   integral   1     1           
  hresp    integral   1     'd0         
  hmaster  integral   1     'd0         
----------------------------------------
"
UVM_ERROR ../tb/scoreboard.sv(264) @ 5672: uvm_test_top.envh.scoreboardh [scoreboard] data is mismatched
UVM_ERROR ../tb/scoreboard.sv(265) @ 5672: uvm_test_top.envh.scoreboardh [scoreboard] axi_temp_wdata: 43276 , ahb_hwdata: 4129038736
UVM_INFO ../AXI_AGENT/axi_monitor.sv(155) @ 5675: uvm_test_top.envh.axi_agth[0].monh [axi_monitor] axi_trans :
 "--------------------------------------------------
Name        Type       Size  Value                
--------------------------------------------------
axi_xtn     axi_trans  -     @2040                
  AWID      integral   8     'd0                  
  AWADDR    integral   32    'd1312320612         
  AWLEN     integral   8     'd7                  
  AWSIZE    integral   3     'd1                  
  AWBURST   integral   2     2                    
  AWVALID   integral   1     1                    
  AWREADY   integral   1     1                    
  WID       integral   8     'd0                  
  WDATA[0]  integral   64    18062525615027528080 
  WDATA[1]  integral   64    'd7346816563322529907
  WDATA[2]  integral   64    12599353522368850397 
  WDATA[3]  integral   64    'd4395395805917134593
  WDATA[4]  integral   64    16290025808363183995 
  WDATA[5]  integral   64    'd8092773993674771407
  WDATA[6]  integral   64    17593260479293028313 
  WDATA[7]  integral   64    15807584664759556447 
  WSTRB[0]  integral   8     'b1111               
  WSTRB[1]  integral   8     'b11110000           
  WSTRB[2]  integral   8     'b1111               
  WSTRB[3]  integral   8     'b11110000           
  WSTRB[4]  integral   8     'b1111               
  WSTRB[5]  integral   8     'b11110000           
  WSTRB[6]  integral   8     'b1111               
  WSTRB[7]  integral   8     'b11110000           
  WLAST     integral   1     1                    
  WVALID    integral   1     1                    
  WREADY    integral   1     1                    
  bid       integral   8     'd0                  
  bresp     integral   2     'd0                  
  bvalid    integral   1     'd0                  
  bready    integral   1     'd0                  
  arid      integral   8     'd0                  
  araddr    integral   32    'd0                  
  arlen     integral   8     'd0                  
  arsize    integral   3     'd0                  
  arburst   integral   2     'd0                  
  arvalid   integral   1     'd0                  
  arready   integral   1     'd0                  
  rid       integral   8     'd0                  
  rlast     integral   1     'd0                  
  rvalid    integral   1     'd0                  
  rready    integral   1     'd0                  
--------------------------------------------------
"
UVM_INFO ../AXI_AGENT/axi_monitor.sv(78) @ 5675: uvm_test_top.envh.axi_agth[0].monh [axi_monitor] after write data channel
hwrite =1 time=                5704 
UVM_INFO ../AHB_AGENT/ahb_driver.sv(46) @ 5704: uvm_test_top.envh.ahb_agth[0].drvh [ahb_driver] in ahb driver           2
UVM_INFO ../AHB_AGENT/ahb_monitor.sv(67) @ 5720: uvm_test_top.envh.ahb_agth[0].monh [ahb_monitor] ahb_trans: 
 "-------------------------------------------------
Name       Type       Size  Value                
-------------------------------------------------
ahb_xtn    ahb_trans  -     @2284                
  hwrite   integral   1     1                    
  haddr    integral   32    2933070492           
  htrans   integral   2     2                    
  hsize    integral   3     'd2                  
  hburst   integral   3     'd0                  
  hrdata   integral   64    'd0                  
  hwdata   integral   64    'd7346816562268995584
  hready   integral   1     1                    
  hresp    integral   1     1                    
  hmaster  integral   1     'd0                  
-------------------------------------------------
"
UVM_ERROR ../tb/scoreboard.sv(264) @ 5720: uvm_test_top.envh.scoreboardh [scoreboard] data is mismatched
UVM_ERROR ../tb/scoreboard.sv(265) @ 5720: uvm_test_top.envh.scoreboardh [scoreboard] axi_temp_wdata: 3500146688 , ahb_hwdata: 7346816562268995584
hwrite =1 time=                5752 
UVM_INFO ../AHB_AGENT/ahb_driver.sv(46) @ 5752: uvm_test_top.envh.ahb_agth[0].drvh [ahb_driver] in ahb driver           0
UVM_INFO ../AHB_AGENT/ahb_monitor.sv(67) @ 5768: uvm_test_top.envh.ahb_agth[0].monh [ahb_monitor] ahb_trans: 
 "----------------------------------------
Name       Type       Size  Value       
----------------------------------------
ahb_xtn    ahb_trans  -     @2288       
  hwrite   integral   1     1           
  haddr    integral   32    2933070468  
  htrans   integral   2     2           
  hsize    integral   3     'd2         
  hburst   integral   3     'd0         
  hrdata   integral   64    'd0         
  hwdata   integral   64    'd1012705757
  hready   integral   1     1           
  hresp    integral   1     1           
  hmaster  integral   1     'd0         
----------------------------------------
"
hwrite =1 time=                5768 
UVM_ERROR ../tb/scoreboard.sv(264) @ 5768: uvm_test_top.envh.scoreboardh [scoreboard] data is mismatched
UVM_ERROR ../tb/scoreboard.sv(265) @ 5768: uvm_test_top.envh.scoreboardh [scoreboard] axi_temp_wdata: 4129038736 , ahb_hwdata: 1012705757
UVM_INFO ../AHB_AGENT/ahb_driver.sv(46) @ 5768: uvm_test_top.envh.ahb_agth[0].drvh [ahb_driver] in ahb driver           1
UVM_INFO ../AHB_AGENT/ahb_monitor.sv(67) @ 5784: uvm_test_top.envh.ahb_agth[0].monh [ahb_monitor] ahb_trans: 
 "-------------------------------------------------
Name       Type       Size  Value                
-------------------------------------------------
ahb_xtn    ahb_trans  -     @2292                
  hwrite   integral   1     1                    
  haddr    integral   32    2933070476           
  htrans   integral   2     2                    
  hsize    integral   3     'd2                  
  hburst   integral   3     'd0                  
  hrdata   integral   64    'd0                  
  hwdata   integral   64    'd4395395803317796864
  hready   integral   1     1                    
  hresp    integral   1     'd0                  
  hmaster  integral   1     'd0                  
-------------------------------------------------
"
UVM_ERROR ../tb/scoreboard.sv(264) @ 5784: uvm_test_top.envh.scoreboardh [scoreboard] data is mismatched
UVM_ERROR ../tb/scoreboard.sv(265) @ 5784: uvm_test_top.envh.scoreboardh [scoreboard] axi_temp_wdata: 7346816562268995584 , ahb_hwdata: 4395395803317796864
hwrite =1 time=                5832 
UVM_INFO ../AHB_AGENT/ahb_monitor.sv(67) @ 5848: uvm_test_top.envh.ahb_agth[0].monh [ahb_monitor] ahb_trans: 
 "---------------------------------------
Name       Type       Size  Value      
---------------------------------------
ahb_xtn    ahb_trans  -     @2296      
  hwrite   integral   1     1          
  haddr    integral   32    2933070484 
  htrans   integral   2     2          
  hsize    integral   3     'd2        
  hburst   integral   3     'd0        
  hrdata   integral   64    'd0        
  hwdata   integral   64    'd426696571
  hready   integral   1     1          
  hresp    integral   1     'd0        
  hmaster  integral   1     'd0        
---------------------------------------
"
hwrite =1 time=                5848 
UVM_ERROR ../tb/scoreboard.sv(264) @ 5848: uvm_test_top.envh.scoreboardh [scoreboard] data is mismatched
UVM_ERROR ../tb/scoreboard.sv(265) @ 5848: uvm_test_top.envh.scoreboardh [scoreboard] axi_temp_wdata: 1012705757 , ahb_hwdata: 426696571
UVM_INFO ../AHB_AGENT/ahb_driver.sv(46) @ 5848: uvm_test_top.envh.ahb_agth[0].drvh [ahb_driver] in ahb driver           1
UVM_INFO ../AHB_AGENT/ahb_monitor.sv(67) @ 5864: uvm_test_top.envh.ahb_agth[0].monh [ahb_monitor] ahb_trans: 
 "-------------------------------------------------
Name       Type       Size  Value                
-------------------------------------------------
ahb_xtn    ahb_trans  -     @2300                
  hwrite   integral   1     1                    
  haddr    integral   32    2933070492           
  htrans   integral   2     2                    
  hsize    integral   3     'd2                  
  hburst   integral   3     'd0                  
  hrdata   integral   64    'd0                  
  hwdata   integral   64    'd8092773989841108992
  hready   integral   1     1                    
  hresp    integral   1     'd0                  
  hmaster  integral   1     'd0                  
-------------------------------------------------
"
UVM_ERROR ../tb/scoreboard.sv(264) @ 5864: uvm_test_top.envh.scoreboardh [scoreboard] data is mismatched
UVM_ERROR ../tb/scoreboard.sv(265) @ 5864: uvm_test_top.envh.scoreboardh [scoreboard] axi_temp_wdata: 4395395803317796864 , ahb_hwdata: 8092773989841108992
hwrite =1 time=                5912 
UVM_INFO ../AHB_AGENT/ahb_monitor.sv(67) @ 5928: uvm_test_top.envh.ahb_agth[0].monh [ahb_monitor] ahb_trans: 
 "----------------------------------------
Name       Type       Size  Value       
----------------------------------------
ahb_xtn    ahb_trans  -     @2304       
  hwrite   integral   1     1           
  haddr    integral   32    2933070500  
  htrans   integral   2     2           
  hsize    integral   3     'd2         
  hburst   integral   3     'd0         
  hrdata   integral   64    'd0         
  hwdata   integral   64    'd1563293657
  hready   integral   1     1           
  hresp    integral   1     'd0         
  hmaster  integral   1     'd0         
----------------------------------------
"
hwrite =1 time=                5928 
############################################# -- 23
UVM_ERROR ../tb/scoreboard.sv(264) @ 5928: uvm_test_top.envh.scoreboardh [scoreboard] data is mismatched
UVM_ERROR ../tb/scoreboard.sv(265) @ 5928: uvm_test_top.envh.scoreboardh [scoreboard] axi_temp_wdata: 426696571 , ahb_hwdata: 1563293657
UVM_INFO ../AHB_AGENT/ahb_monitor.sv(67) @ 5944: uvm_test_top.envh.ahb_agth[0].monh [ahb_monitor] ahb_trans: 
 "------------------------------------------------
Name       Type       Size  Value               
------------------------------------------------
ahb_xtn    ahb_trans  -     @2308               
  hwrite   integral   1     1                   
  haddr    integral   32    2933070508          
  htrans   integral   2     2                   
  hsize    integral   3     'd2                 
  hburst   integral   3     'd0                 
  hrdata   integral   64    'd0                 
  hwdata   integral   64    15807584664291377152
  hready   integral   1     1                   
  hresp    integral   1     'd0                 
  hmaster  integral   1     'd0                 
------------------------------------------------
"
UVM_ERROR ../tb/scoreboard.sv(264) @ 5944: uvm_test_top.envh.scoreboardh [scoreboard] data is mismatched
UVM_ERROR ../tb/scoreboard.sv(265) @ 5944: uvm_test_top.envh.scoreboardh [scoreboard] axi_temp_wdata: 8092773989841108992 , ahb_hwdata: 15807584664291377152
UVM_INFO ../AXI_AGENT/axi_monitor.sv(170) @ 5975: uvm_test_top.envh.axi_agth[0].monh [axi_monitor] axi_trans:
 "--------------------------------------------------
Name        Type       Size  Value                
--------------------------------------------------
axi_xtn     axi_trans  -     @1835                
  AWID      integral   8     'd0                  
  AWADDR    integral   32    3956739584           
  AWLEN     integral   8     'd3                  
  AWSIZE    integral   3     'd1                  
  AWBURST   integral   2     2                    
  AWVALID   integral   1     1                    
  AWREADY   integral   1     1                    
  WID       integral   8     'd0                  
  WDATA[0]  integral   64    'd3407075578619630551
  WDATA[1]  integral   64    'd4150220649495806703
  WDATA[2]  integral   64    'd6696267357778157097
  WDATA[3]  integral   64    'd8636783647669593411
  WSTRB[0]  integral   8     'b11                 
  WSTRB[1]  integral   8     'b1100               
  WSTRB[2]  integral   8     'b110000             
  WSTRB[3]  integral   8     'b11000000           
  WLAST     integral   1     1                    
  WVALID    integral   1     1                    
  WREADY    integral   1     1                    
  bid       integral   8     'd0                  
  bresp     integral   2     'd0                  
  bvalid    integral   1     1                    
  bready    integral   1     'd0                  
  arid      integral   8     'd0                  
  araddr    integral   32    'd0                  
  arlen     integral   8     'd0                  
  arsize    integral   3     'd0                  
  arburst   integral   2     'd0                  
  arvalid   integral   1     'd0                  
  arready   integral   1     'd0                  
  rid       integral   8     'd0                  
  rlast     integral   1     'd0                  
  rvalid    integral   1     'd0                  
  rready    integral   1     'd0                  
--------------------------------------------------
"
UVM_INFO ../AXI_AGENT/axi_monitor.sv(86) @ 5985: uvm_test_top.envh.axi_agth[0].monh [axi_monitor] after write response channel
UVM_INFO ../test/test.sv(265) @ 6928: uvm_test_top [axi_test_write_burst] reset_test run phase
UVM_INFO ../tb/virtual_sequence.sv(36) @ 6928: uvm_test_top.envh.vseqrh@@axi_rst_vseqh [axi_rst_vseq] virtual seq base body
/////////////////////// 0
UVM_INFO ../tb/scoreboard.sv(235) @ 6955: uvm_test_top.envh.scoreboardh [scoreboard] axi reset operation is successful
UVM_INFO ../tb/virtual_sequence.sv(36) @ 6955: uvm_test_top.envh.vseqrh@@ahb_rst_vseqh [ahb_rst_vseq] virtual seq base body
/////////////////////// 1
UVM_INFO ../tb/scoreboard.sv(245) @ 7000: uvm_test_top.envh.scoreboardh [scoreboard] ahb reset operation successful
UVM_INFO ../tb/virtual_sequence.sv(36) @ 7052: uvm_test_top.envh.vseqrh@@axi_vseqh [axi_burst_vseq] virtual seq base body
UVM_INFO ../tb/virtual_sequence.sv(36) @ 7052: uvm_test_top.envh.vseqrh@@ahb_vseqh [ahb_vseq] virtual seq base body

 AWLEN  :           7 
 axi_length = '{3, 3, 7, 3, 15, 7, 7, 15, 15, 15, 3, 7, 3, 3}
ahb_length :'{7, 3, 3, 7, 3, 15, 7, 7, 15, 15, 15, 3, 7, 3, 3}
UVM_INFO ../AHB_AGENT/ahb_driver.sv(46) @ 7052: uvm_test_top.envh.ahb_agth[0].drvh [ahb_driver] in ahb driver           0
UVM_INFO ../AHB_AGENT/ahb_driver.sv(46) @ 7064: uvm_test_top.envh.ahb_agth[0].drvh [ahb_driver] in ahb driver           1
UVM_INFO ../AXI_AGENT/axi_driver.sv(61) @ 7065: uvm_test_top.envh.axi_agth[0].drvh [axi_driver] axi_trans :
 "---------------------------------------------------------------------------------------------------
Name                           Type       Size  Value                                              
---------------------------------------------------------------------------------------------------
req                            axi_trans  -     @2372                                              
  begin_time                   time       64    7052                                               
  depth                        int        32    'd2                                                
  parent sequence (name)       string     15    axi_burst_vseqh                                    
  parent sequence (full name)  string     51    uvm_test_top.envh.axi_agth[0].seqrh.axi_burst_vseqh
  sequencer                    string     35    uvm_test_top.envh.axi_agth[0].seqrh                
  AWID                         integral   8     'd0                                                
  AWADDR                       integral   32    2943326072                                         
  AWLEN                        integral   8     'd7                                                
  AWSIZE                       integral   3     'd3                                                
  AWBURST                      integral   2     2                                                  
  AWVALID                      integral   1     1                                                  
  AWREADY                      integral   1     'd0                                                
  WID                          integral   8     'd0                                                
  WDATA[0]                     integral   64    13167964017691662958                               
  WDATA[1]                     integral   64    14728025570635231851                               
  WDATA[2]                     integral   64    9758396361190491004                                
  WDATA[3]                     integral   64    'd5237977320577227580                              
  WDATA[4]                     integral   64    'd7674167179416379999                              
  WDATA[5]                     integral   64    10465619762441490000                               
  WDATA[6]                     integral   64    'd8118066982966258857                              
  WDATA[7]                     integral   64    10691943944767927818                               
  WSTRB[0]                     integral   8     'b11111111                                         
  WSTRB[1]                     integral   8     'b11111111                                         
  WSTRB[2]                     integral   8     'b11111111                                         
  WSTRB[3]                     integral   8     'b11111111                                         
  WSTRB[4]                     integral   8     'b11111111                                         
  WSTRB[5]                     integral   8     'b11111111                                         
  WSTRB[6]                     integral   8     'b11111111                                         
  WSTRB[7]                     integral   8     'b11111111                                         
  WLAST                        integral   1     'd0                                                
  WVALID                       integral   1     1                                                  
  WREADY                       integral   1     'd0                                                
  bid                          integral   8     'd0                                                
  bresp                        integral   2     'd0                                                
  bvalid                       integral   1     'd0                                                
  bready                       integral   1     'd0                                                
  arid                         integral   8     'd0                                                
  araddr                       integral   32    2961804353                                         
  arlen                        integral   8     'd7                                                
  arsize                       integral   3     'd1                                                
  arburst                      integral   2     'd1                                                
  arvalid                      integral   1     'd0                                                
  arready                      integral   1     'd0                                                
  rid                          integral   8     'd0                                                
  rlast                        integral   1     'd0                                                
  rvalid                       integral   1     'd0                                                
  rready                       integral   1     'd0                                                
---------------------------------------------------------------------------------------------------
"
UVM_INFO ../AXI_AGENT/axi_monitor.sv(70) @ 7075: uvm_test_top.envh.axi_agth[0].monh [axi_monitor] after write address channel
 temp_data = 13167964017691662958 
 strb = 11111111
strb= 11111111
 temp_data = 14728025570635231851 
 strb = 11111111
strb= 11111111
 temp_data =  9758396361190491004 
 strb = 11111111
strb= 11111111
 temp_data =  5237977320577227580 
 strb = 11111111
strb= 11111111
UVM_INFO ../AHB_AGENT/ahb_driver.sv(46) @ 7144: uvm_test_top.envh.ahb_agth[0].drvh [ahb_driver] in ahb driver           2
 temp_data =  7674167179416379999 
 strb = 11111111
strb= 11111111
 temp_data = 10465619762441490000 
 strb = 11111111
strb= 11111111
hwrite =1 time=                7192 
UVM_INFO ../AHB_AGENT/ahb_driver.sv(46) @ 7192: uvm_test_top.envh.ahb_agth[0].drvh [ahb_driver] in ahb driver           1
 temp_data =  8118066982966258857 
 strb = 11111111
strb= 11111111
UVM_INFO ../AHB_AGENT/ahb_monitor.sv(67) @ 7208: uvm_test_top.envh.ahb_agth[0].monh [ahb_monitor] ahb_trans: 
 "------------------------------------------------
Name       Type       Size  Value               
------------------------------------------------
ahb_xtn    ahb_trans  -     @2312               
  hwrite   integral   1     1                   
  haddr    integral   32    2943326072          
  htrans   integral   2     2                   
  hsize    integral   3     'd3                 
  hburst   integral   3     'd0                 
  hrdata   integral   64    'd0                 
  hwdata   integral   64    13167964017691662958
  hready   integral   1     1                   
  hresp    integral   1     1                   
  hmaster  integral   1     'd0                 
------------------------------------------------
"
UVM_ERROR ../tb/scoreboard.sv(264) @ 7208: uvm_test_top.envh.scoreboardh [scoreboard] data is mismatched
UVM_ERROR ../tb/scoreboard.sv(265) @ 7208: uvm_test_top.envh.scoreboardh [scoreboard] axi_temp_wdata: 1563293657 , ahb_hwdata: 13167964017691662958
 temp_data = 10691943944767927818 
 strb = 11111111
strb= 11111111
UVM_INFO ../AXI_AGENT/axi_monitor.sv(155) @ 7225: uvm_test_top.envh.axi_agth[0].monh [axi_monitor] axi_trans :
 "--------------------------------------------------
Name        Type       Size  Value                
--------------------------------------------------
axi_xtn     axi_trans  -     @2134                
  AWID      integral   8     'd0                  
  AWADDR    integral   32    2933070488           
  AWLEN     integral   8     'd7                  
  AWSIZE    integral   3     'd2                  
  AWBURST   integral   2     2                    
  AWVALID   integral   1     1                    
  AWREADY   integral   1     1                    
  WID       integral   8     'd0                  
  WDATA[0]  integral   64    13167964017691662958 
  WDATA[1]  integral   64    14728025570635231851 
  WDATA[2]  integral   64    9758396361190491004  
  WDATA[3]  integral   64    'd5237977320577227580
  WDATA[4]  integral   64    'd7674167179416379999
  WDATA[5]  integral   64    10465619762441490000 
  WDATA[6]  integral   64    'd8118066982966258857
  WDATA[7]  integral   64    10691943944767927818 
  WSTRB[0]  integral   8     'b11111111           
  WSTRB[1]  integral   8     'b11111111           
  WSTRB[2]  integral   8     'b11111111           
  WSTRB[3]  integral   8     'b11111111           
  WSTRB[4]  integral   8     'b11111111           
  WSTRB[5]  integral   8     'b11111111           
  WSTRB[6]  integral   8     'b11111111           
  WSTRB[7]  integral   8     'b11111111           
  WLAST     integral   1     1                    
  WVALID    integral   1     1                    
  WREADY    integral   1     1                    
  bid       integral   8     'd0                  
  bresp     integral   2     'd0                  
  bvalid    integral   1     'd0                  
  bready    integral   1     'd0                  
  arid      integral   8     'd0                  
  araddr    integral   32    'd0                  
  arlen     integral   8     'd0                  
  arsize    integral   3     'd0                  
  arburst   integral   2     'd0                  
  arvalid   integral   1     'd0                  
  arready   integral   1     'd0                  
  rid       integral   8     'd0                  
  rlast     integral   1     'd0                  
  rvalid    integral   1     'd0                  
  rready    integral   1     'd0                  
--------------------------------------------------
"
UVM_INFO ../AXI_AGENT/axi_monitor.sv(78) @ 7225: uvm_test_top.envh.axi_agth[0].monh [axi_monitor] after write data channel
hwrite =1 time=                7256 
UVM_INFO ../AHB_AGENT/ahb_monitor.sv(67) @ 7272: uvm_test_top.envh.ahb_agth[0].monh [ahb_monitor] ahb_trans: 
 "------------------------------------------------
Name       Type       Size  Value               
------------------------------------------------
ahb_xtn    ahb_trans  -     @2418               
  hwrite   integral   1     1                   
  haddr    integral   32    2943326032          
  htrans   integral   2     2                   
  hsize    integral   3     'd3                 
  hburst   integral   3     'd0                 
  hrdata   integral   64    'd0                 
  hwdata   integral   64    14728025570635231851
