vsim -cvgperinstance -vopt -voptargs="+acc" -coverage -sva -c -do " log -r /* ;coverage save -onexit mem_cov3;run -all; exit" -wlf wave_file3.wlf -l test3.log -sv_seed 711014161 work.axi2ahb_bridge_tb_top "+UVM_TESTNAME=axi_test" "+UVM_VERBOSITY=UVM_HIGH" 
Start time: 12:15:43 on Feb 07,2025
** Note: (vsim-8009) Loading existing optimized design _opt
//  Questa Sim-64
//  Version 2019.2 linux_x86_64 Apr 16 2019
//
//  Copyright 1991-2019 Mentor Graphics Corporation
//  All Rights Reserved.
//
//  QuestaSim and its associated documentation contain trade
//  secrets and commercial or financial information that are the property of
//  Mentor Graphics Corporation and are privileged, confidential,
//  and exempt from disclosure under the Freedom of Information Act,
//  5 U.S.C. Section 552. Furthermore, this information
//  is prohibited from disclosure under the Trade Secrets Act,
//  18 U.S.C. Section 1905.
//
Loading sv_std.std
Loading work.ahb_if(fast)
Loading work.axi_rst_if(fast)
Loading mtiUvm.uvm_pkg
Loading work.axi2ahb_pkg(fast)
Loading work.axi_if(fast)
Loading work.ahb_rst_if(fast)
Loading mtiUvm.questa_uvm_pkg(fast)
Loading work.axi2ahb_bridge_tb_top(fast)
Loading work.axi_if(fast)
Loading work.ahb_if(fast)
Loading work.axi_rst_if(fast)
Loading work.ahb_rst_if(fast)
Loading work.axi2ahb_bridge_top(fast)
Loading work.axi_controller(fast)
Loading work.axi2fifo(fast)
Loading work.fifo2axi(fast)
Loading work.fifo_wrapper(fast)
Loading work.id_resp_fifo(fast)
Loading work.resp_fifo(fast)
Loading work.rdata_fifo(fast)
Loading work.size_fifo(fast)
Loading work.id_send_fifo(fast)
Loading work.write_fifo(fast)
Loading work.data_fifo(fast)
Loading work.addr_fifo(fast)
Loading work.ahb_controller(fast)
** Warning: (vsim-8441) Clocking block output vif.axi_drv_cb.arlen is not legal in this
or another expression.
   Time: 0 ns  Iteration: 0  Region: /axi2ahb_pkg::axi_driver File: ../AXI_AGENT/axi_driver.sv Line: 177
# Loading /home/cad/eda/Questa_2019/questasim/uvm-1.1d/linux_x86_64/uvm_dpi.so
** Warning: (vsim-8634) Code was not compiled with coverage options.
 log -r /* 
coverage save -onexit mem_cov3
run -all
----------------------------------------------------------------
UVM-1.1d
(C) 2007-2013 Mentor Graphics Corporation
(C) 2007-2013 Cadence Design Systems, Inc.
(C) 2006-2013 Synopsys, Inc.
(C) 2011-2013 Cypress Semiconductor Corp.
----------------------------------------------------------------

  ***********       IMPORTANT RELEASE NOTES         ************

  You are using a version of the UVM library that has been compiled
  with `UVM_NO_DEPRECATED undefined.
  See http://www.eda.org/svdb/view.php?id=3313 for more details.

  You are using a version of the UVM library that has been compiled
  with `UVM_OBJECT_MUST_HAVE_CONSTRUCTOR undefined.
  See http://www.eda.org/svdb/view.php?id=3770 for more details.

      (Specify +UVM_NO_RELNOTES to turn off this notice)

UVM_INFO verilog_src/questa_uvm_pkg-1.2/src/questa_uvm_pkg.sv(277) @ 0: reporter [Questa UVM] QUESTA_UVM-1.2.3
UVM_INFO verilog_src/questa_uvm_pkg-1.2/src/questa_uvm_pkg.sv(278) @ 0: reporter [Questa UVM]  questa_uvm::init(+struct)
UVM_INFO @ 0: reporter [RNTST] Running test axi_test...
 lengths : 12
 lengths : 14
 lengths : 13
 lengths : 6
 lengths : 7
 lengths : 1
 lengths : 12
 lengths : 8
 lengths : 2
 lengths : 4
UVM_INFO ../AHB_AGENT/ahb_agent.sv(30) @ 0: uvm_test_top.envh.ahb_agth[0] [ahb_agent] ahb agent build_phase
UVM_INFO ../AHB_RST_AGENT/ahb_rst_agent.sv(31) @ 0: uvm_test_top.envh.ahb_rst_agth[0] [ahb_rst_agent] ahb rst agent  build_phase
UVM_INFO ../AHB_RST_AGENT/ahb_rst_driver.sv(29) @ 0: uvm_test_top.envh.ahb_rst_agth[0].drvh [ahb_rst_driver] ahb rst driver build_phase
UVM_INFO ../AHB_RST_AGENT/ahb_rst_monitor.sv(31) @ 0: uvm_test_top.envh.ahb_rst_agth[0].monh [ahb_rst_monitor] ahb rst monitor build_phase
UVM_INFO ../AXI_AGENT/axi_agent.sv(26) @ 0: uvm_test_top.envh.axi_agth[0] [axi_agent] axi agent build_phase
UVM_INFO ../AXI_RST_AGENT/axi_rst_agent.sv(28) @ 0: uvm_test_top.envh.axi_rst_agth[0] [axi_rst_agent] axi rst agent  build_phase
UVM_INFO ../AXI_RST_AGENT/axi_rst_driver.sv(24) @ 0: uvm_test_top.envh.axi_rst_agth[0].drvh [axi_rst_driver] axi rst driver build_phase
UVM_INFO ../AXI_RST_AGENT/axi_rst_monitor.sv(32) @ 0: uvm_test_top.envh.axi_rst_agth[0].monh [axi_rst_monitor] axi rst monitor build_phase
UVM_INFO ../AHB_AGENT/ahb_agent.sv(36) @ 0: uvm_test_top.envh.ahb_agth[0] [ahb_agent] ahb agent connect _phase
UVM_INFO ../AHB_RST_AGENT/ahb_rst_driver.sv(36) @ 0: uvm_test_top.envh.ahb_rst_agth[0].drvh [ahb_rst_driver] ahb rst driver connect_phase
UVM_INFO ../AHB_RST_AGENT/ahb_rst_monitor.sv(38) @ 0: uvm_test_top.envh.ahb_rst_agth[0].monh [ahb_rst_monitor] ahb rst monitor connect_phase
UVM_INFO ../AHB_RST_AGENT/ahb_rst_agent.sv(38) @ 0: uvm_test_top.envh.ahb_rst_agth[0] [ahb_rst_agent] ahb rst agent connect_phase
UVM_INFO ../AXI_AGENT/axi_agent.sv(33) @ 0: uvm_test_top.envh.axi_agth[0] [axi_agent] axi agent connect_phase
UVM_INFO ../AXI_RST_AGENT/axi_rst_driver.sv(30) @ 0: uvm_test_top.envh.axi_rst_agth[0].drvh [axi_rst_driver] axi rst driver connecr_phase
UVM_INFO ../AXI_RST_AGENT/axi_rst_monitor.sv(39) @ 0: uvm_test_top.envh.axi_rst_agth[0].monh [axi_rst_monitor] axi rst monitor connect_phase
UVM_INFO ../AXI_RST_AGENT/axi_rst_agent.sv(35) @ 0: uvm_test_top.envh.axi_rst_agth[0] [axi_rst_agent] axi rst agent connnect_phase
UVM_INFO ../test/test.sv(131) @ 0: uvm_test_top [axi_test] test end of elaboration__phase
UVM_INFO @ 0: reporter [UVMTOP] UVM testbench topology:
----------------------------------------------------------------------------
Name                                 Type                        Size  Value
----------------------------------------------------------------------------
uvm_test_top                         axi_test                    -     @491 
  envh                               environment                 -     @511 
    ahb_agth[0]                      ahb_agent                   -     @541 
      drvh                           ahb_driver                  -     @696 
        rsp_port                     uvm_analysis_port           -     @711 
        seq_item_port                uvm_seq_item_pull_port      -     @703 
      monh                           ahb_monitor                 -     @681 
        monitor_port                 uvm_analysis_port           -     @688 
      seqrh                          ahb_sequencer               -     @719 
        rsp_export                   uvm_analysis_export         -     @726 
        seq_item_export              uvm_seq_item_pull_imp       -     @820 
        arbitration_queue            array                       0     -    
        lock_queue                   array                       0     -    
        num_last_reqs                integral                    32    'd1  
        num_last_rsps                integral                    32    'd1  
    ahb_rst_agth[0]                  ahb_rst_agent               -     @552 
      drvh                           ahb_rst_driver              -     @854 
        rsp_port                     uvm_analysis_port           -     @869 
        seq_item_port                uvm_seq_item_pull_port      -     @861 
      monh                           ahb_rst_monitor             -     @839 
        rst_monitor_port             uvm_analysis_port           -     @846 
      seqrh                          ahb_rst_sequencer           -     @877 
        rsp_export                   uvm_analysis_export         -     @884 
        seq_item_export              uvm_seq_item_pull_imp       -     @978 
        arbitration_queue            array                       0     -    
        lock_queue                   array                       0     -    
        num_last_reqs                integral                    32    'd1  
        num_last_rsps                integral                    32    'd1  
    axi_agth[0]                      axi_agent                   -     @519 
      drvh                           axi_driver                  -     @1028
        rsp_port                     uvm_analysis_port           -     @1043
        seq_item_port                uvm_seq_item_pull_port      -     @1035
      monh                           axi_monitor                 -     @997 
        axi_monitor_port             uvm_analysis_port           -     @1004
        axi_read_data_monitor_port   uvm_analysis_port           -     @1020
        axi_write_data_monitor_port  uvm_analysis_port           -     @1012
      seqrh                          axi_sequencer               -     @1051
        rsp_export                   uvm_analysis_export         -     @1058
        seq_item_export              uvm_seq_item_pull_imp       -     @1152
        arbitration_queue            array                       0     -    
        lock_queue                   array                       0     -    
        num_last_reqs                integral                    32    'd1  
        num_last_rsps                integral                    32    'd1  
    axi_rst_agth[0]                  axi_rst_agent               -     @530 
      drvh                           axi_rst_driver              -     @1185
        rsp_port                     uvm_analysis_port           -     @1200
        seq_item_port                uvm_seq_item_pull_port      -     @1192
      monh                           axi_rst_monitor             -     @1170
        rst_monitor_port             uvm_analysis_port           -     @1177
      seqrh                          axi_rst_sequencer           -     @1208
        rsp_export                   uvm_analysis_export         -     @1215
        seq_item_export              uvm_seq_item_pull_imp       -     @1309
        arbitration_queue            array                       0     -    
        lock_queue                   array                       0     -    
        num_last_reqs                integral                    32    'd1  
        num_last_rsps                integral                    32    'd1  
    scoreboardh                      scoreboard                  -     @672 
      fifo_ahb_h[0]                  uvm_tlm_analysis_fifo #(T)  -     @1565
        analysis_export              uvm_analysis_imp            -     @1604
        get_ap                       uvm_analysis_port           -     @1596
        get_peek_export              uvm_get_peek_imp            -     @1580
        put_ap                       uvm_analysis_port           -     @1588
        put_export                   uvm_put_imp                 -     @1572
      fifo_ahb_rst_h[0]              uvm_tlm_analysis_fifo #(T)  -     @1377
        analysis_export              uvm_analysis_imp            -     @1416
        get_ap                       uvm_analysis_port           -     @1408
        get_peek_export              uvm_get_peek_imp            -     @1392
        put_ap                       uvm_analysis_port           -     @1400
        put_export                   uvm_put_imp                 -     @1384
      fifo_axi_h[0]                  uvm_tlm_analysis_fifo #(T)  -     @1424
        analysis_export              uvm_analysis_imp            -     @1463
        get_ap                       uvm_analysis_port           -     @1455
        get_peek_export              uvm_get_peek_imp            -     @1439
        put_ap                       uvm_analysis_port           -     @1447
        put_export                   uvm_put_imp                 -     @1431
      fifo_axi_rdata_h[0]            uvm_tlm_analysis_fifo #(T)  -     @1518
        analysis_export              uvm_analysis_imp            -     @1557
        get_ap                       uvm_analysis_port           -     @1549
        get_peek_export              uvm_get_peek_imp            -     @1533
        put_ap                       uvm_analysis_port           -     @1541
        put_export                   uvm_put_imp                 -     @1525
      fifo_axi_rst_h[0]              uvm_tlm_analysis_fifo #(T)  -     @1330
        analysis_export              uvm_analysis_imp            -     @1369
        get_ap                       uvm_analysis_port           -     @1361
        get_peek_export              uvm_get_peek_imp            -     @1345
        put_ap                       uvm_analysis_port           -     @1353
        put_export                   uvm_put_imp                 -     @1337
      fifo_axi_wdata_h[0]            uvm_tlm_analysis_fifo #(T)  -     @1471
        analysis_export              uvm_analysis_imp            -     @1510
        get_ap                       uvm_analysis_port           -     @1502
        get_peek_export              uvm_get_peek_imp            -     @1486
        put_ap                       uvm_analysis_port           -     @1494
        put_export                   uvm_put_imp                 -     @1478
    vseqrh                           virtual_sequencer           -     @563 
      rsp_export                     uvm_analysis_export         -     @570 
      seq_item_export                uvm_seq_item_pull_imp       -     @664 
      arbitration_queue              array                       0     -    
      lock_queue                     array                       0     -    
      num_last_reqs                  integral                    32    'd1  
      num_last_rsps                  integral                    32    'd1  
----------------------------------------------------------------------------

UVM_INFO verilog_src/questa_uvm_pkg-1.2/src/questa_uvm_pkg.sv(339) @ 0: reporter [Questa UVM] End Of Elaboration
UVM_INFO ../test/test.sv(206) @ 0: uvm_test_top [axi_test] reset_test run phase
UVM_INFO ../tb/virtual_sequence.sv(36) @ 0: uvm_test_top.envh.vseqrh@@axi_rst_vseqh [axi_rst_vseq] virtual seq base body
/////////////////////// 0
UVM_INFO ../tb/scoreboard.sv(235) @ 25: uvm_test_top.envh.scoreboardh [scoreboard] axi reset operation is successful
UVM_INFO ../tb/virtual_sequence.sv(36) @ 25: uvm_test_top.envh.vseqrh@@ahb_rst_vseqh [ahb_rst_vseq] virtual seq base body
/////////////////////// 1
UVM_INFO ../tb/scoreboard.sv(245) @ 72: uvm_test_top.envh.scoreboardh [scoreboard] ahb reset operation successful
UVM_INFO ../tb/virtual_sequence.sv(36) @ 124: uvm_test_top.envh.vseqrh@@axi_vseqh [axi_vseq] virtual seq base body
UVM_INFO ../tb/virtual_sequence.sv(111) @ 124: uvm_test_top.envh.vseqrh@@axi_vseqh [axi_vseq] has_axi_agent=1
UVM_INFO ../tb/virtual_sequence.sv(36) @ 124: uvm_test_top.envh.vseqrh@@ahb_vseqh [ahb_vseq] virtual seq base body

 AWLEN  :          12 
 axi_length = '{14, 13, 6, 7, 1, 12, 8, 2, 4}
ahb_length :'{12, 14, 13, 6, 7, 1, 12, 8, 2, 4}
UVM_INFO ../AHB_AGENT/ahb_driver.sv(46) @ 124: uvm_test_top.envh.ahb_agth[0].drvh [ahb_driver] in ahb driver           0
UVM_INFO ../AXI_AGENT/axi_driver.sv(61) @ 135: uvm_test_top.envh.axi_agth[0].drvh [axi_driver] axi_trans :
 "---------------------------------------------------------------------------------------------
Name                           Type       Size  Value                                        
---------------------------------------------------------------------------------------------
req                            axi_trans  -     @1824                                        
  begin_time                   time       64    124                                          
  depth                        int        32    'd2                                          
  parent sequence (name)       string     9     axi_vseqh                                    
  parent sequence (full name)  string     45    uvm_test_top.envh.axi_agth[0].seqrh.axi_vseqh
  sequencer                    string     35    uvm_test_top.envh.axi_agth[0].seqrh          
  AWID                         integral   8     'd0                                          
  AWADDR                       integral   32    'd353549849                                  
  AWLEN                        integral   8     'd12                                         
  AWSIZE                       integral   3     'd2                                          
  AWBURST                      integral   2     'd1                                          
  AWVALID                      integral   1     1                                            
  AWREADY                      integral   1     'd0                                          
  WID                          integral   8     'd0                                          
  WDATA[0]                     integral   64    'd6984840790506602695                        
  WDATA[1]                     integral   64    10094010549202288425                         
  WDATA[2]                     integral   64    15076619021556001234                         
  WDATA[3]                     integral   64    12306479606820281044                         
  WDATA[4]                     integral   64    'd3021354904025708816                        
  WDATA[5]                     integral   64    11025909019311377800                         
  WDATA[6]                     integral   64    'd8707592862239565839                        
  WDATA[7]                     integral   64    14644788448650018000                         
  WDATA[8]                     integral   64    9425038452172817337                          
  WDATA[9]                     integral   64    16531507824493375205                         
  WDATA[10]                    integral   64    'd4346476813059289461                        
  WDATA[11]                    integral   64    16246482000847026460                         
  WDATA[12]                    integral   64    'd7659083592852537798                        
  WSTRB[0]                     integral   8     'b1110                                       
  WSTRB[1]                     integral   8     'b11110000                                   
  WSTRB[2]                     integral   8     'b1111                                       
  WSTRB[3]                     integral   8     'b11110000                                   
  WSTRB[4]                     integral   8     'b1111                                       
  WSTRB[5]                     integral   8     'b11110000                                   
  WSTRB[6]                     integral   8     'b1111                                       
  WSTRB[7]                     integral   8     'b11110000                                   
  WSTRB[8]                     integral   8     'b1111                                       
  WSTRB[9]                     integral   8     'b11110000                                   
  WSTRB[10]                    integral   8     'b1111                                       
  WSTRB[11]                    integral   8     'b11110000                                   
  WSTRB[12]                    integral   8     'b1111                                       
  WLAST                        integral   1     'd0                                          
  WVALID                       integral   1     1                                            
  WREADY                       integral   1     'd0                                          
  bid                          integral   8     'd0                                          
  bresp                        integral   2     'd0                                          
  bvalid                       integral   1     'd0                                          
  bready                       integral   1     'd0                                          
  arid                         integral   8     'd0                                          
  araddr                       integral   32    'd875005677                                  
  arlen                        integral   8     'd12                                         
  arsize                       integral   3     'd3                                          
  arburst                      integral   2     'd1                                          
  arvalid                      integral   1     1                                            
  arready                      integral   1     'd0                                          
  rid                          integral   8     'd0                                          
  rlast                        integral   1     'd0                                          
  rvalid                       integral   1     'd0                                          
  rready                       integral   1     'd0                                          
---------------------------------------------------------------------------------------------
"
UVM_INFO ../AHB_AGENT/ahb_driver.sv(46) @ 136: uvm_test_top.envh.ahb_agth[0].drvh [ahb_driver] in ahb driver           1
UVM_INFO ../AXI_AGENT/axi_monitor.sv(92) @ 145: uvm_test_top.envh.axi_agth[0].monh [axi_monitor] after read address channel
UVM_INFO ../AXI_AGENT/axi_monitor.sv(70) @ 145: uvm_test_top.envh.axi_agth[0].monh [axi_monitor] after write address channel
 temp_data =            315490304 
 strb = 00001110
strb= 00001110
 temp_data = 10094010548258603008 
 strb = 11110000
strb= 11110000
 temp_data =           3921553874 
 strb = 00001111
strb= 00001111
 temp_data = 12306479602657656832 
 strb = 11110000
strb= 11110000
UVM_INFO ../AHB_AGENT/ahb_driver.sv(46) @ 216: uvm_test_top.envh.ahb_agth[0].drvh [ahb_driver] in ahb driver           0
 temp_data =             47593744 
 strb = 00001111
strb= 00001111
hwrite =1 time=                 232 
UVM_INFO ../AHB_AGENT/ahb_driver.sv(46) @ 232: uvm_test_top.envh.ahb_agth[0].drvh [ahb_driver] in ahb driver           0
 temp_data = 11025909015723900928 
 strb = 11110000
strb= 11110000
UVM_INFO ../AHB_AGENT/ahb_monitor.sv(67) @ 248: uvm_test_top.envh.ahb_agth[0].monh [ahb_monitor] ahb_trans: 
 "---------------------------------------
Name       Type       Size  Value      
---------------------------------------
ahb_xtn    ahb_trans  -     @1657      
  hwrite   integral   1     1          
  haddr    integral   32    'd353549849
  htrans   integral   2     2          
  hsize    integral   3     'd2        
  hburst   integral   3     'd0        
  hrdata   integral   64    'd0        
  hwdata   integral   64    'd315490304
  hready   integral   1     1          
  hresp    integral   1     'd0        
  hmaster  integral   1     'd0        
---------------------------------------
"
hwrite =1 time=                 248 
UVM_INFO ../tb/scoreboard.sv(259) @ 248: uvm_test_top.envh.scoreboardh [scoreboard] data is matched
UVM_INFO ../tb/scoreboard.sv(260) @ 248: uvm_test_top.envh.scoreboardh [scoreboard] axi_temp_wdata: 315490304 , ahb_hwdata: 315490304
UVM_INFO ../AHB_AGENT/ahb_driver.sv(46) @ 248: uvm_test_top.envh.ahb_agth[0].drvh [ahb_driver] in ahb driver           2
UVM_INFO ../AHB_AGENT/ahb_monitor.sv(67) @ 264: uvm_test_top.envh.ahb_agth[0].monh [ahb_monitor] ahb_trans: 
 "------------------------------------------------
Name       Type       Size  Value               
------------------------------------------------
ahb_xtn    ahb_trans  -     @1876               
  hwrite   integral   1     1                   
  haddr    integral   32    'd353549853         
  htrans   integral   2     2                   
  hsize    integral   3     'd2                 
  hburst   integral   3     'd0                 
  hrdata   integral   64    'd0                 
  hwdata   integral   64    10094010548258603008
  hready   integral   1     1                   
  hresp    integral   1     'd0                 
  hmaster  integral   1     'd0                 
------------------------------------------------
"
hwrite =1 time=                 264 
UVM_INFO ../tb/scoreboard.sv(259) @ 264: uvm_test_top.envh.scoreboardh [scoreboard] data is matched
UVM_INFO ../tb/scoreboard.sv(260) @ 264: uvm_test_top.envh.scoreboardh [scoreboard] axi_temp_wdata: 10094010548258603008 , ahb_hwdata: 10094010548258603008
 temp_data =           3397658639 
 strb = 00001111
strb= 00001111
UVM_INFO ../AHB_AGENT/ahb_monitor.sv(67) @ 280: uvm_test_top.envh.ahb_agth[0].monh [ahb_monitor] ahb_trans: 
 "----------------------------------------
Name       Type       Size  Value       
----------------------------------------
ahb_xtn    ahb_trans  -     @1880       
  hwrite   integral   1     1           
  haddr    integral   32    'd353549857 
  htrans   integral   2     2           
  hsize    integral   3     'd2         
  hburst   integral   3     'd0         
  hrdata   integral   64    'd0         
  hwdata   integral   64    'd3921553874
  hready   integral   1     1           
  hresp    integral   1     'd0         
  hmaster  integral   1     'd0         
----------------------------------------
"
UVM_INFO ../tb/scoreboard.sv(259) @ 280: uvm_test_top.envh.scoreboardh [scoreboard] data is matched
UVM_INFO ../tb/scoreboard.sv(260) @ 280: uvm_test_top.envh.scoreboardh [scoreboard] axi_temp_wdata: 3921553874 , ahb_hwdata: 3921553874
 temp_data = 14644788445755473920 
 strb = 11110000
strb= 11110000
hwrite =1 time=                 296 
UVM_INFO ../AHB_AGENT/ahb_driver.sv(46) @ 296: uvm_test_top.envh.ahb_agth[0].drvh [ahb_driver] in ahb driver           2
 temp_data =           1210614713 
 strb = 00001111
strb= 00001111
UVM_INFO ../AHB_AGENT/ahb_monitor.sv(67) @ 312: uvm_test_top.envh.ahb_agth[0].monh [ahb_monitor] ahb_trans: 
 "------------------------------------------------
Name       Type       Size  Value               
------------------------------------------------
ahb_xtn    ahb_trans  -     @1888               
  hwrite   integral   1     1                   
  haddr    integral   32    'd353549861         
  htrans   integral   2     2                   
  hsize    integral   3     'd2                 
  hburst   integral   3     'd0                 
  hrdata   integral   64    'd0                 
  hwdata   integral   64    12306479602657656832
  hready   integral   1     1                   
  hresp    integral   1     1                   
  hmaster  integral   1     'd0                 
------------------------------------------------
"
UVM_INFO ../tb/scoreboard.sv(259) @ 312: uvm_test_top.envh.scoreboardh [scoreboard] data is matched
UVM_INFO ../tb/scoreboard.sv(260) @ 312: uvm_test_top.envh.scoreboardh [scoreboard] axi_temp_wdata: 12306479602657656832 , ahb_hwdata: 12306479602657656832
 temp_data = 16531507823008284672 
 strb = 11110000
strb= 11110000
hwrite =1 time=                 344 
UVM_INFO ../AHB_AGENT/ahb_driver.sv(46) @ 344: uvm_test_top.envh.ahb_agth[0].drvh [ahb_driver] in ahb driver           2
 temp_data =             48165237 
 strb = 00001111
strb= 00001111
UVM_INFO ../AHB_AGENT/ahb_monitor.sv(67) @ 360: uvm_test_top.envh.ahb_agth[0].monh [ahb_monitor] ahb_trans: 
 "---------------------------------------
Name       Type       Size  Value      
---------------------------------------
ahb_xtn    ahb_trans  -     @1900      
  hwrite   integral   1     1          
  haddr    integral   32    'd353549865
  htrans   integral   2     2          
  hsize    integral   3     'd2        
  hburst   integral   3     'd0        
  hrdata   integral   64    'd0        
  hwdata   integral   64    'd47593744 
  hready   integral   1     1          
  hresp    integral   1     1          
  hmaster  integral   1     'd0        
---------------------------------------
"
UVM_INFO ../tb/scoreboard.sv(259) @ 360: uvm_test_top.envh.scoreboardh [scoreboard] data is matched
UVM_INFO ../tb/scoreboard.sv(260) @ 360: uvm_test_top.envh.scoreboardh [scoreboard] axi_temp_wdata: 47593744 , ahb_hwdata: 47593744
 temp_data = 16246481999265529856 
 strb = 11110000
strb= 11110000
 temp_data =           3103752646 
 strb = 00001111
strb= 00001111
hwrite =1 time=                 392 
UVM_INFO ../AHB_AGENT/ahb_driver.sv(46) @ 392: uvm_test_top.envh.ahb_agth[0].drvh [ahb_driver] in ahb driver           1
UVM_INFO ../AXI_AGENT/axi_monitor.sv(155) @ 395: uvm_test_top.envh.axi_agth[0].monh [axi_monitor] axi_trans :
 "---------------------------------------------------
Name         Type       Size  Value                
---------------------------------------------------
axi_xtn      axi_trans  -     @1641                
  AWID       integral   8     'd0                  
  AWADDR     integral   32    'd353549849          
  AWLEN      integral   8     'd12                 
  AWSIZE     integral   3     'd2                  
  AWBURST    integral   2     'd1                  
  AWVALID    integral   1     1                    
  AWREADY    integral   1     1                    
  WID        integral   8     'd0                  
  WDATA[0]   integral   64    'd6984840790506602695
  WDATA[1]   integral   64    10094010549202288425 
  WDATA[2]   integral   64    15076619021556001234 
  WDATA[3]   integral   64    12306479606820281044 
  WDATA[4]   integral   64    'd3021354904025708816
  WDATA[5]   integral   64    11025909019311377800 
  WDATA[6]   integral   64    'd8707592862239565839
  WDATA[7]   integral   64    14644788448650018000 
  WDATA[8]   integral   64    9425038452172817337  
  WDATA[9]   integral   64    16531507824493375205 
  WDATA[10]  integral   64    'd4346476813059289461
  WDATA[11]  integral   64    16246482000847026460 
  WDATA[12]  integral   64    'd7659083592852537798
  WSTRB[0]   integral   8     'b1110               
  WSTRB[1]   integral   8     'b11110000           
  WSTRB[2]   integral   8     'b1111               
  WSTRB[3]   integral   8     'b11110000           
  WSTRB[4]   integral   8     'b1111               
  WSTRB[5]   integral   8     'b11110000           
  WSTRB[6]   integral   8     'b1111               
  WSTRB[7]   integral   8     'b11110000           
  WSTRB[8]   integral   8     'b1111               
  WSTRB[9]   integral   8     'b11110000           
  WSTRB[10]  integral   8     'b1111               
  WSTRB[11]  integral   8     'b11110000           
  WSTRB[12]  integral   8     'b1111               
  WLAST      integral   1     1                    
  WVALID     integral   1     1                    
  WREADY     integral   1     1                    
  bid        integral   8     'd0                  
  bresp      integral   2     'd0                  
  bvalid     integral   1     'd0                  
  bready     integral   1     'd0                  
  arid       integral   8     'd0                  
  araddr     integral   32    'd0                  
  arlen      integral   8     'd0                  
  arsize     integral   3     'd0                  
  arburst    integral   2     'd0                  
  arvalid    integral   1     'd0                  
  arready    integral   1     'd0                  
  rid        integral   8     'd0                  
  rlast      integral   1     'd0                  
  rvalid     integral   1     'd0                  
  rready     integral   1     'd0                  
---------------------------------------------------
"
UVM_INFO ../AXI_AGENT/axi_monitor.sv(78) @ 395: uvm_test_top.envh.axi_agth[0].monh [axi_monitor] after write data channel
UVM_INFO ../AHB_AGENT/ahb_monitor.sv(67) @ 408: uvm_test_top.envh.ahb_agth[0].monh [ahb_monitor] ahb_trans: 
 "------------------------------------------------
Name       Type       Size  Value               
------------------------------------------------
ahb_xtn    ahb_trans  -     @1912               
  hwrite   integral   1     1                   
  haddr    integral   32    'd353549869         
  htrans   integral   2     2                   
  hsize    integral   3     'd2                 
  hburst   integral   3     'd0                 
  hrdata   integral   64    'd0                 
  hwdata   integral   64    11025909015723900928
  hready   integral   1     1                   
  hresp    integral   1     1                   
  hmaster  integral   1     'd0                 
------------------------------------------------
"
UVM_INFO ../tb/scoreboard.sv(259) @ 408: uvm_test_top.envh.scoreboardh [scoreboard] data is matched
UVM_INFO ../tb/scoreboard.sv(260) @ 408: uvm_test_top.envh.scoreboardh [scoreboard] axi_temp_wdata: 11025909015723900928 , ahb_hwdata: 11025909015723900928
hwrite =1 time=                 456 
UVM_INFO ../AHB_AGENT/ahb_monitor.sv(67) @ 472: uvm_test_top.envh.ahb_agth[0].monh [ahb_monitor] ahb_trans: 
 "----------------------------------------
Name       Type       Size  Value       
----------------------------------------
ahb_xtn    ahb_trans  -     @1928       
  hwrite   integral   1     1           
  haddr    integral   32    'd353549873 
  htrans   integral   2     2           
  hsize    integral   3     'd2         
  hburst   integral   3     'd0         
  hrdata   integral   64    'd0         
  hwdata   integral   64    'd3397658639
  hready   integral   1     1           
  hresp    integral   1     'd0         
  hmaster  integral   1     'd0         
----------------------------------------
"
hwrite =1 time=                 472 
UVM_INFO ../tb/scoreboard.sv(259) @ 472: uvm_test_top.envh.scoreboardh [scoreboard] data is matched
UVM_INFO ../tb/scoreboard.sv(260) @ 472: uvm_test_top.envh.scoreboardh [scoreboard] axi_temp_wdata: 3397658639 , ahb_hwdata: 3397658639
UVM_INFO ../AHB_AGENT/ahb_driver.sv(46) @ 472: uvm_test_top.envh.ahb_agth[0].drvh [ahb_driver] in ahb driver           2
UVM_INFO ../AHB_AGENT/ahb_monitor.sv(67) @ 488: uvm_test_top.envh.ahb_agth[0].monh [ahb_monitor] ahb_trans: 
 "------------------------------------------------
Name       Type       Size  Value               
------------------------------------------------
ahb_xtn    ahb_trans  -     @1932               
  hwrite   integral   1     1                   
  haddr    integral   32    'd353549877         
  htrans   integral   2     2                   
  hsize    integral   3     'd2                 
  hburst   integral   3     'd0                 
  hrdata   integral   64    'd0                 
  hwdata   integral   64    14644788445755473920
  hready   integral   1     1                   
  hresp    integral   1     'd0                 
  hmaster  integral   1     'd0                 
------------------------------------------------
"
UVM_INFO ../tb/scoreboard.sv(259) @ 488: uvm_test_top.envh.scoreboardh [scoreboard] data is matched
UVM_INFO ../tb/scoreboard.sv(260) @ 488: uvm_test_top.envh.scoreboardh [scoreboard] axi_temp_wdata: 14644788445755473920 , ahb_hwdata: 14644788445755473920
hwrite =1 time=                 520 
UVM_INFO ../AHB_AGENT/ahb_driver.sv(46) @ 520: uvm_test_top.envh.ahb_agth[0].drvh [ahb_driver] in ahb driver           0
UVM_INFO ../AHB_AGENT/ahb_monitor.sv(67) @ 536: uvm_test_top.envh.ahb_agth[0].monh [ahb_monitor] ahb_trans: 
 "----------------------------------------
Name       Type       Size  Value       
----------------------------------------
ahb_xtn    ahb_trans  -     @1936       
  hwrite   integral   1     1           
  haddr    integral   32    'd353549881 
  htrans   integral   2     2           
  hsize    integral   3     'd2         
  hburst   integral   3     'd0         
  hrdata   integral   64    'd0         
  hwdata   integral   64    'd1210614713
  hready   integral   1     1           
  hresp    integral   1     1           
  hmaster  integral   1     'd0         
----------------------------------------
"
hwrite =1 time=                 536 
UVM_INFO ../tb/scoreboard.sv(259) @ 536: uvm_test_top.envh.scoreboardh [scoreboard] data is matched
UVM_INFO ../tb/scoreboard.sv(260) @ 536: uvm_test_top.envh.scoreboardh [scoreboard] axi_temp_wdata: 1210614713 , ahb_hwdata: 1210614713
UVM_INFO ../AHB_AGENT/ahb_driver.sv(46) @ 536: uvm_test_top.envh.ahb_agth[0].drvh [ahb_driver] in ahb driver           0
UVM_INFO ../AHB_AGENT/ahb_monitor.sv(67) @ 552: uvm_test_top.envh.ahb_agth[0].monh [ahb_monitor] ahb_trans: 
 "------------------------------------------------
Name       Type       Size  Value               
------------------------------------------------
ahb_xtn    ahb_trans  -     @1940               
  hwrite   integral   1     1                   
  haddr    integral   32    'd353549885         
  htrans   integral   2     2                   
  hsize    integral   3     'd2                 
  hburst   integral   3     'd0                 
  hrdata   integral   64    'd0                 
  hwdata   integral   64    16531507823008284672
  hready   integral   1     1                   
  hresp    integral   1     'd0                 
  hmaster  integral   1     'd0                 
------------------------------------------------
"
hwrite =1 time=                 552 
UVM_INFO ../tb/scoreboard.sv(259) @ 552: uvm_test_top.envh.scoreboardh [scoreboard] data is matched
UVM_INFO ../tb/scoreboard.sv(260) @ 552: uvm_test_top.envh.scoreboardh [scoreboard] axi_temp_wdata: 16531507823008284672 , ahb_hwdata: 16531507823008284672
UVM_INFO ../AHB_AGENT/ahb_driver.sv(46) @ 552: uvm_test_top.envh.ahb_agth[0].drvh [ahb_driver] in ahb driver           1
UVM_INFO ../AHB_AGENT/ahb_monitor.sv(67) @ 568: uvm_test_top.envh.ahb_agth[0].monh [ahb_monitor] ahb_trans: 
 "---------------------------------------
Name       Type       Size  Value      
---------------------------------------
ahb_xtn    ahb_trans  -     @1944      
  hwrite   integral   1     1          
  haddr    integral   32    'd353549889
  htrans   integral   2     2          
  hsize    integral   3     'd2        
  hburst   integral   3     'd0        
  hrdata   integral   64    'd0        
  hwdata   integral   64    'd48165237 
  hready   integral   1     1          
  hresp    integral   1     'd0        
  hmaster  integral   1     'd0        
---------------------------------------
"
UVM_INFO ../tb/scoreboard.sv(259) @ 568: uvm_test_top.envh.scoreboardh [scoreboard] data is matched
UVM_INFO ../tb/scoreboard.sv(260) @ 568: uvm_test_top.envh.scoreboardh [scoreboard] axi_temp_wdata: 48165237 , ahb_hwdata: 48165237
hwrite =1 time=                 616 
UVM_INFO ../AHB_AGENT/ahb_monitor.sv(67) @ 632: uvm_test_top.envh.ahb_agth[0].monh [ahb_monitor] ahb_trans: 
 "------------------------------------------------
Name       Type       Size  Value               
------------------------------------------------
ahb_xtn    ahb_trans  -     @1948               
  hwrite   integral   1     1                   
  haddr    integral   32    'd353549893         
  htrans   integral   2     2                   
  hsize    integral   3     'd2                 
  hburst   integral   3     'd0                 
  hrdata   integral   64    'd0                 
  hwdata   integral   64    16246481999265529856
  hready   integral   1     1                   
  hresp    integral   1     'd0                 
  hmaster  integral   1     'd0                 
------------------------------------------------
"
hwrite =1 time=                 632 
############################################# -- 12
UVM_INFO ../tb/scoreboard.sv(259) @ 632: uvm_test_top.envh.scoreboardh [scoreboard] data is matched
UVM_INFO ../tb/scoreboard.sv(260) @ 632: uvm_test_top.envh.scoreboardh [scoreboard] axi_temp_wdata: 16246481999265529856 , ahb_hwdata: 16246481999265529856
UVM_INFO ../AHB_AGENT/ahb_monitor.sv(67) @ 648: uvm_test_top.envh.ahb_agth[0].monh [ahb_monitor] ahb_trans: 
 "----------------------------------------
Name       Type       Size  Value       
----------------------------------------
ahb_xtn    ahb_trans  -     @1952       
  hwrite   integral   1     1           
  haddr    integral   32    'd353549897 
  htrans   integral   2     2           
  hsize    integral   3     'd2         
  hburst   integral   3     'd0         
  hrdata   integral   64    'd0         
  hwdata   integral   64    'd3103752646
  hready   integral   1     1           
  hresp    integral   1     'd0         
  hmaster  integral   1     'd0         
----------------------------------------
"
UVM_INFO ../tb/scoreboard.sv(259) @ 648: uvm_test_top.envh.scoreboardh [scoreboard] data is matched
UVM_INFO ../tb/scoreboard.sv(260) @ 648: uvm_test_top.envh.scoreboardh [scoreboard] axi_temp_wdata: 3103752646 , ahb_hwdata: 3103752646
UVM_INFO ../AXI_AGENT/axi_monitor.sv(170) @ 685: uvm_test_top.envh.axi_agth[0].monh [axi_monitor] axi_trans:
 "---------------------------------------------------
Name         Type       Size  Value                
---------------------------------------------------
axi_xtn      axi_trans  -     @1641                
  AWID       integral   8     'd0                  
  AWADDR     integral   32    'd353549849          
  AWLEN      integral   8     'd12                 
  AWSIZE     integral   3     'd2                  
  AWBURST    integral   2     'd1                  
  AWVALID    integral   1     1                    
  AWREADY    integral   1     1                    
  WID        integral   8     'd0                  
  WDATA[0]   integral   64    'd6984840790506602695
  WDATA[1]   integral   64    10094010549202288425 
  WDATA[2]   integral   64    15076619021556001234 
  WDATA[3]   integral   64    12306479606820281044 
  WDATA[4]   integral   64    'd3021354904025708816
  WDATA[5]   integral   64    11025909019311377800 
  WDATA[6]   integral   64    'd8707592862239565839
  WDATA[7]   integral   64    14644788448650018000 
  WDATA[8]   integral   64    9425038452172817337  
  WDATA[9]   integral   64    16531507824493375205 
  WDATA[10]  integral   64    'd4346476813059289461
  WDATA[11]  integral   64    16246482000847026460 
  WDATA[12]  integral   64    'd7659083592852537798
  WSTRB[0]   integral   8     'b1110               
  WSTRB[1]   integral   8     'b11110000           
  WSTRB[2]   integral   8     'b1111               
  WSTRB[3]   integral   8     'b11110000           
  WSTRB[4]   integral   8     'b1111               
  WSTRB[5]   integral   8     'b11110000           
  WSTRB[6]   integral   8     'b1111               
  WSTRB[7]   integral   8     'b11110000           
  WSTRB[8]   integral   8     'b1111               
  WSTRB[9]   integral   8     'b11110000           
  WSTRB[10]  integral   8     'b1111               
  WSTRB[11]  integral   8     'b11110000           
  WSTRB[12]  integral   8     'b1111               
  WLAST      integral   1     1                    
  WVALID     integral   1     1                    
  WREADY     integral   1     1                    
  bid        integral   8     'd0                  
  bresp      integral   2     'd0                  
  bvalid     integral   1     1                    
  bready     integral   1     'd0                  
  arid       integral   8     'd0                  
  araddr     integral   32    'd0                  
  arlen      integral   8     'd0                  
  arsize     integral   3     'd0                  
  arburst    integral   2     'd0                  
  arvalid    integral   1     'd0                  
  arready    integral   1     'd0                  
  rid        integral   8     'd0                  
  rlast      integral   1     'd0                  
  rvalid     integral   1     'd0                  
  rready     integral   1     'd0                  
---------------------------------------------------
"
UVM_INFO ../AXI_AGENT/axi_monitor.sv(86) @ 695: uvm_test_top.envh.axi_agth[0].monh [axi_monitor] after write response channel
UVM_INFO ../test/test.sv(206) @ 1632: uvm_test_top [axi_test] reset_test run phase
UVM_INFO ../tb/virtual_sequence.sv(36) @ 1632: uvm_test_top.envh.vseqrh@@axi_rst_vseqh [axi_rst_vseq] virtual seq base body
/////////////////////// 0
UVM_INFO ../tb/scoreboard.sv(235) @ 1655: uvm_test_top.envh.scoreboardh [scoreboard] axi reset operation is successful
UVM_INFO ../tb/virtual_sequence.sv(36) @ 1655: uvm_test_top.envh.vseqrh@@ahb_rst_vseqh [ahb_rst_vseq] virtual seq base body
/////////////////////// 1
UVM_INFO ../tb/scoreboard.sv(245) @ 1688: uvm_test_top.envh.scoreboardh [scoreboard] ahb reset operation successful
UVM_INFO ../tb/virtual_sequence.sv(36) @ 1740: uvm_test_top.envh.vseqrh@@axi_vseqh [axi_vseq] virtual seq base body
UVM_INFO ../tb/virtual_sequence.sv(111) @ 1740: uvm_test_top.envh.vseqrh@@axi_vseqh [axi_vseq] has_axi_agent=1
UVM_INFO ../tb/virtual_sequence.sv(36) @ 1740: uvm_test_top.envh.vseqrh@@ahb_vseqh [ahb_vseq] virtual seq base body

 AWLEN  :          14 
 axi_length = '{13, 6, 7, 1, 12, 8, 2, 4}
ahb_length :'{14, 13, 6, 7, 1, 12, 8, 2, 4}
UVM_INFO ../AHB_AGENT/ahb_driver.sv(46) @ 1740: uvm_test_top.envh.ahb_agth[0].drvh [ahb_driver] in ahb driver           2
UVM_INFO ../AXI_AGENT/axi_driver.sv(61) @ 1755: uvm_test_top.envh.axi_agth[0].drvh [axi_driver] axi_trans :
 "---------------------------------------------------------------------------------------------
Name                           Type       Size  Value                                        
---------------------------------------------------------------------------------------------
req                            axi_trans  -     @2012                                        
  begin_time                   time       64    1740                                         
  depth                        int        32    'd2                                          
  parent sequence (name)       string     9     axi_vseqh                                    
  parent sequence (full name)  string     45    uvm_test_top.envh.axi_agth[0].seqrh.axi_vseqh
  sequencer                    string     35    uvm_test_top.envh.axi_agth[0].seqrh          
  AWID                         integral   8     'd0                                          
  AWADDR                       integral   32    'd663354664                                  
  AWLEN                        integral   8     'd14                                         
  AWSIZE                       integral   3     'd3                                          
  AWBURST                      integral   2     'd0                                          
  AWVALID                      integral   1     1                                            
  AWREADY                      integral   1     'd0                                          
  WID                          integral   8     'd0                                          
  WDATA[0]                     integral   64    15334255900404365503                         
  WDATA[1]                     integral   64    17421135445851946152                         
  WDATA[2]                     integral   64    'd8563635932893827109                        
  WDATA[3]                     integral   64    'd2416481071617201797                        
  WDATA[4]                     integral   64    18322067721335783518                         
  WDATA[5]                     integral   64    'd8339372813940899685                        
  WDATA[6]                     integral   64    'd4890172656191027789                        
  WDATA[7]                     integral   64    16482777835094856604                         
  WDATA[8]                     integral   64    16813433600026910645                         
  WDATA[9]                     integral   64    'd3235204746060428372                        
  WDATA[10]                    integral   64    10788835039942624958                         
  WDATA[11]                    integral   64    'd7061638056005506437                        
  WDATA[12]                    integral   64    'd3246588964925184934                        
  WDATA[13]                    integral   64    'd2829632412479007975                        
  WDATA[14]                    integral   64    18266459727344394604                         
  WSTRB[0]                     integral   8     'b11111111                                   
  WSTRB[1]                     integral   8     'b11111111                                   
  WSTRB[2]                     integral   8     'b11111111                                   
  WSTRB[3]                     integral   8     'b11111111                                   
  WSTRB[4]                     integral   8     'b11111111                                   
  WSTRB[5]                     integral   8     'b11111111                                   
  WSTRB[6]                     integral   8     'b11111111                                   
  WSTRB[7]                     integral   8     'b11111111                                   
  WSTRB[8]                     integral   8     'b11111111                                   
  WSTRB[9]                     integral   8     'b11111111                                   
  WSTRB[10]                    integral   8     'b11111111                                   
  WSTRB[11]                    integral   8     'b11111111                                   
  WSTRB[12]                    integral   8     'b11111111                                   
  WSTRB[13]                    integral   8     'b11111111                                   
  WSTRB[14]                    integral   8     'b11111111                                   
  WLAST                        integral   1     'd0                                          
  WVALID                       integral   1     1                                            
  WREADY                       integral   1     'd0                                          
  bid                          integral   8     'd0                                          
  bresp                        integral   2     'd0                                          
  bvalid                       integral   1     'd0                                          
  bready                       integral   1     'd0                                          
  arid                         integral   8     'd0                                          
  araddr                       integral   32    'd647060192                                  
  arlen                        integral   8     'd14                                         
  arsize                       integral   3     'd2                                          
  arburst                      integral   2     2                                            
  arvalid                      integral   1     1                                            
  arready                      integral   1     'd0                                          
  rid                          integral   8     'd0                                          
  rlast                        integral   1     'd0                                          
  rvalid                       integral   1     'd0                                          
  rready                       integral   1     'd0                                          
---------------------------------------------------------------------------------------------
"
UVM_INFO ../AXI_AGENT/axi_monitor.sv(92) @ 1765: uvm_test_top.envh.axi_agth[0].monh [axi_monitor] after read address channel
UVM_INFO ../AXI_AGENT/axi_monitor.sv(70) @ 1765: uvm_test_top.envh.axi_agth[0].monh [axi_monitor] after write address channel
 temp_data = 15334255900404365503 
 strb = 11111111
strb= 11111111
 temp_data = 17421135445851946152 
 strb = 11111111
strb= 11111111
UVM_INFO ../AHB_AGENT/ahb_driver.sv(46) @ 1800: uvm_test_top.envh.ahb_agth[0].drvh [ahb_driver] in ahb driver           2
 temp_data =  8563635932893827109 
 strb = 11111111
strb= 11111111
 temp_data =  2416481071617201797 
 strb = 11111111
strb= 11111111
 temp_data = 18322067721335783518 
 strb = 11111111
strb= 11111111
UVM_INFO ../AHB_AGENT/ahb_driver.sv(46) @ 1864: uvm_test_top.envh.ahb_agth[0].drvh [ahb_driver] in ahb driver           0
 temp_data =  8339372813940899685 
 strb = 11111111
strb= 11111111
hwrite =1 time=                1880 
UVM_INFO ../AHB_AGENT/ahb_driver.sv(46) @ 1880: uvm_test_top.envh.ahb_agth[0].drvh [ahb_driver] in ahb driver           1
 temp_data =  4890172656191027789 
 strb = 11111111
strb= 11111111
UVM_INFO ../AHB_AGENT/ahb_monitor.sv(67) @ 1896: uvm_test_top.envh.ahb_agth[0].monh [ahb_monitor] ahb_trans: 
 "------------------------------------------------
Name       Type       Size  Value               
------------------------------------------------
ahb_xtn    ahb_trans  -     @1956               
  hwrite   integral   1     1                   
  haddr    integral   32    'd663354664         
  htrans   integral   2     2                   
  hsize    integral   3     'd3                 
  hburst   integral   3     'd0                 
  hrdata   integral   64    'd0                 
  hwdata   integral   64    15334255900404365503
  hready   integral   1     1                   
  hresp    integral   1     'd0                 
  hmaster  integral   1     'd0                 
------------------------------------------------
"
UVM_INFO ../tb/scoreboard.sv(259) @ 1896: uvm_test_top.envh.scoreboardh [scoreboard] data is matched
UVM_INFO ../tb/scoreboard.sv(260) @ 1896: uvm_test_top.envh.scoreboardh [scoreboard] axi_temp_wdata: 15334255900404365503 , ahb_hwdata: 15334255900404365503
 temp_data = 16482777835094856604 
 strb = 11111111
strb= 11111111
 temp_data = 16813433600026910645 
 strb = 11111111
strb= 11111111
hwrite =1 time=                1944 
 temp_data =  3235204746060428372 
 strb = 11111111
strb= 11111111
UVM_INFO ../AHB_AGENT/ahb_monitor.sv(67) @ 1960: uvm_test_top.envh.ahb_agth[0].monh [ahb_monitor] ahb_trans: 
 "------------------------------------------------
Name       Type       Size  Value               
------------------------------------------------
ahb_xtn    ahb_trans  -     @2062               
  hwrite   integral   1     1                   
  haddr    integral   32    'd663354672         
  htrans   integral   2     2                   
  hsize    integral   3     'd3                 
  hburst   integral   3     'd0                 
  hrdata   integral   64    'd0                 
  hwdata   integral   64    17421135445851946152
  hready   integral   1     1                   
  hresp    integral   1     'd0                 
  hmaster  integral   1     'd0                 
------------------------------------------------
"
hwrite =1 time=                1960 
UVM_INFO ../tb/scoreboard.sv(259) @ 1960: uvm_test_top.envh.scoreboardh [scoreboard] data is matched
UVM_INFO ../tb/scoreboard.sv(260) @ 1960: uvm_test_top.envh.scoreboardh [scoreboard] axi_temp_wdata: 17421135445851946152 , ahb_hwdata: 17421135445851946152
UVM_INFO ../AHB_AGENT/ahb_driver.sv(46) @ 1960: uvm_test_top.envh.ahb_agth[0].drvh [ahb_driver] in ahb driver           0
 temp_data = 10788835039942624958 
 strb = 11111111
strb= 11111111
UVM_INFO ../AHB_AGENT/ahb_monitor.sv(67) @ 1976: uvm_test_top.envh.ahb_agth[0].monh [ahb_monitor] ahb_trans: 
 "-------------------------------------------------
Name       Type       Size  Value                
-------------------------------------------------
ahb_xtn    ahb_trans  -     @2078                
  hwrite   integral   1     1                    
  haddr    integral   32    'd663354680          
  htrans   integral   2     2                    
  hsize    integral   3     'd3                  
  hburst   integral   3     'd0                  
  hrdata   integral   64    'd0                  
  hwdata   integral   64    'd8563635932893827109
  hready   integral   1     1                    
  hresp    integral   1     'd0                  
  hmaster  integral   1     'd0                  
-------------------------------------------------
"
hwrite =1 time=                1976 
UVM_INFO ../tb/scoreboard.sv(259) @ 1976: uvm_test_top.envh.scoreboardh [scoreboard] data is matched
UVM_INFO ../tb/scoreboard.sv(260) @ 1976: uvm_test_top.envh.scoreboardh [scoreboard] axi_temp_wdata: 8563635932893827109 , ahb_hwdata: 8563635932893827109
UVM_INFO ../AHB_AGENT/ahb_driver.sv(46) @ 1976: uvm_test_top.envh.ahb_agth[0].drvh [ahb_driver] in ahb driver           2
 temp_data =  7061638056005506437 
 strb = 11111111
strb= 11111111
UVM_INFO ../AHB_AGENT/ahb_monitor.sv(67) @ 1992: uvm_test_top.envh.ahb_agth[0].monh [ahb_monitor] ahb_trans: 
 "-------------------------------------------------
Name       Type       Size  Value                
-------------------------------------------------
ahb_xtn    ahb_trans  -     @2086                
  hwrite   integral   1     1                    
  haddr    integral   32    'd663354688          
  htrans   integral   2     2                    
  hsize    integral   3     'd3                  
  hburst   integral   3     'd0                  
  hrdata   integral   64    'd0                  
  hwdata   integral   64    'd2416481071617201797
  hready   integral   1     1                    
  hresp    integral   1     'd0                  
  hmaster  integral   1     'd0                  
-------------------------------------------------
"
hwrite =1 time=                1992 
UVM_INFO ../tb/scoreboard.sv(259) @ 1992: uvm_test_top.envh.scoreboardh [scoreboard] data is matched
UVM_INFO ../tb/scoreboard.sv(260) @ 1992: uvm_test_top.envh.scoreboardh [scoreboard] axi_temp_wdata: 2416481071617201797 , ahb_hwdata: 2416481071617201797
 temp_data =  3246588964925184934 
 strb = 11111111
strb= 11111111
UVM_INFO ../AHB_AGENT/ahb_monitor.sv(67) @ 2008: uvm_test_top.envh.ahb_agth[0].monh [ahb_monitor] ahb_trans: 
 "------------------------------------------------
Name       Type       Size  Value               
------------------------------------------------
ahb_xtn    ahb_trans  -     @2094               
  hwrite   integral   1     1                   
  haddr    integral   32    'd663354696         
  htrans   integral   2     2                   
  hsize    integral   3     'd3                 
  hburst   integral   3     'd0                 
  hrdata   integral   64    'd0                 
  hwdata   integral   64    18322067721335783518
  hready   integral   1     1                   
  hresp    integral   1     'd0                 
  hmaster  integral   1     'd0                 
------------------------------------------------
"
UVM_INFO ../tb/scoreboard.sv(259) @ 2008: uvm_test_top.envh.scoreboardh [scoreboard] data is matched
UVM_INFO ../tb/scoreboard.sv(260) @ 2008: uvm_test_top.envh.scoreboardh [scoreboard] axi_temp_wdata: 18322067721335783518 , ahb_hwdata: 18322067721335783518
hwrite =1 time=                2024 
UVM_INFO ../AHB_AGENT/ahb_driver.sv(46) @ 2024: uvm_test_top.envh.ahb_agth[0].drvh [ahb_driver] in ahb driver           0
 temp_data =  2829632412479007975 
 strb = 11111111
strb= 11111111
UVM_INFO ../AHB_AGENT/ahb_monitor.sv(67) @ 2040: uvm_test_top.envh.ahb_agth[0].monh [ahb_monitor] ahb_trans: 
 "-------------------------------------------------
Name       Type       Size  Value                
-------------------------------------------------
ahb_xtn    ahb_trans  -     @2102                
  hwrite   integral   1     1                    
  haddr    integral   32    'd663354704          
  htrans   integral   2     2                    
  hsize    integral   3     'd3                  
  hburst   integral   3     'd0                  
  hrdata   integral   64    'd0                  
  hwdata   integral   64    'd8339372813940899685
  hready   integral   1     1                    
  hresp    integral   1     1                    
  hmaster  integral   1     'd0                  
-------------------------------------------------
"
hwrite =1 time=                2040 
UVM_INFO ../tb/scoreboard.sv(259) @ 2040: uvm_test_top.envh.scoreboardh [scoreboard] data is matched
UVM_INFO ../tb/scoreboard.sv(260) @ 2040: uvm_test_top.envh.scoreboardh [scoreboard] axi_temp_wdata: 8339372813940899685 , ahb_hwdata: 8339372813940899685
UVM_INFO ../AHB_AGENT/ahb_driver.sv(46) @ 2040: uvm_test_top.envh.ahb_agth[0].drvh [ahb_driver] in ahb driver           0
 temp_data = 18266459727344394604 
 strb = 11111111
strb= 11111111
UVM_INFO ../AXI_AGENT/axi_monitor.sv(155) @ 2055: uvm_test_top.envh.axi_agth[0].monh [axi_monitor] axi_trans :
 "---------------------------------------------------
Name         Type       Size  Value                
---------------------------------------------------
axi_xtn      axi_trans  -     @1836                
  AWID       integral   8     'd0                  
  AWADDR     integral   32    'd663354664          
  AWLEN      integral   8     'd14                 
  AWSIZE     integral   3     'd3                  
  AWBURST    integral   2     'd0                  
  AWVALID    integral   1     1                    
  AWREADY    integral   1     1                    
  WID        integral   8     'd0                  
  WDATA[0]   integral   64    15334255900404365503 
  WDATA[1]   integral   64    17421135445851946152 
  WDATA[2]   integral   64    'd8563635932893827109
  WDATA[3]   integral   64    'd2416481071617201797
  WDATA[4]   integral   64    18322067721335783518 
  WDATA[5]   integral   64    'd8339372813940899685
  WDATA[6]   integral   64    'd4890172656191027789
  WDATA[7]   integral   64    16482777835094856604 
  WDATA[8]   integral   64    16813433600026910645 
  WDATA[9]   integral   64    'd3235204746060428372
  WDATA[10]  integral   64    10788835039942624958 
  WDATA[11]  integral   64    'd7061638056005506437
  WDATA[12]  integral   64    'd3246588964925184934
  WDATA[13]  integral   64    'd2829632412479007975
  WDATA[14]  integral   64    18266459727344394604 
  WSTRB[0]   integral   8     'b11111111           
  WSTRB[1]   integral   8     'b11111111           
  WSTRB[2]   integral   8     'b11111111           
  WSTRB[3]   integral   8     'b11111111           
  WSTRB[4]   integral   8     'b11111111           
  WSTRB[5]   integral   8     'b11111111           
  WSTRB[6]   integral   8     'b11111111           
  WSTRB[7]   integral   8     'b11111111           
  WSTRB[8]   integral   8     'b11111111           
  WSTRB[9]   integral   8     'b11111111           
  WSTRB[10]  integral   8     'b11111111           
  WSTRB[11]  integral   8     'b11111111           
  WSTRB[12]  integral   8     'b11111111           
  WSTRB[13]  integral   8     'b11111111           
  WSTRB[14]  integral   8     'b11111111           
  WLAST      integral   1     1                    
  WVALID     integral   1     1                    
  WREADY     integral   1     1                    
  bid        integral   8     'd0                  
  bresp      integral   2     'd0                  
  bvalid     integral   1     1                    
  bready     integral   1     1                    
  arid       integral   8     'd0                  
  araddr     integral   32    'd0                  
  arlen      integral   8     'd0                  
  arsize     integral   3     'd0                  
  arburst    integral   2     'd0                  
  arvalid    integral   1     'd0                  
  arready    integral   1     'd0                  
  rid        integral   8     'd0                  
  rlast      integral   1     'd0                  
  rvalid     integral   1     'd0                  
  rready     integral   1     'd0                  
---------------------------------------------------
"
UVM_INFO ../AXI_AGENT/axi_monitor.sv(78) @ 2055: uvm_test_top.envh.axi_agth[0].monh [axi_monitor] after write data channel
UVM_INFO ../AHB_AGENT/ahb_monitor.sv(67) @ 2056: uvm_test_top.envh.ahb_agth[0].monh [ahb_monitor] ahb_trans: 
 "-------------------------------------------------
Name       Type       Size  Value                
-------------------------------------------------
ahb_xtn    ahb_trans  -     @2110                
  hwrite   integral   1     1                    
  haddr    integral   32    'd663354712          
  htrans   integral   2     2                    
  hsize    integral   3     'd3                  
  hburst   integral   3     'd0                  
  hrdata   integral   64    'd0                  
  hwdata   integral   64    'd4890172656191027789
  hready   integral   1     1                    
  hresp    integral   1     'd0                  
  hmaster  integral   1     'd0                  
-------------------------------------------------
"
hwrite =1 time=                2056 
UVM_INFO ../tb/scoreboard.sv(259) @ 2056: uvm_test_top.envh.scoreboardh [scoreboard] data is matched
UVM_INFO ../tb/scoreboard.sv(260) @ 2056: uvm_test_top.envh.scoreboardh [scoreboard] axi_temp_wdata: 4890172656191027789 , ahb_hwdata: 4890172656191027789
UVM_INFO ../AHB_AGENT/ahb_driver.sv(46) @ 2056: uvm_test_top.envh.ahb_agth[0].drvh [ahb_driver] in ahb driver           2
UVM_INFO ../AHB_AGENT/ahb_monitor.sv(67) @ 2072: uvm_test_top.envh.ahb_agth[0].monh [ahb_monitor] ahb_trans: 
 "------------------------------------------------
Name       Type       Size  Value               
------------------------------------------------
ahb_xtn    ahb_trans  -     @2122               
  hwrite   integral   1     1                   
  haddr    integral   32    'd663354720         
  htrans   integral   2     2                   
  hsize    integral   3     'd3                 
  hburst   integral   3     'd0                 
  hrdata   integral   64    'd0                 
  hwdata   integral   64    16482777835094856604
  hready   integral   1     1                   
  hresp    integral   1     'd0                 
  hmaster  integral   1     'd0                 
------------------------------------------------
"
hwrite =1 time=                2072 
UVM_INFO ../tb/scoreboard.sv(259) @ 2072: uvm_test_top.envh.scoreboardh [scoreboard] data is matched
UVM_INFO ../tb/scoreboard.sv(260) @ 2072: uvm_test_top.envh.scoreboardh [scoreboard] axi_temp_wdata: 16482777835094856604 , ahb_hwdata: 16482777835094856604
UVM_INFO ../AHB_AGENT/ahb_monitor.sv(67) @ 2088: uvm_test_top.envh.ahb_agth[0].monh [ahb_monitor] ahb_trans: 
 "------------------------------------------------
Name       Type       Size  Value               
------------------------------------------------
ahb_xtn    ahb_trans  -     @2126               
  hwrite   integral   1     1                   
  haddr    integral   32    'd663354728         
  htrans   integral   2     2                   
  hsize    integral   3     'd3                 
  hburst   integral   3     'd0                 
  hrdata   integral   64    'd0                 
  hwdata   integral   64    16813433600026910645
  hready   integral   1     1                   
  hresp    integral   1     'd0                 
  hmaster  integral   1     'd0                 
------------------------------------------------
"
UVM_INFO ../tb/scoreboard.sv(259) @ 2088: uvm_test_top.envh.scoreboardh [scoreboard] data is matched
UVM_INFO ../tb/scoreboard.sv(260) @ 2088: uvm_test_top.envh.scoreboardh [scoreboard] axi_temp_wdata: 16813433600026910645 , ahb_hwdata: 16813433600026910645
hwrite =1 time=                2104 
UVM_INFO ../AHB_AGENT/ahb_driver.sv(46) @ 2104: uvm_test_top.envh.ahb_agth[0].drvh [ahb_driver] in ahb driver           1
UVM_INFO ../AHB_AGENT/ahb_monitor.sv(67) @ 2120: uvm_test_top.envh.ahb_agth[0].monh [ahb_monitor] ahb_trans: 
 "-------------------------------------------------
Name       Type       Size  Value                
-------------------------------------------------
ahb_xtn    ahb_trans  -     @2130                
  hwrite   integral   1     1                    
  haddr    integral   32    'd663354736          
  htrans   integral   2     2                    
  hsize    integral   3     'd3                  
  hburst   integral   3     'd0                  
  hrdata   integral   64    'd0                  
  hwdata   integral   64    'd3235204746060428372
  hready   integral   1     1                    
  hresp    integral   1     1                    
  hmaster  integral   1     'd0                  
-------------------------------------------------
"
UVM_INFO ../tb/scoreboard.sv(259) @ 2120: uvm_test_top.envh.scoreboardh [scoreboard] data is matched
UVM_INFO ../tb/scoreboard.sv(260) @ 2120: uvm_test_top.envh.scoreboardh [scoreboard] axi_temp_wdata: 3235204746060428372 , ahb_hwdata: 3235204746060428372
hwrite =1 time=                2168 
UVM_INFO ../AHB_AGENT/ahb_monitor.sv(67) @ 2184: uvm_test_top.envh.ahb_agth[0].monh [ahb_monitor] ahb_trans: 
 "------------------------------------------------
Name       Type       Size  Value               
------------------------------------------------
ahb_xtn    ahb_trans  -     @2134               
  hwrite   integral   1     1                   
  haddr    integral   32    'd663354744         
  htrans   integral   2     2                   
  hsize    integral   3     'd3                 
  hburst   integral   3     'd0                 
  hrdata   integral   64    'd0                 
  hwdata   integral   64    10788835039942624958
  hready   integral   1     1                   
  hresp    integral   1     'd0                 
  hmaster  integral   1     'd0                 
------------------------------------------------
"
hwrite =1 time=                2184 
UVM_INFO ../tb/scoreboard.sv(259) @ 2184: uvm_test_top.envh.scoreboardh [scoreboard] data is matched
UVM_INFO ../tb/scoreboard.sv(260) @ 2184: uvm_test_top.envh.scoreboardh [scoreboard] axi_temp_wdata: 10788835039942624958 , ahb_hwdata: 10788835039942624958
UVM_INFO ../AHB_AGENT/ahb_driver.sv(46) @ 2184: uvm_test_top.envh.ahb_agth[0].drvh [ahb_driver] in ahb driver           2
UVM_INFO ../AHB_AGENT/ahb_monitor.sv(67) @ 2200: uvm_test_top.envh.ahb_agth[0].monh [ahb_monitor] ahb_trans: 
 "-------------------------------------------------
Name       Type       Size  Value                
-------------------------------------------------
ahb_xtn    ahb_trans  -     @2138                
  hwrite   integral   1     1                    
  haddr    integral   32    'd663354752          
  htrans   integral   2     2                    
  hsize    integral   3     'd3                  
  hburst   integral   3     'd0                  
  hrdata   integral   64    'd0                  
  hwdata   integral   64    'd7061638056005506437
  hready   integral   1     1                    
  hresp    integral   1     'd0                  
  hmaster  integral   1     'd0                  
-------------------------------------------------
"
UVM_INFO ../tb/scoreboard.sv(259) @ 2200: uvm_test_top.envh.scoreboardh [scoreboard] data is matched
UVM_INFO ../tb/scoreboard.sv(260) @ 2200: uvm_test_top.envh.scoreboardh [scoreboard] axi_temp_wdata: 7061638056005506437 , ahb_hwdata: 7061638056005506437
hwrite =1 time=                2232 
UVM_INFO ../AHB_AGENT/ahb_driver.sv(46) @ 2232: uvm_test_top.envh.ahb_agth[0].drvh [ahb_driver] in ahb driver           1
UVM_INFO ../AHB_AGENT/ahb_monitor.sv(67) @ 2248: uvm_test_top.envh.ahb_agth[0].monh [ahb_monitor] ahb_trans: 
 "-------------------------------------------------
Name       Type       Size  Value                
-------------------------------------------------
ahb_xtn    ahb_trans  -     @2142                
  hwrite   integral   1     1                    
  haddr    integral   32    'd663354760          
  htrans   integral   2     2                    
  hsize    integral   3     'd3                  
  hburst   integral   3     'd0                  
  hrdata   integral   64    'd0                  
  hwdata   integral   64    'd3246588964925184934
  hready   integral   1     1                    
  hresp    integral   1     1                    
  hmaster  integral   1     'd0                  
-------------------------------------------------
"
UVM_INFO ../tb/scoreboard.sv(259) @ 2248: uvm_test_top.envh.scoreboardh [scoreboard] data is matched
UVM_INFO ../tb/scoreboard.sv(260) @ 2248: uvm_test_top.envh.scoreboardh [scoreboard] axi_temp_wdata: 3246588964925184934 , ahb_hwdata: 3246588964925184934
hwrite =1 time=                2296 
UVM_INFO ../AHB_AGENT/ahb_monitor.sv(67) @ 2312: uvm_test_top.envh.ahb_agth[0].monh [ahb_monitor] ahb_trans: 
 "-------------------------------------------------
Name       Type       Size  Value                
-------------------------------------------------
ahb_xtn    ahb_trans  -     @2146                
  hwrite   integral   1     1                    
  haddr    integral   32    'd663354768          
  htrans   integral   2     2                    
  hsize    integral   3     'd3                  
  hburst   integral   3     'd0                  
  hrdata   integral   64    'd0                  
  hwdata   integral   64    'd2829632412479007975
  hready   integral   1     1                    
  hresp    integral   1     'd0                  
  hmaster  integral   1     'd0                  
-------------------------------------------------
"
hwrite =1 time=                2312 
UVM_INFO ../tb/scoreboard.sv(259) @ 2312: uvm_test_top.envh.scoreboardh [scoreboard] data is matched
UVM_INFO ../tb/scoreboard.sv(260) @ 2312: uvm_test_top.envh.scoreboardh [scoreboard] axi_temp_wdata: 2829632412479007975 , ahb_hwdata: 2829632412479007975
UVM_INFO ../AHB_AGENT/ahb_driver.sv(46) @ 2312: uvm_test_top.envh.ahb_agth[0].drvh [ahb_driver] in ahb driver           1
UVM_INFO ../AHB_AGENT/ahb_monitor.sv(67) @ 2328: uvm_test_top.envh.ahb_agth[0].monh [ahb_monitor] ahb_trans: 
 "------------------------------------------------
Name       Type       Size  Value               
------------------------------------------------
ahb_xtn    ahb_trans  -     @2150               
  hwrite   integral   1     1                   
  haddr    integral   32    'd663354776         
  htrans   integral   2     2                   
  hsize    integral   3     'd3                 
  hburst   integral   3     'd0                 
  hrdata   integral   64    'd0                 
  hwdata   integral   64    18266459727344394604
  hready   integral   1     1                   
  hresp    integral   1     'd0                 
  hmaster  integral   1     'd0                 
------------------------------------------------
"
UVM_INFO ../tb/scoreboard.sv(259) @ 2328: uvm_test_top.envh.scoreboardh [scoreboard] data is matched
UVM_INFO ../tb/scoreboard.sv(260) @ 2328: uvm_test_top.envh.scoreboardh [scoreboard] axi_temp_wdata: 18266459727344394604 , ahb_hwdata: 18266459727344394604
UVM_INFO ../AXI_AGENT/axi_monitor.sv(170) @ 2365: uvm_test_top.envh.axi_agth[0].monh [axi_monitor] axi_trans:
 "---------------------------------------------------
Name         Type       Size  Value                
---------------------------------------------------
axi_xtn      axi_trans  -     @1836                
  AWID       integral   8     'd0                  
  AWADDR     integral   32    'd663354664          
  AWLEN      integral   8     'd14                 
  AWSIZE     integral   3     'd3                  
  AWBURST    integral   2     'd0                  
  AWVALID    integral   1     1                    
  AWREADY    integral   1     1                    
  WID        integral   8     'd0                  
  WDATA[0]   integral   64    15334255900404365503 
  WDATA[1]   integral   64    17421135445851946152 
  WDATA[2]   integral   64    'd8563635932893827109
  WDATA[3]   integral   64    'd2416481071617201797
  WDATA[4]   integral   64    18322067721335783518 
  WDATA[5]   integral   64    'd8339372813940899685
  WDATA[6]   integral   64    'd4890172656191027789
  WDATA[7]   integral   64    16482777835094856604 
  WDATA[8]   integral   64    16813433600026910645 
  WDATA[9]   integral   64    'd3235204746060428372
  WDATA[10]  integral   64    10788835039942624958 
  WDATA[11]  integral   64    'd7061638056005506437
  WDATA[12]  integral   64    'd3246588964925184934
  WDATA[13]  integral   64    'd2829632412479007975
  WDATA[14]  integral   64    18266459727344394604 
  WSTRB[0]   integral   8     'b11111111           
  WSTRB[1]   integral   8     'b11111111           
  WSTRB[2]   integral   8     'b11111111           
  WSTRB[3]   integral   8     'b11111111           
  WSTRB[4]   integral   8     'b11111111           
  WSTRB[5]   integral   8     'b11111111           
  WSTRB[6]   integral   8     'b11111111           
  WSTRB[7]   integral   8     'b11111111           
  WSTRB[8]   integral   8     'b11111111           
  WSTRB[9]   integral   8     'b11111111           
  WSTRB[10]  integral   8     'b11111111           
  WSTRB[11]  integral   8     'b11111111           
  WSTRB[12]  integral   8     'b11111111           
  WSTRB[13]  integral   8     'b11111111           
  WSTRB[14]  integral   8     'b11111111           
  WLAST      integral   1     1                    
  WVALID     integral   1     1                    
  WREADY     integral   1     1                    
  bid        integral   8     'd0                  
  bresp      integral   2     'd0                  
  bvalid     integral   1     1                    
  bready     integral   1     1                    
  arid       integral   8     'd0                  
  araddr     integral   32    'd0                  
  arlen      integral   8     'd0                  
  arsize     integral   3     'd0                  
  arburst    integral   2     'd0                  
  arvalid    integral   1     'd0                  
  arready    integral   1     'd0                  
  rid        integral   8     'd0                  
  rlast      integral   1     'd0                  
  rvalid     integral   1     'd0                  
  rready     integral   1     'd0                  
---------------------------------------------------
"
UVM_INFO ../AXI_AGENT/axi_monitor.sv(86) @ 2375: uvm_test_top.envh.axi_agth[0].monh [axi_monitor] after write response channel
UVM_INFO ../AHB_AGENT/ahb_driver.sv(46) @ 2392: uvm_test_top.envh.ahb_agth[0].drvh [ahb_driver] in ahb driver           0
############################################# -- 26
UVM_INFO ../test/test.sv(206) @ 3408: uvm_test_top [axi_test] reset_test run phase
UVM_INFO ../tb/virtual_sequence.sv(36) @ 3408: uvm_test_top.envh.vseqrh@@axi_rst_vseqh [axi_rst_vseq] virtual seq base body
/////////////////////// 0
UVM_INFO ../tb/scoreboard.sv(235) @ 3435: uvm_test_top.envh.scoreboardh [scoreboard] axi reset operation is successful
UVM_INFO ../tb/virtual_sequence.sv(36) @ 3435: uvm_test_top.envh.vseqrh@@ahb_rst_vseqh [ahb_rst_vseq] virtual seq base body
/////////////////////// 1
UVM_INFO ../tb/scoreboard.sv(245) @ 3480: uvm_test_top.envh.scoreboardh [scoreboard] ahb reset operation successful
UVM_INFO ../tb/virtual_sequence.sv(36) @ 3532: uvm_test_top.envh.vseqrh@@axi_vseqh [axi_vseq] virtual seq base body
UVM_INFO ../tb/virtual_sequence.sv(111) @ 3532: uvm_test_top.envh.vseqrh@@axi_vseqh [axi_vseq] has_axi_agent=1
UVM_INFO ../tb/virtual_sequence.sv(36) @ 3532: uvm_test_top.envh.vseqrh@@ahb_vseqh [ahb_vseq] virtual seq base body

 AWLEN  :          13 
 axi_length = '{6, 7, 1, 12, 8, 2, 4}
ahb_length :'{13, 6, 7, 1, 12, 8, 2, 4}
UVM_INFO ../AHB_AGENT/ahb_driver.sv(46) @ 3532: uvm_test_top.envh.ahb_agth[0].drvh [ahb_driver] in ahb driver           0
UVM_INFO ../AHB_AGENT/ahb_driver.sv(46) @ 3544: uvm_test_top.envh.ahb_agth[0].drvh [ahb_driver] in ahb driver           0
UVM_INFO ../AXI_AGENT/axi_driver.sv(61) @ 3545: uvm_test_top.envh.axi_agth[0].drvh [axi_driver] axi_trans :
 "---------------------------------------------------------------------------------------------
Name                           Type       Size  Value                                        
---------------------------------------------------------------------------------------------
req                            axi_trans  -     @2210                                        
  begin_time                   time       64    3532                                         
  depth                        int        32    'd2                                          
  parent sequence (name)       string     9     axi_vseqh                                    
  parent sequence (full name)  string     45    uvm_test_top.envh.axi_agth[0].seqrh.axi_vseqh
  sequencer                    string     35    uvm_test_top.envh.axi_agth[0].seqrh          
  AWID                         integral   8     'd0                                          
  AWADDR                       integral   32    3708470169                                   
  AWLEN                        integral   8     'd13                                         
  AWSIZE                       integral   3     'd0                                          
  AWBURST                      integral   2     'd1                                          
  AWVALID                      integral   1     1                                            
  AWREADY                      integral   1     'd0                                          
  WID                          integral   8     'd0                                          
  WDATA[0]                     integral   64    16591659174203371840                         
  WDATA[1]                     integral   64    12812339799026404903                         
  WDATA[2]                     integral   64    9551174978407053028                          
  WDATA[3]                     integral   64    'd6909872738373338735                        
  WDATA[4]                     integral   64    'd9222627834438772380                        
  WDATA[5]                     integral   64    10535637613130550471                         
  WDATA[6]                     integral   64    14499415436124334328                         
  WDATA[7]                     integral   64    14045917175934904241                         
  WDATA[8]                     integral   64    'd9136916228245202221                        
  WDATA[9]                     integral   64    9533601732625997151                          
  WDATA[10]                    integral   64    13289439971349440058                         
  WDATA[11]                    integral   64    'd8089970763642128841                        
  WDATA[12]                    integral   64    'd5962602758752091000                        
  WDATA[13]                    integral   64    11725593479213125692                         
  WSTRB[0]                     integral   8     'b10                                         
  WSTRB[1]                     integral   8     'b100                                        
  WSTRB[2]                     integral   8     'b1000                                       
  WSTRB[3]                     integral   8     'b10000                                      
  WSTRB[4]                     integral   8     'b100000                                     
  WSTRB[5]                     integral   8     'b1000000                                    
  WSTRB[6]                     integral   8     'b10000000                                   
  WSTRB[7]                     integral   8     'b1                                          
  WSTRB[8]                     integral   8     'b10                                         
  WSTRB[9]                     integral   8     'b100                                        
  WSTRB[10]                    integral   8     'b1000                                       
  WSTRB[11]                    integral   8     'b10000                                      
  WSTRB[12]                    integral   8     'b100000                                     
  WSTRB[13]                    integral   8     'b1000000                                    
  WLAST                        integral   1     'd0                                          
  WVALID                       integral   1     1                                            
  WREADY                       integral   1     'd0                                          
  bid                          integral   8     'd0                                          
  bresp                        integral   2     'd0                                          
  bvalid                       integral   1     'd0                                          
  bready                       integral   1     'd0                                          
  arid                         integral   8     'd0                                          
  araddr                       integral   32    'd1923614210                                 
  arlen                        integral   8     'd13                                         
  arsize                       integral   3     'd1                                          
  arburst                      integral   2     2                                            
  arvalid                      integral   1     1                                            
  arready                      integral   1     'd0                                          
  rid                          integral   8     'd0                                          
  rlast                        integral   1     'd0                                          
  rvalid                       integral   1     'd0                                          
  rready                       integral   1     'd0                                          
---------------------------------------------------------------------------------------------
"
UVM_INFO ../AXI_AGENT/axi_monitor.sv(92) @ 3555: uvm_test_top.envh.axi_agth[0].monh [axi_monitor] after read address channel
UVM_INFO ../AXI_AGENT/axi_monitor.sv(70) @ 3555: uvm_test_top.envh.axi_agth[0].monh [axi_monitor] after write address channel
 temp_data =                12544 
 strb = 00000010
strb= 00000010
UVM_INFO ../AHB_AGENT/ahb_driver.sv(46) @ 3560: uvm_test_top.envh.ahb_agth[0].drvh [ahb_driver] in ahb driver           0
 temp_data =              9502720 
 strb = 00000100
strb= 00000100
UVM_INFO ../AHB_AGENT/ahb_driver.sv(46) @ 3576: uvm_test_top.envh.ahb_agth[0].drvh [ahb_driver] in ahb driver           1
 temp_data =           3741319168 
 strb = 00001000
strb= 00001000
 temp_data =         708669603840 
 strb = 00010000
strb= 00010000
 temp_data =      100055558127616 
 strb = 00100000
strb= 00100000
 temp_data =    15199648742375424 
 strb = 01000000
strb= 01000000
hwrite =1 time=                3656 
UVM_INFO ../AHB_AGENT/ahb_driver.sv(46) @ 3656: uvm_test_top.envh.ahb_agth[0].drvh [ahb_driver] in ahb driver           1
UVM_INFO ../AHB_AGENT/ahb_monitor.sv(67) @ 3672: uvm_test_top.envh.ahb_agth[0].monh [ahb_monitor] ahb_trans: 
 "--------------------------------------
Name       Type       Size  Value     
--------------------------------------
ahb_xtn    ahb_trans  -     @2154     
  hwrite   integral   1     1         
  haddr    integral   32    3708470169
  htrans   integral   2     2         
  hsize    integral   3     'd0       
  hburst   integral   3     'd0       
  hrdata   integral   64    'd0       
  hwdata   integral   64    'd12544   
  hready   integral   1     1         
  hresp    integral   1     'd0       
  hmaster  integral   1     'd0       
--------------------------------------
"
UVM_INFO ../tb/scoreboard.sv(259) @ 3672: uvm_test_top.envh.scoreboardh [scoreboard] data is matched
UVM_INFO ../tb/scoreboard.sv(260) @ 3672: uvm_test_top.envh.scoreboardh [scoreboard] axi_temp_wdata: 12544 , ahb_hwdata: 12544
 temp_data = 14483576401623515136 
 strb = 10000000
strb= 10000000
 temp_data =                  177 
 strb = 00000001
strb= 00000001
 temp_data =                42240 
 strb = 00000010
strb= 00000010
hwrite =1 time=                3720 
 temp_data =              3670016 
 strb = 00000100
strb= 00000100
UVM_INFO ../AHB_AGENT/ahb_monitor.sv(67) @ 3736: uvm_test_top.envh.ahb_agth[0].monh [ahb_monitor] ahb_trans: 
 "--------------------------------------
Name       Type       Size  Value     
--------------------------------------
ahb_xtn    ahb_trans  -     @2256     
  hwrite   integral   1     1         
  haddr    integral   32    3708470170
  htrans   integral   2     2         
  hsize    integral   3     'd0       
  hburst   integral   3     'd0       
  hrdata   integral   64    'd0       
  hwdata   integral   64    'd9502720 
  hready   integral   1     1         
  hresp    integral   1     'd0       
  hmaster  integral   1     'd0       
--------------------------------------
"
hwrite =1 time=                3736 
UVM_INFO ../tb/scoreboard.sv(259) @ 3736: uvm_test_top.envh.scoreboardh [scoreboard] data is matched
UVM_INFO ../tb/scoreboard.sv(260) @ 3736: uvm_test_top.envh.scoreboardh [scoreboard] axi_temp_wdata: 9502720 , ahb_hwdata: 9502720
UVM_INFO ../AHB_AGENT/ahb_driver.sv(46) @ 3736: uvm_test_top.envh.ahb_agth[0].drvh [ahb_driver] in ahb driver           0
UVM_INFO ../AHB_AGENT/ahb_monitor.sv(67) @ 3752: uvm_test_top.envh.ahb_agth[0].monh [ahb_monitor] ahb_trans: 
 "----------------------------------------
Name       Type       Size  Value       
----------------------------------------
ahb_xtn    ahb_trans  -     @2276       
  hwrite   integral   1     1           
  haddr    integral   32    3708470171  
  htrans   integral   2     2           
  hsize    integral   3     'd0         
  hburst   integral   3     'd0         
  hrdata   integral   64    'd0         
  hwdata   integral   64    'd3741319168
  hready   integral   1     1           
  hresp    integral   1     'd0         
  hmaster  integral   1     'd0         
----------------------------------------
"
hwrite =1 time=                3752 
UVM_INFO ../tb/scoreboard.sv(259) @ 3752: uvm_test_top.envh.scoreboardh [scoreboard] data is matched
UVM_INFO ../tb/scoreboard.sv(260) @ 3752: uvm_test_top.envh.scoreboardh [scoreboard] axi_temp_wdata: 3741319168 , ahb_hwdata: 3741319168
UVM_INFO ../AHB_AGENT/ahb_driver.sv(46) @ 3752: uvm_test_top.envh.ahb_agth[0].drvh [ahb_driver] in ahb driver           2
 temp_data =           1409286144 
 strb = 00001000
strb= 00001000
UVM_INFO ../AHB_AGENT/ahb_monitor.sv(67) @ 3768: uvm_test_top.envh.ahb_agth[0].monh [ahb_monitor] ahb_trans: 
 "------------------------------------------
Name       Type       Size  Value         
------------------------------------------
ahb_xtn    ahb_trans  -     @2280         
  hwrite   integral   1     1             
  haddr    integral   32    3708470172    
  htrans   integral   2     2             
  hsize    integral   3     'd0           
  hburst   integral   3     'd0           
  hrdata   integral   64    'd0           
  hwdata   integral   64    'd708669603840
  hready   integral   1     1             
  hresp    integral   1     'd0           
  hmaster  integral   1     'd0           
------------------------------------------
"
hwrite =1 time=                3768 
UVM_INFO ../tb/scoreboard.sv(259) @ 3768: uvm_test_top.envh.scoreboardh [scoreboard] data is matched
UVM_INFO ../tb/scoreboard.sv(260) @ 3768: uvm_test_top.envh.scoreboardh [scoreboard] axi_temp_wdata: 708669603840 , ahb_hwdata: 708669603840
 temp_data =         601295421440 
 strb = 00010000
strb= 00010000
UVM_INFO ../AHB_AGENT/ahb_monitor.sv(67) @ 3784: uvm_test_top.envh.ahb_agth[0].monh [ahb_monitor] ahb_trans: 
 "---------------------------------------------
Name       Type       Size  Value            
---------------------------------------------
ahb_xtn    ahb_trans  -     @2288            
  hwrite   integral   1     1                
  haddr    integral   32    3708470173       
  htrans   integral   2     2                
  hsize    integral   3     'd0              
  hburst   integral   3     'd0              
  hrdata   integral   64    'd0              
  hwdata   integral   64    'd100055558127616
  hready   integral   1     1                
  hresp    integral   1     'd0              
  hmaster  integral   1     'd0              
---------------------------------------------
"
UVM_INFO ../tb/scoreboard.sv(259) @ 3784: uvm_test_top.envh.scoreboardh [scoreboard] data is matched
UVM_INFO ../tb/scoreboard.sv(260) @ 3784: uvm_test_top.envh.scoreboardh [scoreboard] axi_temp_wdata: 100055558127616 , ahb_hwdata: 100055558127616
 temp_data =      117647744172032 
 strb = 00100000
strb= 00100000
hwrite =1 time=                3800 
UVM_INFO ../AHB_AGENT/ahb_driver.sv(46) @ 3800: uvm_test_top.envh.ahb_agth[0].drvh [ahb_driver] in ahb driver           2
 temp_data =    52072870691471360 
 strb = 01000000
strb= 01000000
UVM_INFO ../AHB_AGENT/ahb_monitor.sv(67) @ 3816: uvm_test_top.envh.ahb_agth[0].monh [ahb_monitor] ahb_trans: 
 "-----------------------------------------------
Name       Type       Size  Value              
-----------------------------------------------
ahb_xtn    ahb_trans  -     @2296              
  hwrite   integral   1     1                  
  haddr    integral   32    3708470174         
  htrans   integral   2     2                  
  hsize    integral   3     'd0                
  hburst   integral   3     'd0                
  hrdata   integral   64    'd0                
  hwdata   integral   64    'd15199648742375424
  hready   integral   1     1                  
  hresp    integral   1     1                  
  hmaster  integral   1     'd0                
-----------------------------------------------
"
UVM_INFO ../tb/scoreboard.sv(259) @ 3816: uvm_test_top.envh.scoreboardh [scoreboard] data is matched
UVM_INFO ../tb/scoreboard.sv(260) @ 3816: uvm_test_top.envh.scoreboardh [scoreboard] axi_temp_wdata: 15199648742375424 , ahb_hwdata: 15199648742375424
UVM_INFO ../AXI_AGENT/axi_monitor.sv(155) @ 3825: uvm_test_top.envh.axi_agth[0].monh [axi_monitor] axi_trans :
 "---------------------------------------------------
Name         Type       Size  Value                
---------------------------------------------------
axi_xtn      axi_trans  -     @2022                
  AWID       integral   8     'd0                  
  AWADDR     integral   32    3708470169           
  AWLEN      integral   8     'd13                 
  AWSIZE     integral   3     'd0                  
  AWBURST    integral   2     'd1                  
  AWVALID    integral   1     1                    
  AWREADY    integral   1     1                    
  WID        integral   8     'd0                  
  WDATA[0]   integral   64    16591659174203371840 
  WDATA[1]   integral   64    12812339799026404903 
  WDATA[2]   integral   64    9551174978407053028  
  WDATA[3]   integral   64    'd6909872738373338735
  WDATA[4]   integral   64    'd9222627834438772380
  WDATA[5]   integral   64    10535637613130550471 
  WDATA[6]   integral   64    14499415436124334328 
  WDATA[7]   integral   64    14045917175934904241 
  WDATA[8]   integral   64    'd9136916228245202221
  WDATA[9]   integral   64    9533601732625997151  
  WDATA[10]  integral   64    13289439971349440058 
  WDATA[11]  integral   64    'd8089970763642128841
  WDATA[12]  integral   64    'd5962602758752091000
  WDATA[13]  integral   64    11725593479213125692 
  WSTRB[0]   integral   8     'b10                 
  WSTRB[1]   integral   8     'b100                
  WSTRB[2]   integral   8     'b1000               
  WSTRB[3]   integral   8     'b10000              
  WSTRB[4]   integral   8     'b100000             
  WSTRB[5]   integral   8     'b1000000            
  WSTRB[6]   integral   8     'b10000000           
  WSTRB[7]   integral   8     'b1                  
  WSTRB[8]   integral   8     'b10                 
  WSTRB[9]   integral   8     'b100                
  WSTRB[10]  integral   8     'b1000               
  WSTRB[11]  integral   8     'b10000              
  WSTRB[12]  integral   8     'b100000             
  WSTRB[13]  integral   8     'b1000000            
  WLAST      integral   1     1                    
  WVALID     integral   1     1                    
  WREADY     integral   1     1                    
  bid        integral   8     'd0                  
  bresp      integral   2     'd0                  
  bvalid     integral   1     1                    
  bready     integral   1     1                    
  arid       integral   8     'd0                  
  araddr     integral   32    'd0                  
  arlen      integral   8     'd0                  
  arsize     integral   3     'd0                  
  arburst    integral   2     'd0                  
  arvalid    integral   1     'd0                  
  arready    integral   1     'd0                  
  rid        integral   8     'd0                  
  rlast      integral   1     'd0                  
  rvalid     integral   1     'd0                  
  rready     integral   1     'd0                  
---------------------------------------------------
"
UVM_INFO ../AXI_AGENT/axi_monitor.sv(78) @ 3825: uvm_test_top.envh.axi_agth[0].monh [axi_monitor] after write data channel
hwrite =1 time=                3848 
UVM_INFO ../AHB_AGENT/ahb_driver.sv(46) @ 3848: uvm_test_top.envh.ahb_agth[0].drvh [ahb_driver] in ahb driver           0
UVM_INFO ../AHB_AGENT/ahb_monitor.sv(67) @ 3864: uvm_test_top.envh.ahb_agth[0].monh [ahb_monitor] ahb_trans: 
 "------------------------------------------------
Name       Type       Size  Value               
------------------------------------------------
ahb_xtn    ahb_trans  -     @2308               
  hwrite   integral   1     1                   
  haddr    integral   32    3708470175          
  htrans   integral   2     2                   
  hsize    integral   3     'd0                 
  hburst   integral   3     'd0                 
  hrdata   integral   64    'd0                 
  hwdata   integral   64    14483576401623515136
  hready   integral   1     1                   
  hresp    integral   1     1                   
  hmaster  integral   1     'd0                 
------------------------------------------------
"
hwrite =1 time=                3864 
UVM_INFO ../tb/scoreboard.sv(259) @ 3864: uvm_test_top.envh.scoreboardh [scoreboard] data is matched
UVM_INFO ../tb/scoreboard.sv(260) @ 3864: uvm_test_top.envh.scoreboardh [scoreboard] axi_temp_wdata: 14483576401623515136 , ahb_hwdata: 14483576401623515136
UVM_INFO ../AHB_AGENT/ahb_driver.sv(46) @ 3864: uvm_test_top.envh.ahb_agth[0].drvh [ahb_driver] in ahb driver           2
UVM_INFO ../AHB_AGENT/ahb_monitor.sv(67) @ 3880: uvm_test_top.envh.ahb_agth[0].monh [ahb_monitor] ahb_trans: 
 "--------------------------------------
Name       Type       Size  Value     
--------------------------------------
ahb_xtn    ahb_trans  -     @2316     
  hwrite   integral   1     1         
  haddr    integral   32    3708470176
  htrans   integral   2     2         
  hsize    integral   3     'd0       
  hburst   integral   3     'd0       
  hrdata   integral   64    'd0       
  hwdata   integral   64    'd177     
  hready   integral   1     1         
  hresp    integral   1     'd0       
  hmaster  integral   1     'd0       
--------------------------------------
"
hwrite =1 time=                3880 
UVM_INFO ../tb/scoreboard.sv(259) @ 3880: uvm_test_top.envh.scoreboardh [scoreboard] data is matched
UVM_INFO ../tb/scoreboard.sv(260) @ 3880: uvm_test_top.envh.scoreboardh [scoreboard] axi_temp_wdata: 177 , ahb_hwdata: 177
UVM_INFO ../AHB_AGENT/ahb_monitor.sv(67) @ 3896: uvm_test_top.envh.ahb_agth[0].monh [ahb_monitor] ahb_trans: 
 "--------------------------------------
Name       Type       Size  Value     
--------------------------------------
ahb_xtn    ahb_trans  -     @2320     
  hwrite   integral   1     1         
  haddr    integral   32    3708470177
  htrans   integral   2     2         
  hsize    integral   3     'd0       
  hburst   integral   3     'd0       
  hrdata   integral   64    'd0       
  hwdata   integral   64    'd42240   
  hready   integral   1     1         
  hresp    integral   1     'd0       
  hmaster  integral   1     'd0       
--------------------------------------
"
