vsim -cvgperinstance -vopt -voptargs="+acc" -coverage -sva -c -do " log -r /* ;coverage save -onexit mem_cov5;run -all; exit" -wlf wave_file5.wlf -l test5.log -sv_seed 3491837404 work.axi2ahb_bridge_tb_top "+UVM_TESTNAME=axi_read_test" "+UVM_VERBOSITY=UVM_HIGH" 
Start time: 12:15:50 on Feb 07,2025
** Note: (vsim-8009) Loading existing optimized design _opt
//  Questa Sim-64
//  Version 2019.2 linux_x86_64 Apr 16 2019
//
//  Copyright 1991-2019 Mentor Graphics Corporation
//  All Rights Reserved.
//
//  QuestaSim and its associated documentation contain trade
//  secrets and commercial or financial information that are the property of
//  Mentor Graphics Corporation and are privileged, confidential,
//  and exempt from disclosure under the Freedom of Information Act,
//  5 U.S.C. Section 552. Furthermore, this information
//  is prohibited from disclosure under the Trade Secrets Act,
//  18 U.S.C. Section 1905.
//
Loading sv_std.std
Loading work.ahb_if(fast)
Loading work.axi_rst_if(fast)
Loading mtiUvm.uvm_pkg
Loading work.axi2ahb_pkg(fast)
Loading work.axi_if(fast)
Loading work.ahb_rst_if(fast)
Loading mtiUvm.questa_uvm_pkg(fast)
Loading work.axi2ahb_bridge_tb_top(fast)
Loading work.axi_if(fast)
Loading work.ahb_if(fast)
Loading work.axi_rst_if(fast)
Loading work.ahb_rst_if(fast)
Loading work.axi2ahb_bridge_top(fast)
Loading work.axi_controller(fast)
Loading work.axi2fifo(fast)
Loading work.fifo2axi(fast)
Loading work.fifo_wrapper(fast)
Loading work.id_resp_fifo(fast)
Loading work.resp_fifo(fast)
Loading work.rdata_fifo(fast)
Loading work.size_fifo(fast)
Loading work.id_send_fifo(fast)
Loading work.write_fifo(fast)
Loading work.data_fifo(fast)
Loading work.addr_fifo(fast)
Loading work.ahb_controller(fast)
** Warning: (vsim-8441) Clocking block output vif.axi_drv_cb.arlen is not legal in this
or another expression.
   Time: 0 ns  Iteration: 0  Region: /axi2ahb_pkg::axi_driver File: ../AXI_AGENT/axi_driver.sv Line: 177
# Loading /home/cad/eda/Questa_2019/questasim/uvm-1.1d/linux_x86_64/uvm_dpi.so
** Warning: (vsim-8634) Code was not compiled with coverage options.
 log -r /* 
coverage save -onexit mem_cov5
run -all
----------------------------------------------------------------
UVM-1.1d
(C) 2007-2013 Mentor Graphics Corporation
(C) 2007-2013 Cadence Design Systems, Inc.
(C) 2006-2013 Synopsys, Inc.
(C) 2011-2013 Cypress Semiconductor Corp.
----------------------------------------------------------------

  ***********       IMPORTANT RELEASE NOTES         ************

  You are using a version of the UVM library that has been compiled
  with `UVM_NO_DEPRECATED undefined.
  See http://www.eda.org/svdb/view.php?id=3313 for more details.

  You are using a version of the UVM library that has been compiled
  with `UVM_OBJECT_MUST_HAVE_CONSTRUCTOR undefined.
  See http://www.eda.org/svdb/view.php?id=3770 for more details.

      (Specify +UVM_NO_RELNOTES to turn off this notice)

UVM_INFO verilog_src/questa_uvm_pkg-1.2/src/questa_uvm_pkg.sv(277) @ 0: reporter [Questa UVM] QUESTA_UVM-1.2.3
UVM_INFO verilog_src/questa_uvm_pkg-1.2/src/questa_uvm_pkg.sv(278) @ 0: reporter [Questa UVM]  questa_uvm::init(+struct)
UVM_INFO @ 0: reporter [RNTST] Running test axi_read_test...
 lengths : 8
 lengths : 11
 lengths : 9
 lengths : 8
 lengths : 6
 lengths : 10
 lengths : 10
 lengths : 7
 lengths : 8
 lengths : 13
 lengths : 5
 lengths : 12
 lengths : 15
 lengths : 3
 lengths : 4
UVM_INFO ../AHB_AGENT/ahb_agent.sv(30) @ 0: uvm_test_top.envh.ahb_agth[0] [ahb_agent] ahb agent build_phase
UVM_INFO ../AHB_RST_AGENT/ahb_rst_agent.sv(31) @ 0: uvm_test_top.envh.ahb_rst_agth[0] [ahb_rst_agent] ahb rst agent  build_phase
UVM_INFO ../AHB_RST_AGENT/ahb_rst_driver.sv(29) @ 0: uvm_test_top.envh.ahb_rst_agth[0].drvh [ahb_rst_driver] ahb rst driver build_phase
UVM_INFO ../AHB_RST_AGENT/ahb_rst_monitor.sv(31) @ 0: uvm_test_top.envh.ahb_rst_agth[0].monh [ahb_rst_monitor] ahb rst monitor build_phase
UVM_INFO ../AXI_AGENT/axi_agent.sv(26) @ 0: uvm_test_top.envh.axi_agth[0] [axi_agent] axi agent build_phase
UVM_INFO ../AXI_RST_AGENT/axi_rst_agent.sv(28) @ 0: uvm_test_top.envh.axi_rst_agth[0] [axi_rst_agent] axi rst agent  build_phase
UVM_INFO ../AXI_RST_AGENT/axi_rst_driver.sv(24) @ 0: uvm_test_top.envh.axi_rst_agth[0].drvh [axi_rst_driver] axi rst driver build_phase
UVM_INFO ../AXI_RST_AGENT/axi_rst_monitor.sv(32) @ 0: uvm_test_top.envh.axi_rst_agth[0].monh [axi_rst_monitor] axi rst monitor build_phase
UVM_INFO ../AHB_AGENT/ahb_agent.sv(36) @ 0: uvm_test_top.envh.ahb_agth[0] [ahb_agent] ahb agent connect _phase
UVM_INFO ../AHB_RST_AGENT/ahb_rst_driver.sv(36) @ 0: uvm_test_top.envh.ahb_rst_agth[0].drvh [ahb_rst_driver] ahb rst driver connect_phase
UVM_INFO ../AHB_RST_AGENT/ahb_rst_monitor.sv(38) @ 0: uvm_test_top.envh.ahb_rst_agth[0].monh [ahb_rst_monitor] ahb rst monitor connect_phase
UVM_INFO ../AHB_RST_AGENT/ahb_rst_agent.sv(38) @ 0: uvm_test_top.envh.ahb_rst_agth[0] [ahb_rst_agent] ahb rst agent connect_phase
UVM_INFO ../AXI_AGENT/axi_agent.sv(33) @ 0: uvm_test_top.envh.axi_agth[0] [axi_agent] axi agent connect_phase
UVM_INFO ../AXI_RST_AGENT/axi_rst_driver.sv(30) @ 0: uvm_test_top.envh.axi_rst_agth[0].drvh [axi_rst_driver] axi rst driver connecr_phase
UVM_INFO ../AXI_RST_AGENT/axi_rst_monitor.sv(39) @ 0: uvm_test_top.envh.axi_rst_agth[0].monh [axi_rst_monitor] axi rst monitor connect_phase
UVM_INFO ../AXI_RST_AGENT/axi_rst_agent.sv(35) @ 0: uvm_test_top.envh.axi_rst_agth[0] [axi_rst_agent] axi rst agent connnect_phase
UVM_INFO ../test/test.sv(131) @ 0: uvm_test_top [axi_read_test] test end of elaboration__phase
UVM_INFO @ 0: reporter [UVMTOP] UVM testbench topology:
----------------------------------------------------------------------------
Name                                 Type                        Size  Value
----------------------------------------------------------------------------
uvm_test_top                         axi_read_test               -     @491 
  envh                               environment                 -     @511 
    ahb_agth[0]                      ahb_agent                   -     @541 
      drvh                           ahb_driver                  -     @696 
        rsp_port                     uvm_analysis_port           -     @711 
        seq_item_port                uvm_seq_item_pull_port      -     @703 
      monh                           ahb_monitor                 -     @681 
        monitor_port                 uvm_analysis_port           -     @688 
      seqrh                          ahb_sequencer               -     @719 
        rsp_export                   uvm_analysis_export         -     @726 
        seq_item_export              uvm_seq_item_pull_imp       -     @820 
        arbitration_queue            array                       0     -    
        lock_queue                   array                       0     -    
        num_last_reqs                integral                    32    'd1  
        num_last_rsps                integral                    32    'd1  
    ahb_rst_agth[0]                  ahb_rst_agent               -     @552 
      drvh                           ahb_rst_driver              -     @854 
        rsp_port                     uvm_analysis_port           -     @869 
        seq_item_port                uvm_seq_item_pull_port      -     @861 
      monh                           ahb_rst_monitor             -     @839 
        rst_monitor_port             uvm_analysis_port           -     @846 
      seqrh                          ahb_rst_sequencer           -     @877 
        rsp_export                   uvm_analysis_export         -     @884 
        seq_item_export              uvm_seq_item_pull_imp       -     @978 
        arbitration_queue            array                       0     -    
        lock_queue                   array                       0     -    
        num_last_reqs                integral                    32    'd1  
        num_last_rsps                integral                    32    'd1  
    axi_agth[0]                      axi_agent                   -     @519 
      drvh                           axi_driver                  -     @1028
        rsp_port                     uvm_analysis_port           -     @1043
        seq_item_port                uvm_seq_item_pull_port      -     @1035
      monh                           axi_monitor                 -     @997 
        axi_monitor_port             uvm_analysis_port           -     @1004
        axi_read_data_monitor_port   uvm_analysis_port           -     @1020
        axi_write_data_monitor_port  uvm_analysis_port           -     @1012
      seqrh                          axi_sequencer               -     @1051
        rsp_export                   uvm_analysis_export         -     @1058
        seq_item_export              uvm_seq_item_pull_imp       -     @1152
        arbitration_queue            array                       0     -    
        lock_queue                   array                       0     -    
        num_last_reqs                integral                    32    'd1  
        num_last_rsps                integral                    32    'd1  
    axi_rst_agth[0]                  axi_rst_agent               -     @530 
      drvh                           axi_rst_driver              -     @1185
        rsp_port                     uvm_analysis_port           -     @1200
        seq_item_port                uvm_seq_item_pull_port      -     @1192
      monh                           axi_rst_monitor             -     @1170
        rst_monitor_port             uvm_analysis_port           -     @1177
      seqrh                          axi_rst_sequencer           -     @1208
        rsp_export                   uvm_analysis_export         -     @1215
        seq_item_export              uvm_seq_item_pull_imp       -     @1309
        arbitration_queue            array                       0     -    
        lock_queue                   array                       0     -    
        num_last_reqs                integral                    32    'd1  
        num_last_rsps                integral                    32    'd1  
    scoreboardh                      scoreboard                  -     @672 
      fifo_ahb_h[0]                  uvm_tlm_analysis_fifo #(T)  -     @1565
        analysis_export              uvm_analysis_imp            -     @1604
        get_ap                       uvm_analysis_port           -     @1596
        get_peek_export              uvm_get_peek_imp            -     @1580
        put_ap                       uvm_analysis_port           -     @1588
        put_export                   uvm_put_imp                 -     @1572
      fifo_ahb_rst_h[0]              uvm_tlm_analysis_fifo #(T)  -     @1377
        analysis_export              uvm_analysis_imp            -     @1416
        get_ap                       uvm_analysis_port           -     @1408
        get_peek_export              uvm_get_peek_imp            -     @1392
        put_ap                       uvm_analysis_port           -     @1400
        put_export                   uvm_put_imp                 -     @1384
      fifo_axi_h[0]                  uvm_tlm_analysis_fifo #(T)  -     @1424
        analysis_export              uvm_analysis_imp            -     @1463
        get_ap                       uvm_analysis_port           -     @1455
        get_peek_export              uvm_get_peek_imp            -     @1439
        put_ap                       uvm_analysis_port           -     @1447
        put_export                   uvm_put_imp                 -     @1431
      fifo_axi_rdata_h[0]            uvm_tlm_analysis_fifo #(T)  -     @1518
        analysis_export              uvm_analysis_imp            -     @1557
        get_ap                       uvm_analysis_port           -     @1549
        get_peek_export              uvm_get_peek_imp            -     @1533
        put_ap                       uvm_analysis_port           -     @1541
        put_export                   uvm_put_imp                 -     @1525
      fifo_axi_rst_h[0]              uvm_tlm_analysis_fifo #(T)  -     @1330
        analysis_export              uvm_analysis_imp            -     @1369
        get_ap                       uvm_analysis_port           -     @1361
        get_peek_export              uvm_get_peek_imp            -     @1345
        put_ap                       uvm_analysis_port           -     @1353
        put_export                   uvm_put_imp                 -     @1337
      fifo_axi_wdata_h[0]            uvm_tlm_analysis_fifo #(T)  -     @1471
        analysis_export              uvm_analysis_imp            -     @1510
        get_ap                       uvm_analysis_port           -     @1502
        get_peek_export              uvm_get_peek_imp            -     @1486
        put_ap                       uvm_analysis_port           -     @1494
        put_export                   uvm_put_imp                 -     @1478
    vseqrh                           virtual_sequencer           -     @563 
      rsp_export                     uvm_analysis_export         -     @570 
      seq_item_export                uvm_seq_item_pull_imp       -     @664 
      arbitration_queue              array                       0     -    
      lock_queue                     array                       0     -    
      num_last_reqs                  integral                    32    'd1  
      num_last_rsps                  integral                    32    'd1  
----------------------------------------------------------------------------

UVM_INFO verilog_src/questa_uvm_pkg-1.2/src/questa_uvm_pkg.sv(339) @ 0: reporter [Questa UVM] End Of Elaboration
UVM_INFO ../test/test.sv(324) @ 0: uvm_test_top [axi_read_test] reset_test run phase
UVM_INFO ../tb/virtual_sequence.sv(36) @ 0: uvm_test_top.envh.vseqrh@@axi_rst_vseqh [axi_rst_vseq] virtual seq base body
/////////////////////// 0
UVM_INFO ../tb/scoreboard.sv(235) @ 25: uvm_test_top.envh.scoreboardh [scoreboard] axi reset operation is successful
UVM_INFO ../tb/virtual_sequence.sv(36) @ 25: uvm_test_top.envh.vseqrh@@ahb_rst_vseqh [ahb_rst_vseq] virtual seq base body
/////////////////////// 1
UVM_INFO ../tb/scoreboard.sv(245) @ 72: uvm_test_top.envh.scoreboardh [scoreboard] ahb reset operation successful
UVM_INFO ../tb/virtual_sequence.sv(36) @ 104: uvm_test_top.envh.vseqrh@@axi_read_vseqh [axi_read_vseq] virtual seq base body
UVM_INFO ../tb/virtual_sequence.sv(36) @ 104: uvm_test_top.envh.vseqrh@@ahb_vseqh [ahb_read_vseq] virtual seq base body

 AWLEN  :           8 
 axi_length = '{11, 9, 8, 6, 10, 10, 7, 8, 13, 5, 12, 15, 3, 4}
ahb_length :'{8, 11, 9, 8, 6, 10, 10, 7, 8, 13, 5, 12, 15, 3, 4}
UVM_INFO ../AHB_AGENT/ahb_driver.sv(46) @ 104: uvm_test_top.envh.ahb_agth[0].drvh [ahb_driver] in ahb driver           0
UVM_INFO ../AXI_AGENT/axi_driver.sv(61) @ 115: uvm_test_top.envh.axi_agth[0].drvh [axi_driver] axi_trans :
 "--------------------------------------------------------------------------------------------------
Name                           Type       Size  Value                                             
--------------------------------------------------------------------------------------------------
req                            axi_trans  -     @1824                                             
  begin_time                   time       64    104                                               
  depth                        int        32    'd2                                               
  parent sequence (name)       string     14    axi_read_vseqh                                    
  parent sequence (full name)  string     50    uvm_test_top.envh.axi_agth[0].seqrh.axi_read_vseqh
  sequencer                    string     35    uvm_test_top.envh.axi_agth[0].seqrh               
  AWID                         integral   8     'd0                                               
  AWADDR                       integral   32    'd2013880190                                      
  AWLEN                        integral   8     'd8                                               
  AWSIZE                       integral   3     'd3                                               
  AWBURST                      integral   2     'd1                                               
  AWVALID                      integral   1     'd0                                               
  AWREADY                      integral   1     'd0                                               
  WID                          integral   8     'd0                                               
  WDATA[0]                     integral   64    'd6584854675480075225                             
  WDATA[1]                     integral   64    'd2395402879030071047                             
  WDATA[2]                     integral   64    'd7347934941758331054                             
  WDATA[3]                     integral   64    10991356038289122086                              
  WDATA[4]                     integral   64    15821996982112915334                              
  WDATA[5]                     integral   64    'd1682699306323459637                             
  WDATA[6]                     integral   64    9561299441199864079                               
  WDATA[7]                     integral   64    'd5925815451102610182                             
  WDATA[8]                     integral   64    'd8950970034793781068                             
  WSTRB[0]                     integral   8     'b11000000                                        
  WSTRB[1]                     integral   8     'b11111111                                        
  WSTRB[2]                     integral   8     'b11111111                                        
  WSTRB[3]                     integral   8     'b11111111                                        
  WSTRB[4]                     integral   8     'b11111111                                        
  WSTRB[5]                     integral   8     'b11111111                                        
  WSTRB[6]                     integral   8     'b11111111                                        
  WSTRB[7]                     integral   8     'b11111111                                        
  WSTRB[8]                     integral   8     'b11111111                                        
  WLAST                        integral   1     'd0                                               
  WVALID                       integral   1     'd0                                               
  WREADY                       integral   1     'd0                                               
  bid                          integral   8     'd0                                               
  bresp                        integral   2     'd0                                               
  bvalid                       integral   1     'd0                                               
  bready                       integral   1     'd0                                               
  arid                         integral   8     'd0                                               
  araddr                       integral   32    3884101904                                        
  arlen                        integral   8     'd8                                               
  arsize                       integral   3     'd1                                               
  arburst                      integral   2     2                                                 
  arvalid                      integral   1     1                                                 
  arready                      integral   1     'd0                                               
  rid                          integral   8     'd0                                               
  rlast                        integral   1     'd0                                               
  rvalid                       integral   1     'd0                                               
  rready                       integral   1     'd0                                               
--------------------------------------------------------------------------------------------------
"
UVM_INFO ../AHB_AGENT/ahb_driver.sv(46) @ 120: uvm_test_top.envh.ahb_agth[0].drvh [ahb_driver] in ahb driver           0
UVM_INFO ../AXI_AGENT/axi_monitor.sv(92) @ 125: uvm_test_top.envh.axi_agth[0].monh [axi_monitor] after read address channel
UVM_INFO ../AHB_AGENT/ahb_driver.sv(46) @ 136: uvm_test_top.envh.ahb_agth[0].drvh [ahb_driver] in ahb driver           0
UVM_INFO ../AHB_AGENT/ahb_driver.sv(46) @ 152: uvm_test_top.envh.ahb_agth[0].drvh [ahb_driver] in ahb driver           0
UVM_INFO ../AHB_AGENT/ahb_driver.sv(46) @ 168: uvm_test_top.envh.ahb_agth[0].drvh [ahb_driver] in ahb driver           0
UVM_INFO ../AHB_AGENT/ahb_driver.sv(46) @ 184: uvm_test_top.envh.ahb_agth[0].drvh [ahb_driver] in ahb driver           0
hwrite =0 time=                 200 
UVM_INFO ../AHB_AGENT/ahb_driver.sv(46) @ 200: uvm_test_top.envh.ahb_agth[0].drvh [ahb_driver] in ahb driver           0
 hrdata time =                  216
UVM_INFO ../AHB_AGENT/ahb_monitor.sv(67) @ 216: uvm_test_top.envh.ahb_agth[0].monh [ahb_monitor] ahb_trans: 
 "------------------------------------------------
Name       Type       Size  Value               
------------------------------------------------
ahb_xtn    ahb_trans  -     @1657               
  hwrite   integral   1     'd0                 
  haddr    integral   32    3884101904          
  htrans   integral   2     2                   
  hsize    integral   3     'd1                 
  hburst   integral   3     'd0                 
  hrdata   integral   64    15834936899132313220
  hwdata   integral   64    'd0                 
  hready   integral   1     1                   
  hresp    integral   1     'd0                 
  hmaster  integral   1     'd0                 
------------------------------------------------
"
hwrite =0 time=                 216 
UVM_INFO ../AHB_AGENT/ahb_driver.sv(46) @ 216: uvm_test_top.envh.ahb_agth[0].drvh [ahb_driver] in ahb driver           0
 hrdata time =                  232
UVM_INFO ../AHB_AGENT/ahb_monitor.sv(67) @ 232: uvm_test_top.envh.ahb_agth[0].monh [ahb_monitor] ahb_trans: 
 "-------------------------------------------------
Name       Type       Size  Value                
-------------------------------------------------
ahb_xtn    ahb_trans  -     @1848                
  hwrite   integral   1     'd0                  
  haddr    integral   32    3884101906           
  htrans   integral   2     2                    
  hsize    integral   3     'd1                  
  hburst   integral   3     'd0                  
  hrdata   integral   64    'd4302630006611114666
  hwdata   integral   64    'd0                  
  hready   integral   1     1                    
  hresp    integral   1     'd0                  
  hmaster  integral   1     'd0                  
-------------------------------------------------
"
hwrite =0 time=                 232 
 hrdata time =                  248
UVM_INFO ../AHB_AGENT/ahb_monitor.sv(67) @ 248: uvm_test_top.envh.ahb_agth[0].monh [ahb_monitor] ahb_trans: 
 "-------------------------------------------------
Name       Type       Size  Value                
-------------------------------------------------
ahb_xtn    ahb_trans  -     @1852                
  hwrite   integral   1     'd0                  
  haddr    integral   32    3884101908           
  htrans   integral   2     2                    
  hsize    integral   3     'd1                  
  hburst   integral   3     'd0                  
  hrdata   integral   64    'd4302630006611114666
  hwdata   integral   64    'd0                  
  hready   integral   1     1                    
  hresp    integral   1     'd0                  
  hmaster  integral   1     'd0                  
-------------------------------------------------
"
hwrite =0 time=                 248 
 hrdata time =                  264
UVM_INFO ../AHB_AGENT/ahb_monitor.sv(67) @ 264: uvm_test_top.envh.ahb_agth[0].monh [ahb_monitor] ahb_trans: 
 "-------------------------------------------------
Name       Type       Size  Value                
-------------------------------------------------
ahb_xtn    ahb_trans  -     @1856                
  hwrite   integral   1     'd0                  
  haddr    integral   32    3884101910           
  htrans   integral   2     2                    
  hsize    integral   3     'd1                  
  hburst   integral   3     'd0                  
  hrdata   integral   64    'd4302630006611114666
  hwdata   integral   64    'd0                  
  hready   integral   1     1                    
  hresp    integral   1     'd0                  
  hmaster  integral   1     'd0                  
-------------------------------------------------
"
hwrite =0 time=                 264 
 hrdata time =                  280
UVM_INFO ../AHB_AGENT/ahb_monitor.sv(67) @ 280: uvm_test_top.envh.ahb_agth[0].monh [ahb_monitor] ahb_trans: 
 "-------------------------------------------------
Name       Type       Size  Value                
-------------------------------------------------
ahb_xtn    ahb_trans  -     @1860                
  hwrite   integral   1     'd0                  
  haddr    integral   32    3884101912           
  htrans   integral   2     2                    
  hsize    integral   3     'd1                  
  hburst   integral   3     'd0                  
  hrdata   integral   64    'd4302630006611114666
  hwdata   integral   64    'd0                  
  hready   integral   1     1                    
  hresp    integral   1     'd0                  
  hmaster  integral   1     'd0                  
-------------------------------------------------
"
hwrite =0 time=                 280 
 hrdata time =                  296
UVM_INFO ../AHB_AGENT/ahb_monitor.sv(67) @ 296: uvm_test_top.envh.ahb_agth[0].monh [ahb_monitor] ahb_trans: 
 "-------------------------------------------------
Name       Type       Size  Value                
-------------------------------------------------
ahb_xtn    ahb_trans  -     @1864                
  hwrite   integral   1     'd0                  
  haddr    integral   32    3884101914           
  htrans   integral   2     2                    
  hsize    integral   3     'd1                  
  hburst   integral   3     'd0                  
  hrdata   integral   64    'd4302630006611114666
  hwdata   integral   64    'd0                  
  hready   integral   1     1                    
  hresp    integral   1     'd0                  
  hmaster  integral   1     'd0                  
-------------------------------------------------
"
hwrite =0 time=                 296 
 hrdata time =                  312
UVM_INFO ../AHB_AGENT/ahb_monitor.sv(67) @ 312: uvm_test_top.envh.ahb_agth[0].monh [ahb_monitor] ahb_trans: 
 "-------------------------------------------------
Name       Type       Size  Value                
-------------------------------------------------
ahb_xtn    ahb_trans  -     @1868                
  hwrite   integral   1     'd0                  
  haddr    integral   32    3884101916           
  htrans   integral   2     2                    
  hsize    integral   3     'd1                  
  hburst   integral   3     'd0                  
  hrdata   integral   64    'd4302630006611114666
  hwdata   integral   64    'd0                  
  hready   integral   1     1                    
  hresp    integral   1     'd0                  
  hmaster  integral   1     'd0                  
-------------------------------------------------
"
hwrite =0 time=                 312 
lastttttttttttttttttttttt = 0
 hrdata time =                  328
UVM_INFO ../AHB_AGENT/ahb_monitor.sv(67) @ 328: uvm_test_top.envh.ahb_agth[0].monh [ahb_monitor] ahb_trans: 
 "-------------------------------------------------
Name       Type       Size  Value                
-------------------------------------------------
ahb_xtn    ahb_trans  -     @1872                
  hwrite   integral   1     'd0                  
  haddr    integral   32    3884101918           
  htrans   integral   2     2                    
  hsize    integral   3     'd1                  
  hburst   integral   3     'd0                  
  hrdata   integral   64    'd4302630006611114666
  hwdata   integral   64    'd0                  
  hready   integral   1     1                    
  hresp    integral   1     'd0                  
  hmaster  integral   1     'd0                  
-------------------------------------------------
"
hwrite =0 time=                 328 
lastttttttttttttttttttttt = 0
UVM_ERROR ../tb/scoreboard.sv(279) @ 335: uvm_test_top.envh.scoreboardh [scoreboard] data is mismatched
UVM_ERROR ../tb/scoreboard.sv(280) @ 335: uvm_test_top.envh.scoreboardh [scoreboard] axi_temp_rdata: 4302630006611114666 , ahb_hrdata: 15834936899132313220
 hrdata time =                  344
UVM_INFO ../AHB_AGENT/ahb_monitor.sv(67) @ 344: uvm_test_top.envh.ahb_agth[0].monh [ahb_monitor] ahb_trans: 
 "-------------------------------------------------
Name       Type       Size  Value                
-------------------------------------------------
ahb_xtn    ahb_trans  -     @1880                
  hwrite   integral   1     'd0                  
  haddr    integral   32    3884101902           
  htrans   integral   2     2                    
  hsize    integral   3     'd1                  
  hburst   integral   3     'd0                  
  hrdata   integral   64    'd4302630006611114666
  hwdata   integral   64    'd0                  
  hready   integral   1     1                    
  hresp    integral   1     'd0                  
  hmaster  integral   1     'd0                  
-------------------------------------------------
"
UVM_INFO ../tb/scoreboard.sv(274) @ 345: uvm_test_top.envh.scoreboardh [scoreboard] data is matched
UVM_INFO ../tb/scoreboard.sv(275) @ 345: uvm_test_top.envh.scoreboardh [scoreboard] axi_temp_rdata: 4302630006611114666 , ahb_hrdata: 4302630006611114666
lastttttttttttttttttttttt = 0
UVM_INFO ../tb/scoreboard.sv(274) @ 365: uvm_test_top.envh.scoreboardh [scoreboard] data is matched
UVM_INFO ../tb/scoreboard.sv(275) @ 365: uvm_test_top.envh.scoreboardh [scoreboard] axi_temp_rdata: 4302630006611114666 , ahb_hrdata: 4302630006611114666
lastttttttttttttttttttttt = 0
UVM_INFO ../tb/scoreboard.sv(274) @ 385: uvm_test_top.envh.scoreboardh [scoreboard] data is matched
UVM_INFO ../tb/scoreboard.sv(275) @ 385: uvm_test_top.envh.scoreboardh [scoreboard] axi_temp_rdata: 4302630006611114666 , ahb_hrdata: 4302630006611114666
lastttttttttttttttttttttt = 0
UVM_INFO ../tb/scoreboard.sv(274) @ 405: uvm_test_top.envh.scoreboardh [scoreboard] data is matched
UVM_INFO ../tb/scoreboard.sv(275) @ 405: uvm_test_top.envh.scoreboardh [scoreboard] axi_temp_rdata: 4302630006611114666 , ahb_hrdata: 4302630006611114666
lastttttttttttttttttttttt = 0
UVM_INFO ../tb/scoreboard.sv(274) @ 425: uvm_test_top.envh.scoreboardh [scoreboard] data is matched
UVM_INFO ../tb/scoreboard.sv(275) @ 425: uvm_test_top.envh.scoreboardh [scoreboard] axi_temp_rdata: 4302630006611114666 , ahb_hrdata: 4302630006611114666
lastttttttttttttttttttttt = 0
UVM_INFO ../tb/scoreboard.sv(274) @ 445: uvm_test_top.envh.scoreboardh [scoreboard] data is matched
UVM_INFO ../tb/scoreboard.sv(275) @ 445: uvm_test_top.envh.scoreboardh [scoreboard] axi_temp_rdata: 4302630006611114666 , ahb_hrdata: 4302630006611114666
lastttttttttttttttttttttt = 0
UVM_INFO ../tb/scoreboard.sv(274) @ 465: uvm_test_top.envh.scoreboardh [scoreboard] data is matched
UVM_INFO ../tb/scoreboard.sv(275) @ 465: uvm_test_top.envh.scoreboardh [scoreboard] axi_temp_rdata: 4302630006611114666 , ahb_hrdata: 4302630006611114666
UVM_INFO ../test/test.sv(324) @ 1232: uvm_test_top [axi_read_test] reset_test run phase
UVM_INFO ../tb/virtual_sequence.sv(36) @ 1232: uvm_test_top.envh.vseqrh@@axi_rst_vseqh [axi_rst_vseq] virtual seq base body
/////////////////////// 0
UVM_INFO ../tb/scoreboard.sv(235) @ 1255: uvm_test_top.envh.scoreboardh [scoreboard] axi reset operation is successful
UVM_INFO ../tb/virtual_sequence.sv(36) @ 1255: uvm_test_top.envh.vseqrh@@ahb_rst_vseqh [ahb_rst_vseq] virtual seq base body
/////////////////////// 1
UVM_INFO ../tb/scoreboard.sv(245) @ 1288: uvm_test_top.envh.scoreboardh [scoreboard] ahb reset operation successful
UVM_INFO ../tb/virtual_sequence.sv(36) @ 1320: uvm_test_top.envh.vseqrh@@axi_read_vseqh [axi_read_vseq] virtual seq base body
UVM_INFO ../tb/virtual_sequence.sv(36) @ 1320: uvm_test_top.envh.vseqrh@@ahb_vseqh [ahb_read_vseq] virtual seq base body

 AWLEN  :          11 
 axi_length = '{9, 8, 6, 10, 10, 7, 8, 13, 5, 12, 15, 3, 4}
ahb_length :'{11, 9, 8, 6, 10, 10, 7, 8, 13, 5, 12, 15, 3, 4}
UVM_INFO ../AHB_AGENT/ahb_driver.sv(46) @ 1320: uvm_test_top.envh.ahb_agth[0].drvh [ahb_driver] in ahb driver           0
UVM_INFO ../AXI_AGENT/axi_driver.sv(61) @ 1335: uvm_test_top.envh.axi_agth[0].drvh [axi_driver] axi_trans :
 "--------------------------------------------------------------------------------------------------
Name                           Type       Size  Value                                             
--------------------------------------------------------------------------------------------------
req                            axi_trans  -     @1968                                             
  begin_time                   time       64    1320                                              
  depth                        int        32    'd2                                               
  parent sequence (name)       string     14    axi_read_vseqh                                    
  parent sequence (full name)  string     50    uvm_test_top.envh.axi_agth[0].seqrh.axi_read_vseqh
  sequencer                    string     35    uvm_test_top.envh.axi_agth[0].seqrh               
  AWID                         integral   8     'd0                                               
  AWADDR                       integral   32    4008217012                                        
  AWLEN                        integral   8     'd11                                              
  AWSIZE                       integral   3     'd0                                               
  AWBURST                      integral   2     'd0                                               
  AWVALID                      integral   1     'd0                                               
  AWREADY                      integral   1     'd0                                               
  WID                          integral   8     'd0                                               
  WDATA[0]                     integral   64    'd9120745925246668908                             
  WDATA[1]                     integral   64    12812361185579700932                              
  WDATA[2]                     integral   64    'd7887070093244031933                             
  WDATA[3]                     integral   64    12096158991639241765                              
  WDATA[4]                     integral   64    'd1122503937574600563                             
  WDATA[5]                     integral   64    'd5094342449244216671                             
  WDATA[6]                     integral   64    10089529593195688949                              
  WDATA[7]                     integral   64    14519325206615632623                              
  WDATA[8]                     integral   64    'd7111839755349291015                             
  WDATA[9]                     integral   64    'd3686820367401495244                             
  WDATA[10]                    integral   64    'd6773993343812195513                             
  WDATA[11]                    integral   64    'd8463585194633886159                             
  WSTRB[0]                     integral   8     'b10000                                           
  WSTRB[1]                     integral   8     'b100000                                          
  WSTRB[2]                     integral   8     'b1000000                                         
  WSTRB[3]                     integral   8     'b10000000                                        
  WSTRB[4]                     integral   8     'b1                                               
  WSTRB[5]                     integral   8     'b10                                              
  WSTRB[6]                     integral   8     'b100                                             
  WSTRB[7]                     integral   8     'b1000                                            
  WSTRB[8]                     integral   8     'b10000                                           
  WSTRB[9]                     integral   8     'b100000                                          
  WSTRB[10]                    integral   8     'b1000000                                         
  WSTRB[11]                    integral   8     'b10000000                                        
  WLAST                        integral   1     'd0                                               
  WVALID                       integral   1     'd0                                               
  WREADY                       integral   1     'd0                                               
  bid                          integral   8     'd0                                               
  bresp                        integral   2     'd0                                               
  bvalid                       integral   1     'd0                                               
  bready                       integral   1     'd0                                               
  arid                         integral   8     'd0                                               
  araddr                       integral   32    3283006076                                        
  arlen                        integral   8     'd11                                              
  arsize                       integral   3     'd1                                               
  arburst                      integral   2     'd1                                               
  arvalid                      integral   1     1                                                 
  arready                      integral   1     'd0                                               
  rid                          integral   8     'd0                                               
  rlast                        integral   1     'd0                                               
  rvalid                       integral   1     'd0                                               
  rready                       integral   1     'd0                                               
--------------------------------------------------------------------------------------------------
"
UVM_INFO ../AHB_AGENT/ahb_driver.sv(46) @ 1336: uvm_test_top.envh.ahb_agth[0].drvh [ahb_driver] in ahb driver           0
UVM_INFO ../AXI_AGENT/axi_monitor.sv(92) @ 1345: uvm_test_top.envh.axi_agth[0].monh [axi_monitor] after read address channel
UVM_INFO ../AHB_AGENT/ahb_driver.sv(46) @ 1352: uvm_test_top.envh.ahb_agth[0].drvh [ahb_driver] in ahb driver           0
UVM_INFO ../AHB_AGENT/ahb_driver.sv(46) @ 1368: uvm_test_top.envh.ahb_agth[0].drvh [ahb_driver] in ahb driver           0
UVM_INFO ../AHB_AGENT/ahb_driver.sv(46) @ 1384: uvm_test_top.envh.ahb_agth[0].drvh [ahb_driver] in ahb driver           0
UVM_INFO ../AHB_AGENT/ahb_driver.sv(46) @ 1400: uvm_test_top.envh.ahb_agth[0].drvh [ahb_driver] in ahb driver           0
hwrite =0 time=                1416 
UVM_INFO ../AHB_AGENT/ahb_driver.sv(46) @ 1416: uvm_test_top.envh.ahb_agth[0].drvh [ahb_driver] in ahb driver           0
 hrdata time =                 1432
UVM_INFO ../AHB_AGENT/ahb_monitor.sv(67) @ 1432: uvm_test_top.envh.ahb_agth[0].monh [ahb_monitor] ahb_trans: 
 "-------------------------------------------------
Name       Type       Size  Value                
-------------------------------------------------
ahb_xtn    ahb_trans  -     @1888                
  hwrite   integral   1     'd0                  
  haddr    integral   32    3283006076           
  htrans   integral   2     2                    
  hsize    integral   3     'd1                  
  hburst   integral   3     'd0                  
  hrdata   integral   64    'd5170422025795611930
  hwdata   integral   64    'd0                  
  hready   integral   1     1                    
  hresp    integral   1     'd0                  
  hmaster  integral   1     'd0                  
-------------------------------------------------
"
hwrite =0 time=                1432 
UVM_INFO ../AHB_AGENT/ahb_driver.sv(46) @ 1432: uvm_test_top.envh.ahb_agth[0].drvh [ahb_driver] in ahb driver           0
 hrdata time =                 1448
UVM_INFO ../AHB_AGENT/ahb_monitor.sv(67) @ 1448: uvm_test_top.envh.ahb_agth[0].monh [ahb_monitor] ahb_trans: 
 "-------------------------------------------------
Name       Type       Size  Value                
-------------------------------------------------
ahb_xtn    ahb_trans  -     @1986                
  hwrite   integral   1     'd0                  
  haddr    integral   32    3283006078           
  htrans   integral   2     2                    
  hsize    integral   3     'd1                  
  hburst   integral   3     'd0                  
  hrdata   integral   64    'd1068952051102487424
  hwdata   integral   64    'd0                  
  hready   integral   1     1                    
  hresp    integral   1     'd0                  
  hmaster  integral   1     'd0                  
-------------------------------------------------
"
hwrite =0 time=                1448 
UVM_INFO ../AHB_AGENT/ahb_driver.sv(46) @ 1448: uvm_test_top.envh.ahb_agth[0].drvh [ahb_driver] in ahb driver           0
 hrdata time =                 1464
UVM_INFO ../AHB_AGENT/ahb_monitor.sv(67) @ 1464: uvm_test_top.envh.ahb_agth[0].monh [ahb_monitor] ahb_trans: 
 "------------------------------------------------
Name       Type       Size  Value               
------------------------------------------------
ahb_xtn    ahb_trans  -     @1990               
  hwrite   integral   1     'd0                 
  haddr    integral   32    3283006080          
  htrans   integral   2     2                   
  hsize    integral   3     'd1                 
  hburst   integral   3     'd0                 
  hrdata   integral   64    17147982502673738079
  hwdata   integral   64    'd0                 
  hready   integral   1     1                   
  hresp    integral   1     'd0                 
  hmaster  integral   1     'd0                 
------------------------------------------------
"
hwrite =0 time=                1464 
UVM_INFO ../AHB_AGENT/ahb_driver.sv(46) @ 1464: uvm_test_top.envh.ahb_agth[0].drvh [ahb_driver] in ahb driver           0
 hrdata time =                 1480
UVM_INFO ../AHB_AGENT/ahb_monitor.sv(67) @ 1480: uvm_test_top.envh.ahb_agth[0].monh [ahb_monitor] ahb_trans: 
 "-------------------------------------------------
Name       Type       Size  Value                
-------------------------------------------------
ahb_xtn    ahb_trans  -     @1994                
  hwrite   integral   1     'd0                  
  haddr    integral   32    3283006082           
  htrans   integral   2     2                    
  hsize    integral   3     'd1                  
  hburst   integral   3     'd0                  
  hrdata   integral   64    'd7692205752818049004
  hwdata   integral   64    'd0                  
  hready   integral   1     1                    
  hresp    integral   1     'd0                  
  hmaster  integral   1     'd0                  
-------------------------------------------------
"
hwrite =0 time=                1480 
UVM_INFO ../AHB_AGENT/ahb_driver.sv(46) @ 1480: uvm_test_top.envh.ahb_agth[0].drvh [ahb_driver] in ahb driver           0
lastttttttttttttttttttttt = 0
UVM_INFO ../AXI_AGENT/axi_monitor.sv(215) @ 1495: uvm_test_top.envh.axi_agth[0].monh [axi_monitor] axi_trans :
 "--------------------------------------------------
Name        Type       Size  Value                
--------------------------------------------------
axi_xtn3    axi_trans  -     @1645                
  AWID      integral   8     'd0                  
  AWADDR    integral   32    'd0                  
  AWLEN     integral   8     'd0                  
  AWSIZE    integral   3     'd0                  
  AWBURST   integral   2     'd0                  
  AWVALID   integral   1     'd0                  
  AWREADY   integral   1     'd0                  
  WID       integral   8     'd0                  
  WLAST     integral   1     'd0                  
  WVALID    integral   1     'd0                  
  WREADY    integral   1     'd0                  
  bid       integral   8     'd0                  
  bresp     integral   2     'd0                  
  bvalid    integral   1     'd0                  
  bready    integral   1     'd0                  
  arid      integral   8     'd0                  
  araddr    integral   32    3884101904           
  arlen     integral   8     'd8                  
  arsize    integral   3     'd1                  
  arburst   integral   2     2                    
  arvalid   integral   1     1                    
  arready   integral   1     1                    
  rid       integral   8     'd0                  
  rdata[0]  integral   64    'd4302630006611114666
  rdata[1]  integral   64    'd4302630006611114666
  rdata[2]  integral   64    'd4302630006611114666
  rdata[3]  integral   64    'd4302630006611114666
  rdata[4]  integral   64    'd4302630006611114666
  rdata[5]  integral   64    'd4302630006611114666
  rdata[6]  integral   64    'd4302630006611114666
  rdata[7]  integral   64    'd4302630006611114666
  rdata[8]  integral   64    'd5170422025795611930
  rlast     integral   1     'd0                  
  rvalid    integral   1     1                    
  rready    integral   1     1                    
--------------------------------------------------
"
UVM_INFO ../AXI_AGENT/axi_monitor.sv(100) @ 1495: uvm_test_top.envh.axi_agth[0].monh [axi_monitor] after read data  channel
lastttttttttttttttttttttt = 0
UVM_ERROR ../tb/scoreboard.sv(279) @ 1495: uvm_test_top.envh.scoreboardh [scoreboard] data is mismatched
UVM_ERROR ../tb/scoreboard.sv(280) @ 1495: uvm_test_top.envh.scoreboardh [scoreboard] axi_temp_rdata: 5170422025795611930 , ahb_hrdata: 4302630006611114666
 hrdata time =                 1496
UVM_INFO ../AHB_AGENT/ahb_monitor.sv(67) @ 1496: uvm_test_top.envh.ahb_agth[0].monh [ahb_monitor] ahb_trans: 
 "-------------------------------------------------
Name       Type       Size  Value                
-------------------------------------------------
ahb_xtn    ahb_trans  -     @1998                
  hwrite   integral   1     'd0                  
  haddr    integral   32    3283006084           
  htrans   integral   2     2                    
  hsize    integral   3     'd1                  
  hburst   integral   3     'd0                  
  hrdata   integral   64    'd3166733846915030745
  hwdata   integral   64    'd0                  
  hready   integral   1     1                    
  hresp    integral   1     'd0                  
  hmaster  integral   1     'd0                  
-------------------------------------------------
"
hwrite =0 time=                1496 
UVM_ERROR ../tb/scoreboard.sv(279) @ 1505: uvm_test_top.envh.scoreboardh [scoreboard] data is mismatched
UVM_ERROR ../tb/scoreboard.sv(280) @ 1505: uvm_test_top.envh.scoreboardh [scoreboard] axi_temp_rdata: 1068952051102487424 , ahb_hrdata: 5170422025795611930
 hrdata time =                 1512
UVM_INFO ../AHB_AGENT/ahb_monitor.sv(67) @ 1512: uvm_test_top.envh.ahb_agth[0].monh [ahb_monitor] ahb_trans: 
 "-------------------------------------------------
Name       Type       Size  Value                
-------------------------------------------------
ahb_xtn    ahb_trans  -     @2014                
  hwrite   integral   1     'd0                  
  haddr    integral   32    3283006086           
  htrans   integral   2     2                    
  hsize    integral   3     'd1                  
  hburst   integral   3     'd0                  
  hrdata   integral   64    'd3166733846915030745
  hwdata   integral   64    'd0                  
  hready   integral   1     1                    
  hresp    integral   1     'd0                  
  hmaster  integral   1     'd0                  
-------------------------------------------------
"
hwrite =0 time=                1512 
lastttttttttttttttttttttt = 0
 hrdata time =                 1528
UVM_INFO ../AHB_AGENT/ahb_monitor.sv(67) @ 1528: uvm_test_top.envh.ahb_agth[0].monh [ahb_monitor] ahb_trans: 
 "-------------------------------------------------
Name       Type       Size  Value                
-------------------------------------------------
ahb_xtn    ahb_trans  -     @2018                
  hwrite   integral   1     'd0                  
  haddr    integral   32    3283006088           
  htrans   integral   2     2                    
  hsize    integral   3     'd1                  
  hburst   integral   3     'd0                  
  hrdata   integral   64    'd3166733846915030745
  hwdata   integral   64    'd0                  
  hready   integral   1     1                    
  hresp    integral   1     'd0                  
  hmaster  integral   1     'd0                  
-------------------------------------------------
"
hwrite =0 time=                1528 
lastttttttttttttttttttttt = 0
UVM_ERROR ../tb/scoreboard.sv(279) @ 1535: uvm_test_top.envh.scoreboardh [scoreboard] data is mismatched
UVM_ERROR ../tb/scoreboard.sv(280) @ 1535: uvm_test_top.envh.scoreboardh [scoreboard] axi_temp_rdata: 17147982502673738079 , ahb_hrdata: 1068952051102487424
 hrdata time =                 1544
UVM_INFO ../AHB_AGENT/ahb_monitor.sv(67) @ 1544: uvm_test_top.envh.ahb_agth[0].monh [ahb_monitor] ahb_trans: 
 "-------------------------------------------------
Name       Type       Size  Value                
-------------------------------------------------
ahb_xtn    ahb_trans  -     @2026                
  hwrite   integral   1     'd0                  
  haddr    integral   32    3283006090           
  htrans   integral   2     2                    
  hsize    integral   3     'd1                  
  hburst   integral   3     'd0                  
  hrdata   integral   64    'd3166733846915030745
  hwdata   integral   64    'd0                  
  hready   integral   1     1                    
  hresp    integral   1     'd0                  
  hmaster  integral   1     'd0                  
-------------------------------------------------
"
hwrite =0 time=                1544 
UVM_ERROR ../tb/scoreboard.sv(279) @ 1545: uvm_test_top.envh.scoreboardh [scoreboard] data is mismatched
UVM_ERROR ../tb/scoreboard.sv(280) @ 1545: uvm_test_top.envh.scoreboardh [scoreboard] axi_temp_rdata: 7692205752818049004 , ahb_hrdata: 17147982502673738079
lastttttttttttttttttttttt = 0
 hrdata time =                 1560
UVM_INFO ../AHB_AGENT/ahb_monitor.sv(67) @ 1560: uvm_test_top.envh.ahb_agth[0].monh [ahb_monitor] ahb_trans: 
 "-------------------------------------------------
Name       Type       Size  Value                
-------------------------------------------------
ahb_xtn    ahb_trans  -     @2034                
  hwrite   integral   1     'd0                  
  haddr    integral   32    3283006092           
  htrans   integral   2     2                    
  hsize    integral   3     'd1                  
  hburst   integral   3     'd0                  
  hrdata   integral   64    'd3166733846915030745
  hwdata   integral   64    'd0                  
  hready   integral   1     1                    
  hresp    integral   1     'd0                  
  hmaster  integral   1     'd0                  
-------------------------------------------------
"
hwrite =0 time=                1560 
UVM_ERROR ../tb/scoreboard.sv(279) @ 1565: uvm_test_top.envh.scoreboardh [scoreboard] data is mismatched
UVM_ERROR ../tb/scoreboard.sv(280) @ 1565: uvm_test_top.envh.scoreboardh [scoreboard] axi_temp_rdata: 3166733846915030745 , ahb_hrdata: 7692205752818049004
lastttttttttttttttttttttt = 0
 hrdata time =                 1576
UVM_INFO ../AHB_AGENT/ahb_monitor.sv(67) @ 1576: uvm_test_top.envh.ahb_agth[0].monh [ahb_monitor] ahb_trans: 
 "-------------------------------------------------
Name       Type       Size  Value                
-------------------------------------------------
ahb_xtn    ahb_trans  -     @2042                
  hwrite   integral   1     'd0                  
  haddr    integral   32    3283006094           
  htrans   integral   2     2                    
  hsize    integral   3     'd1                  
  hburst   integral   3     'd0                  
  hrdata   integral   64    'd3166733846915030745
  hwdata   integral   64    'd0                  
  hready   integral   1     1                    
  hresp    integral   1     'd0                  
  hmaster  integral   1     'd0                  
-------------------------------------------------
"
hwrite =0 time=                1576 
UVM_INFO ../tb/scoreboard.sv(274) @ 1585: uvm_test_top.envh.scoreboardh [scoreboard] data is matched
UVM_INFO ../tb/scoreboard.sv(275) @ 1585: uvm_test_top.envh.scoreboardh [scoreboard] axi_temp_rdata: 3166733846915030745 , ahb_hrdata: 3166733846915030745
 hrdata time =                 1592
UVM_INFO ../AHB_AGENT/ahb_monitor.sv(67) @ 1592: uvm_test_top.envh.ahb_agth[0].monh [ahb_monitor] ahb_trans: 
 "-------------------------------------------------
Name       Type       Size  Value                
-------------------------------------------------
ahb_xtn    ahb_trans  -     @2050                
  hwrite   integral   1     'd0                  
  haddr    integral   32    3283006096           
  htrans   integral   2     2                    
  hsize    integral   3     'd1                  
  hburst   integral   3     'd0                  
  hrdata   integral   64    'd3166733846915030745
  hwdata   integral   64    'd0                  
  hready   integral   1     1                    
  hresp    integral   1     'd0                  
  hmaster  integral   1     'd0                  
-------------------------------------------------
"
hwrite =0 time=                1592 
lastttttttttttttttttttttt = 0
UVM_INFO ../tb/scoreboard.sv(274) @ 1605: uvm_test_top.envh.scoreboardh [scoreboard] data is matched
UVM_INFO ../tb/scoreboard.sv(275) @ 1605: uvm_test_top.envh.scoreboardh [scoreboard] axi_temp_rdata: 3166733846915030745 , ahb_hrdata: 3166733846915030745
 hrdata time =                 1608
UVM_INFO ../AHB_AGENT/ahb_monitor.sv(67) @ 1608: uvm_test_top.envh.ahb_agth[0].monh [ahb_monitor] ahb_trans: 
 "-------------------------------------------------
Name       Type       Size  Value                
-------------------------------------------------
ahb_xtn    ahb_trans  -     @2054                
  hwrite   integral   1     'd0                  
  haddr    integral   32    3283006098           
  htrans   integral   2     2                    
  hsize    integral   3     'd1                  
  hburst   integral   3     'd0                  
  hrdata   integral   64    'd3166733846915030745
  hwdata   integral   64    'd0                  
  hready   integral   1     1                    
  hresp    integral   1     'd0                  
  hmaster  integral   1     'd0                  
-------------------------------------------------
"
lastttttttttttttttttttttt = 0
UVM_INFO ../tb/scoreboard.sv(274) @ 1625: uvm_test_top.envh.scoreboardh [scoreboard] data is matched
UVM_INFO ../tb/scoreboard.sv(275) @ 1625: uvm_test_top.envh.scoreboardh [scoreboard] axi_temp_rdata: 3166733846915030745 , ahb_hrdata: 3166733846915030745
lastttttttttttttttttttttt = 0
UVM_INFO ../tb/scoreboard.sv(274) @ 1645: uvm_test_top.envh.scoreboardh [scoreboard] data is matched
UVM_INFO ../tb/scoreboard.sv(275) @ 1645: uvm_test_top.envh.scoreboardh [scoreboard] axi_temp_rdata: 3166733846915030745 , ahb_hrdata: 3166733846915030745
lastttttttttttttttttttttt = 0
UVM_INFO ../tb/scoreboard.sv(274) @ 1665: uvm_test_top.envh.scoreboardh [scoreboard] data is matched
UVM_INFO ../tb/scoreboard.sv(275) @ 1665: uvm_test_top.envh.scoreboardh [scoreboard] axi_temp_rdata: 3166733846915030745 , ahb_hrdata: 3166733846915030745
lastttttttttttttttttttttt = 1
UVM_INFO ../tb/scoreboard.sv(274) @ 1685: uvm_test_top.envh.scoreboardh [scoreboard] data is matched
UVM_INFO ../tb/scoreboard.sv(275) @ 1685: uvm_test_top.envh.scoreboardh [scoreboard] axi_temp_rdata: 3166733846915030745 , ahb_hrdata: 3166733846915030745
lastttttttttttttttttttttt = 0
UVM_INFO ../tb/scoreboard.sv(274) @ 1705: uvm_test_top.envh.scoreboardh [scoreboard] data is matched
UVM_INFO ../tb/scoreboard.sv(275) @ 1705: uvm_test_top.envh.scoreboardh [scoreboard] axi_temp_rdata: 3166733846915030745 , ahb_hrdata: 3166733846915030745
UVM_INFO ../test/test.sv(324) @ 2496: uvm_test_top [axi_read_test] reset_test run phase
UVM_INFO ../tb/virtual_sequence.sv(36) @ 2496: uvm_test_top.envh.vseqrh@@axi_rst_vseqh [axi_rst_vseq] virtual seq base body
/////////////////////// 0
UVM_INFO ../tb/scoreboard.sv(235) @ 2525: uvm_test_top.envh.scoreboardh [scoreboard] axi reset operation is successful
UVM_INFO ../tb/virtual_sequence.sv(36) @ 2525: uvm_test_top.envh.vseqrh@@ahb_rst_vseqh [ahb_rst_vseq] virtual seq base body
/////////////////////// 1
UVM_INFO ../tb/scoreboard.sv(245) @ 2568: uvm_test_top.envh.scoreboardh [scoreboard] ahb reset operation successful
UVM_INFO ../tb/virtual_sequence.sv(36) @ 2600: uvm_test_top.envh.vseqrh@@axi_read_vseqh [axi_read_vseq] virtual seq base body
UVM_INFO ../tb/virtual_sequence.sv(36) @ 2600: uvm_test_top.envh.vseqrh@@ahb_vseqh [ahb_read_vseq] virtual seq base body

 AWLEN  :           9 
 axi_length = '{8, 6, 10, 10, 7, 8, 13, 5, 12, 15, 3, 4}
ahb_length :'{9, 8, 6, 10, 10, 7, 8, 13, 5, 12, 15, 3, 4}
UVM_INFO ../AHB_AGENT/ahb_driver.sv(46) @ 2600: uvm_test_top.envh.ahb_agth[0].drvh [ahb_driver] in ahb driver           0
UVM_INFO ../AXI_AGENT/axi_driver.sv(61) @ 2615: uvm_test_top.envh.axi_agth[0].drvh [axi_driver] axi_trans :
 "--------------------------------------------------------------------------------------------------
Name                           Type       Size  Value                                             
--------------------------------------------------------------------------------------------------
req                            axi_trans  -     @2138                                             
  begin_time                   time       64    2600                                              
  depth                        int        32    'd2                                               
  parent sequence (name)       string     14    axi_read_vseqh                                    
  parent sequence (full name)  string     50    uvm_test_top.envh.axi_agth[0].seqrh.axi_read_vseqh
  sequencer                    string     35    uvm_test_top.envh.axi_agth[0].seqrh               
  AWID                         integral   8     'd0                                               
  AWADDR                       integral   32    3406520957                                        
  AWLEN                        integral   8     'd9                                               
  AWSIZE                       integral   3     'd1                                               
  AWBURST                      integral   2     'd1                                               
  AWVALID                      integral   1     'd0                                               
  AWREADY                      integral   1     'd0                                               
  WID                          integral   8     'd0                                               
  WDATA[0]                     integral   64    15831790716431655198                              
  WDATA[1]                     integral   64    'd7382116712766777196                             
  WDATA[2]                     integral   64    'd5828627780344088188                             
  WDATA[3]                     integral   64    13212157003353988282                              
  WDATA[4]                     integral   64    9408226806663753608                               
  WDATA[5]                     integral   64    'd1364968431637105198                             
  WDATA[6]                     integral   64    13228921892342237728                              
  WDATA[7]                     integral   64    'd7957412400066942410                             
  WDATA[8]                     integral   64    'd1442781474503771860                             
  WDATA[9]                     integral   64    14506414066267510012                              
  WSTRB[0]                     integral   8     'b100000                                          
  WSTRB[1]                     integral   8     'b11000000                                        
  WSTRB[2]                     integral   8     'b11                                              
  WSTRB[3]                     integral   8     'b1100                                            
  WSTRB[4]                     integral   8     'b110000                                          
  WSTRB[5]                     integral   8     'b11000000                                        
  WSTRB[6]                     integral   8     'b11                                              
  WSTRB[7]                     integral   8     'b1100                                            
  WSTRB[8]                     integral   8     'b110000                                          
  WSTRB[9]                     integral   8     'b11000000                                        
  WLAST                        integral   1     'd0                                               
  WVALID                       integral   1     'd0                                               
  WREADY                       integral   1     'd0                                               
  bid                          integral   8     'd0                                               
  bresp                        integral   2     'd0                                               
  bvalid                       integral   1     'd0                                               
  bready                       integral   1     'd0                                               
  arid                         integral   8     'd0                                               
  araddr                       integral   32    2192570301                                        
  arlen                        integral   8     'd9                                               
  arsize                       integral   3     'd3                                               
  arburst                      integral   2     'd1                                               
  arvalid                      integral   1     1                                                 
  arready                      integral   1     'd0                                               
  rid                          integral   8     'd0                                               
  rlast                        integral   1     'd0                                               
  rvalid                       integral   1     'd0                                               
  rready                       integral   1     'd0                                               
--------------------------------------------------------------------------------------------------
"
UVM_INFO ../AHB_AGENT/ahb_driver.sv(46) @ 2616: uvm_test_top.envh.ahb_agth[0].drvh [ahb_driver] in ahb driver           0
UVM_INFO ../AXI_AGENT/axi_monitor.sv(92) @ 2625: uvm_test_top.envh.axi_agth[0].monh [axi_monitor] after read address channel
UVM_INFO ../AHB_AGENT/ahb_driver.sv(46) @ 2632: uvm_test_top.envh.ahb_agth[0].drvh [ahb_driver] in ahb driver           0
UVM_INFO ../AHB_AGENT/ahb_driver.sv(46) @ 2648: uvm_test_top.envh.ahb_agth[0].drvh [ahb_driver] in ahb driver           0
UVM_INFO ../AHB_AGENT/ahb_driver.sv(46) @ 2664: uvm_test_top.envh.ahb_agth[0].drvh [ahb_driver] in ahb driver           0
UVM_INFO ../AHB_AGENT/ahb_driver.sv(46) @ 2680: uvm_test_top.envh.ahb_agth[0].drvh [ahb_driver] in ahb driver           0
hwrite =0 time=                2696 
UVM_INFO ../AHB_AGENT/ahb_driver.sv(46) @ 2696: uvm_test_top.envh.ahb_agth[0].drvh [ahb_driver] in ahb driver           0
 hrdata time =                 2712
UVM_INFO ../AHB_AGENT/ahb_monitor.sv(67) @ 2712: uvm_test_top.envh.ahb_agth[0].monh [ahb_monitor] ahb_trans: 
 "-------------------------------------------------
Name       Type       Size  Value                
-------------------------------------------------
ahb_xtn    ahb_trans  -     @2062                
  hwrite   integral   1     'd0                  
  haddr    integral   32    2192570301           
  htrans   integral   2     2                    
  hsize    integral   3     'd3                  
  hburst   integral   3     'd0                  
  hrdata   integral   64    'd1282464905022596161
  hwdata   integral   64    'd0                  
  hready   integral   1     1                    
  hresp    integral   1     'd0                  
  hmaster  integral   1     'd0                  
-------------------------------------------------
"
hwrite =0 time=                2712 
UVM_INFO ../AHB_AGENT/ahb_driver.sv(46) @ 2712: uvm_test_top.envh.ahb_agth[0].drvh [ahb_driver] in ahb driver           0
 hrdata time =                 2728
UVM_INFO ../AHB_AGENT/ahb_monitor.sv(67) @ 2728: uvm_test_top.envh.ahb_agth[0].monh [ahb_monitor] ahb_trans: 
 "-------------------------------------------------
Name       Type       Size  Value                
-------------------------------------------------
ahb_xtn    ahb_trans  -     @2156                
  hwrite   integral   1     'd0                  
  haddr    integral   32    2192570309           
  htrans   integral   2     2                    
  hsize    integral   3     'd3                  
  hburst   integral   3     'd0                  
  hrdata   integral   64    'd9068098857800711981
  hwdata   integral   64    'd0                  
  hready   integral   1     1                    
  hresp    integral   1     'd0                  
  hmaster  integral   1     'd0                  
-------------------------------------------------
"
hwrite =0 time=                2728 
UVM_INFO ../AHB_AGENT/ahb_driver.sv(46) @ 2728: uvm_test_top.envh.ahb_agth[0].drvh [ahb_driver] in ahb driver           0
 hrdata time =                 2744
UVM_INFO ../AHB_AGENT/ahb_monitor.sv(67) @ 2744: uvm_test_top.envh.ahb_agth[0].monh [ahb_monitor] ahb_trans: 
 "------------------------------------------------
Name       Type       Size  Value               
------------------------------------------------
ahb_xtn    ahb_trans  -     @2160               
  hwrite   integral   1     'd0                 
  haddr    integral   32    2192570317          
  htrans   integral   2     2                   
  hsize    integral   3     'd3                 
  hburst   integral   3     'd0                 
  hrdata   integral   64    17336070399282856702
  hwdata   integral   64    'd0                 
  hready   integral   1     1                   
  hresp    integral   1     'd0                 
  hmaster  integral   1     'd0                 
------------------------------------------------
"
hwrite =0 time=                2744 
 hrdata time =                 2760
UVM_INFO ../AHB_AGENT/ahb_monitor.sv(67) @ 2760: uvm_test_top.envh.ahb_agth[0].monh [ahb_monitor] ahb_trans: 
 "------------------------------------------------
Name       Type       Size  Value               
------------------------------------------------
ahb_xtn    ahb_trans  -     @2164               
  hwrite   integral   1     'd0                 
  haddr    integral   32    2192570325          
  htrans   integral   2     2                   
  hsize    integral   3     'd3                 
  hburst   integral   3     'd0                 
  hrdata   integral   64    17336070399282856702
  hwdata   integral   64    'd0                 
  hready   integral   1     1                   
  hresp    integral   1     'd0                 
  hmaster  integral   1     'd0                 
------------------------------------------------
"
hwrite =0 time=                2760 
lastttttttttttttttttttttt = 0
UVM_INFO ../AXI_AGENT/axi_monitor.sv(215) @ 2775: uvm_test_top.envh.axi_agth[0].monh [axi_monitor] axi_trans :
 "---------------------------------------------------
Name         Type       Size  Value                
---------------------------------------------------
axi_xtn3     axi_trans  -     @1840                
  AWID       integral   8     'd0                  
  AWADDR     integral   32    'd0                  
  AWLEN      integral   8     'd0                  
  AWSIZE     integral   3     'd0                  
  AWBURST    integral   2     'd0                  
  AWVALID    integral   1     'd0                  
  AWREADY    integral   1     'd0                  
  WID        integral   8     'd0                  
  WLAST      integral   1     'd0                  
  WVALID     integral   1     'd0                  
  WREADY     integral   1     'd0                  
  bid        integral   8     'd0                  
  bresp      integral   2     'd0                  
  bvalid     integral   1     'd0                  
  bready     integral   1     'd0                  
  arid       integral   8     'd0                  
  araddr     integral   32    3283006076           
  arlen      integral   8     'd11                 
  arsize     integral   3     'd1                  
  arburst    integral   2     'd1                  
  arvalid    integral   1     1                    
  arready    integral   1     1                    
  rid        integral   8     'd0                  
  rdata[0]   integral   64    'd1068952051102487424
  rdata[1]   integral   64    17147982502673738079 
  rdata[2]   integral   64    'd7692205752818049004
  rdata[3]   integral   64    'd3166733846915030745
  rdata[4]   integral   64    'd3166733846915030745
  rdata[5]   integral   64    'd3166733846915030745
  rdata[6]   integral   64    'd3166733846915030745
  rdata[7]   integral   64    'd3166733846915030745
  rdata[8]   integral   64    'd3166733846915030745
  rdata[9]   integral   64    'd3166733846915030745
  rdata[10]  integral   64    'd3166733846915030745
  rdata[11]  integral   64    'd1282464905022596161
  rlast      integral   1     'd0                  
  rvalid     integral   1     1                    
  rready     integral   1     1                    
---------------------------------------------------
"
UVM_INFO ../AXI_AGENT/axi_monitor.sv(100) @ 2775: uvm_test_top.envh.axi_agth[0].monh [axi_monitor] after read data  channel
lastttttttttttttttttttttt = 0
UVM_ERROR ../tb/scoreboard.sv(279) @ 2775: uvm_test_top.envh.scoreboardh [scoreboard] data is mismatched
UVM_ERROR ../tb/scoreboard.sv(280) @ 2775: uvm_test_top.envh.scoreboardh [scoreboard] axi_temp_rdata: 1282464905022596161 , ahb_hrdata: 3166733846915030745
 hrdata time =                 2776
UVM_INFO ../AHB_AGENT/ahb_monitor.sv(67) @ 2776: uvm_test_top.envh.ahb_agth[0].monh [ahb_monitor] ahb_trans: 
 "------------------------------------------------
Name       Type       Size  Value               
------------------------------------------------
ahb_xtn    ahb_trans  -     @2168               
  hwrite   integral   1     'd0                 
  haddr    integral   32    2192570333          
  htrans   integral   2     2                   
  hsize    integral   3     'd3                 
  hburst   integral   3     'd0                 
  hrdata   integral   64    17336070399282856702
  hwdata   integral   64    'd0                 
  hready   integral   1     1                   
  hresp    integral   1     'd0                 
  hmaster  integral   1     'd0                 
------------------------------------------------
"
hwrite =0 time=                2776 
UVM_ERROR ../tb/scoreboard.sv(279) @ 2785: uvm_test_top.envh.scoreboardh [scoreboard] data is mismatched
UVM_ERROR ../tb/scoreboard.sv(280) @ 2785: uvm_test_top.envh.scoreboardh [scoreboard] axi_temp_rdata: 9068098857800711981 , ahb_hrdata: 1282464905022596161
 hrdata time =                 2792
UVM_INFO ../AHB_AGENT/ahb_monitor.sv(67) @ 2792: uvm_test_top.envh.ahb_agth[0].monh [ahb_monitor] ahb_trans: 
 "------------------------------------------------
Name       Type       Size  Value               
------------------------------------------------
ahb_xtn    ahb_trans  -     @2184               
  hwrite   integral   1     'd0                 
  haddr    integral   32    2192570341          
  htrans   integral   2     2                   
  hsize    integral   3     'd3                 
  hburst   integral   3     'd0                 
  hrdata   integral   64    17336070399282856702
  hwdata   integral   64    'd0                 
  hready   integral   1     1                   
  hresp    integral   1     'd0                 
  hmaster  integral   1     'd0                 
------------------------------------------------
"
hwrite =0 time=                2792 
lastttttttttttttttttttttt = 0
 hrdata time =                 2808
UVM_INFO ../AHB_AGENT/ahb_monitor.sv(67) @ 2808: uvm_test_top.envh.ahb_agth[0].monh [ahb_monitor] ahb_trans: 
 "------------------------------------------------
Name       Type       Size  Value               
------------------------------------------------
ahb_xtn    ahb_trans  -     @2188               
  hwrite   integral   1     'd0                 
  haddr    integral   32    2192570349          
  htrans   integral   2     2                   
  hsize    integral   3     'd3                 
  hburst   integral   3     'd0                 
  hrdata   integral   64    17336070399282856702
  hwdata   integral   64    'd0                 
  hready   integral   1     1                   
  hresp    integral   1     'd0                 
  hmaster  integral   1     'd0                 
------------------------------------------------
"
hwrite =0 time=                2808 
lastttttttttttttttttttttt = 0
UVM_ERROR ../tb/scoreboard.sv(279) @ 2815: uvm_test_top.envh.scoreboardh [scoreboard] data is mismatched
UVM_ERROR ../tb/scoreboard.sv(280) @ 2815: uvm_test_top.envh.scoreboardh [scoreboard] axi_temp_rdata: 17336070399282856702 , ahb_hrdata: 9068098857800711981
 hrdata time =                 2824
UVM_INFO ../AHB_AGENT/ahb_monitor.sv(67) @ 2824: uvm_test_top.envh.ahb_agth[0].monh [ahb_monitor] ahb_trans: 
 "------------------------------------------------
Name       Type       Size  Value               
------------------------------------------------
ahb_xtn    ahb_trans  -     @2196               
  hwrite   integral   1     'd0                 
  haddr    integral   32    2192570357          
  htrans   integral   2     2                   
  hsize    integral   3     'd3                 
  hburst   integral   3     'd0                 
  hrdata   integral   64    17336070399282856702
  hwdata   integral   64    'd0                 
  hready   integral   1     1                   
  hresp    integral   1     'd0                 
  hmaster  integral   1     'd0                 
------------------------------------------------
"
hwrite =0 time=                2824 
UVM_INFO ../tb/scoreboard.sv(274) @ 2825: uvm_test_top.envh.scoreboardh [scoreboard] data is matched
UVM_INFO ../tb/scoreboard.sv(275) @ 2825: uvm_test_top.envh.scoreboardh [scoreboard] axi_temp_rdata: 17336070399282856702 , ahb_hrdata: 17336070399282856702
lastttttttttttttttttttttt = 0
 hrdata time =                 2840
UVM_INFO ../AHB_AGENT/ahb_monitor.sv(67) @ 2840: uvm_test_top.envh.ahb_agth[0].monh [ahb_monitor] ahb_trans: 
 "------------------------------------------------
Name       Type       Size  Value               
------------------------------------------------
ahb_xtn    ahb_trans  -     @2204               
  hwrite   integral   1     'd0                 
  haddr    integral   32    2192570365          
  htrans   integral   2     2                   
  hsize    integral   3     'd3                 
  hburst   integral   3     'd0                 
  hrdata   integral   64    17336070399282856702
  hwdata   integral   64    'd0                 
  hready   integral   1     1                   
  hresp    integral   1     'd0                 
  hmaster  integral   1     'd0                 
------------------------------------------------
"
hwrite =0 time=                2840 
UVM_INFO ../tb/scoreboard.sv(274) @ 2845: uvm_test_top.envh.scoreboardh [scoreboard] data is matched
UVM_INFO ../tb/scoreboard.sv(275) @ 2845: uvm_test_top.envh.scoreboardh [scoreboard] axi_temp_rdata: 17336070399282856702 , ahb_hrdata: 17336070399282856702
lastttttttttttttttttttttt = 0
 hrdata time =                 2856
UVM_INFO ../AHB_AGENT/ahb_monitor.sv(67) @ 2856: uvm_test_top.envh.ahb_agth[0].monh [ahb_monitor] ahb_trans: 
 "------------------------------------------------
Name       Type       Size  Value               
------------------------------------------------
ahb_xtn    ahb_trans  -     @2212               
  hwrite   integral   1     'd0                 
  haddr    integral   32    2192570373          
  htrans   integral   2     2                   
  hsize    integral   3     'd3                 
  hburst   integral   3     'd0                 
  hrdata   integral   64    17336070399282856702
  hwdata   integral   64    'd0                 
  hready   integral   1     1                   
  hresp    integral   1     'd0                 
  hmaster  integral   1     'd0                 
------------------------------------------------
"
UVM_INFO ../tb/scoreboard.sv(274) @ 2865: uvm_test_top.envh.scoreboardh [scoreboard] data is matched
UVM_INFO ../tb/scoreboard.sv(275) @ 2865: uvm_test_top.envh.scoreboardh [scoreboard] axi_temp_rdata: 17336070399282856702 , ahb_hrdata: 17336070399282856702
lastttttttttttttttttttttt = 0
UVM_INFO ../tb/scoreboard.sv(274) @ 2885: uvm_test_top.envh.scoreboardh [scoreboard] data is matched
UVM_INFO ../tb/scoreboard.sv(275) @ 2885: uvm_test_top.envh.scoreboardh [scoreboard] axi_temp_rdata: 17336070399282856702 , ahb_hrdata: 17336070399282856702
lastttttttttttttttttttttt = 0
UVM_INFO ../tb/scoreboard.sv(274) @ 2905: uvm_test_top.envh.scoreboardh [scoreboard] data is matched
UVM_INFO ../tb/scoreboard.sv(275) @ 2905: uvm_test_top.envh.scoreboardh [scoreboard] axi_temp_rdata: 17336070399282856702 , ahb_hrdata: 17336070399282856702
lastttttttttttttttttttttt = 1
UVM_INFO ../tb/scoreboard.sv(274) @ 2925: uvm_test_top.envh.scoreboardh [scoreboard] data is matched
UVM_INFO ../tb/scoreboard.sv(275) @ 2925: uvm_test_top.envh.scoreboardh [scoreboard] axi_temp_rdata: 17336070399282856702 , ahb_hrdata: 17336070399282856702
lastttttttttttttttttttttt = 0
UVM_INFO ../tb/scoreboard.sv(274) @ 2945: uvm_test_top.envh.scoreboardh [scoreboard] data is matched
UVM_INFO ../tb/scoreboard.sv(275) @ 2945: uvm_test_top.envh.scoreboardh [scoreboard] axi_temp_rdata: 17336070399282856702 , ahb_hrdata: 17336070399282856702
UVM_INFO ../test/test.sv(324) @ 3744: uvm_test_top [axi_read_test] reset_test run phase
UVM_INFO ../tb/virtual_sequence.sv(36) @ 3744: uvm_test_top.envh.vseqrh@@axi_rst_vseqh [axi_rst_vseq] virtual seq base body
/////////////////////// 0
UVM_INFO ../tb/scoreboard.sv(235) @ 3765: uvm_test_top.envh.scoreboardh [scoreboard] axi reset operation is successful
UVM_INFO ../tb/virtual_sequence.sv(36) @ 3765: uvm_test_top.envh.vseqrh@@ahb_rst_vseqh [ahb_rst_vseq] virtual seq base body
/////////////////////// 1
UVM_INFO ../tb/scoreboard.sv(245) @ 3800: uvm_test_top.envh.scoreboardh [scoreboard] ahb reset operation successful
UVM_INFO ../tb/virtual_sequence.sv(36) @ 3832: uvm_test_top.envh.vseqrh@@axi_read_vseqh [axi_read_vseq] virtual seq base body
UVM_INFO ../tb/virtual_sequence.sv(36) @ 3832: uvm_test_top.envh.vseqrh@@ahb_vseqh [ahb_read_vseq] virtual seq base body

 AWLEN  :           8 
 axi_length = '{6, 10, 10, 7, 8, 13, 5, 12, 15, 3, 4}
ahb_length :'{8, 6, 10, 10, 7, 8, 13, 5, 12, 15, 3, 4}
UVM_INFO ../AHB_AGENT/ahb_driver.sv(46) @ 3832: uvm_test_top.envh.ahb_agth[0].drvh [ahb_driver] in ahb driver           0
UVM_INFO ../AXI_AGENT/axi_driver.sv(61) @ 3845: uvm_test_top.envh.axi_agth[0].drvh [axi_driver] axi_trans :
 "--------------------------------------------------------------------------------------------------
Name                           Type       Size  Value                                             
--------------------------------------------------------------------------------------------------
req                            axi_trans  -     @2292                                             
  begin_time                   time       64    3832                                              
  depth                        int        32    'd2                                               
  parent sequence (name)       string     14    axi_read_vseqh                                    
  parent sequence (full name)  string     50    uvm_test_top.envh.axi_agth[0].seqrh.axi_read_vseqh
  sequencer                    string     35    uvm_test_top.envh.axi_agth[0].seqrh               
  AWID                         integral   8     'd0                                               
  AWADDR                       integral   32    3466777320                                        
  AWLEN                        integral   8     'd8                                               
  AWSIZE                       integral   3     'd3                                               
  AWBURST                      integral   2     'd0                                               
  AWVALID                      integral   1     'd0                                               
  AWREADY                      integral   1     'd0                                               
  WID                          integral   8     'd0                                               
  WDATA[0]                     integral   64    'd4647311746462626182                             
  WDATA[1]                     integral   64    11658039915042553096                              
  WDATA[2]                     integral   64    'd2525217300389065223                             
  WDATA[3]                     integral   64    9836809091522655777                               
  WDATA[4]                     integral   64    'd5804538167526410309                             
  WDATA[5]                     integral   64    11590327242674888101                              
  WDATA[6]                     integral   64    15300199339912707088                              
  WDATA[7]                     integral   64    15354264339269917259                              
  WDATA[8]                     integral   64    'd6852643691863633870                             
  WSTRB[0]                     integral   8     'b11111111                                        
  WSTRB[1]                     integral   8     'b11111111                                        
  WSTRB[2]                     integral   8     'b11111111                                        
  WSTRB[3]                     integral   8     'b11111111                                        
  WSTRB[4]                     integral   8     'b11111111                                        
  WSTRB[5]                     integral   8     'b11111111                                        
  WSTRB[6]                     integral   8     'b11111111                                        
  WSTRB[7]                     integral   8     'b11111111                                        
  WSTRB[8]                     integral   8     'b11111111                                        
  WLAST                        integral   1     'd0                                               
  WVALID                       integral   1     'd0                                               
  WREADY                       integral   1     'd0                                               
  bid                          integral   8     'd0                                               
  bresp                        integral   2     'd0                                               
  bvalid                       integral   1     'd0                                               
  bready                       integral   1     'd0                                               
  arid                         integral   8     'd0                                               
  araddr                       integral   32    4022684144                                        
  arlen                        integral   8     'd8                                               
  arsize                       integral   3     'd3                                               
  arburst                      integral   2     2                                                 
  arvalid                      integral   1     1                                                 
  arready                      integral   1     'd0                                               
  rid                          integral   8     'd0                                               
  rlast                        integral   1     'd0                                               
  rvalid                       integral   1     'd0                                               
  rready                       integral   1     'd0                                               
--------------------------------------------------------------------------------------------------
"
UVM_INFO ../AHB_AGENT/ahb_driver.sv(46) @ 3848: uvm_test_top.envh.ahb_agth[0].drvh [ahb_driver] in ahb driver           0
UVM_INFO ../AXI_AGENT/axi_monitor.sv(92) @ 3855: uvm_test_top.envh.axi_agth[0].monh [axi_monitor] after read address channel
UVM_INFO ../AHB_AGENT/ahb_driver.sv(46) @ 3864: uvm_test_top.envh.ahb_agth[0].drvh [ahb_driver] in ahb driver           0
UVM_INFO ../AHB_AGENT/ahb_driver.sv(46) @ 3880: uvm_test_top.envh.ahb_agth[0].drvh [ahb_driver] in ahb driver           0
UVM_INFO ../AHB_AGENT/ahb_driver.sv(46) @ 3896: uvm_test_top.envh.ahb_agth[0].drvh [ahb_driver] in ahb driver           0
UVM_INFO ../AHB_AGENT/ahb_driver.sv(46) @ 3912: uvm_test_top.envh.ahb_agth[0].drvh [ahb_driver] in ahb driver           0
hwrite =0 time=                3928 
UVM_INFO ../AHB_AGENT/ahb_driver.sv(46) @ 3928: uvm_test_top.envh.ahb_agth[0].drvh [ahb_driver] in ahb driver           0
 hrdata time =                 3944
UVM_INFO ../AHB_AGENT/ahb_monitor.sv(67) @ 3944: uvm_test_top.envh.ahb_agth[0].monh [ahb_monitor] ahb_trans: 
 "------------------------------------------------
Name       Type       Size  Value               
------------------------------------------------
ahb_xtn    ahb_trans  -     @2220               
  hwrite   integral   1     'd0                 
  haddr    integral   32    4022684144          
  htrans   integral   2     2                   
  hsize    integral   3     'd3                 
  hburst   integral   3     'd0                 
  hrdata   integral   64    16768633557928995784
  hwdata   integral   64    'd0                 
  hready   integral   1     1                   
  hresp    integral   1     'd0                 
  hmaster  integral   1     'd0                 
------------------------------------------------
"
hwrite =0 time=                3944 
UVM_INFO ../AHB_AGENT/ahb_driver.sv(46) @ 3944: uvm_test_top.envh.ahb_agth[0].drvh [ahb_driver] in ahb driver           0
 hrdata time =                 3960
UVM_INFO ../AHB_AGENT/ahb_monitor.sv(67) @ 3960: uvm_test_top.envh.ahb_agth[0].monh [ahb_monitor] ahb_trans: 
 "-----------------------------------------------
Name       Type       Size  Value              
-----------------------------------------------
ahb_xtn    ahb_trans  -     @2310              
  hwrite   integral   1     'd0                
  haddr    integral   32    4022684152         
  htrans   integral   2     2                  
  hsize    integral   3     'd3                
  hburst   integral   3     'd0                
  hrdata   integral   64    9919994664454743999
  hwdata   integral   64    'd0                
  hready   integral   1     1                  
  hresp    integral   1     'd0                
  hmaster  integral   1     'd0                
-----------------------------------------------
"
hwrite =0 time=                3960 
 hrdata time =                 3976
UVM_INFO ../AHB_AGENT/ahb_monitor.sv(67) @ 3976: uvm_test_top.envh.ahb_agth[0].monh [ahb_monitor] ahb_trans: 
 "-----------------------------------------------
Name       Type       Size  Value              
-----------------------------------------------
ahb_xtn    ahb_trans  -     @2314              
  hwrite   integral   1     'd0                
  haddr    integral   32    4022684160         
  htrans   integral   2     2                  
  hsize    integral   3     'd3                
  hburst   integral   3     'd0                
  hrdata   integral   64    9919994664454743999
  hwdata   integral   64    'd0                
  hready   integral   1     1                  
  hresp    integral   1     'd0                
  hmaster  integral   1     'd0                
-----------------------------------------------
"
hwrite =0 time=                3976 
 hrdata time =                 3992
UVM_INFO ../AHB_AGENT/ahb_monitor.sv(67) @ 3992: uvm_test_top.envh.ahb_agth[0].monh [ahb_monitor] ahb_trans: 
 "-----------------------------------------------
Name       Type       Size  Value              
-----------------------------------------------
ahb_xtn    ahb_trans  -     @2318              
  hwrite   integral   1     'd0                
  haddr    integral   32    4022684168         
  htrans   integral   2     2                  
  hsize    integral   3     'd3                
  hburst   integral   3     'd0                
  hrdata   integral   64    9919994664454743999
  hwdata   integral   64    'd0                
  hready   integral   1     1                  
  hresp    integral   1     'd0                
  hmaster  integral   1     'd0                
-----------------------------------------------
"
hwrite =0 time=                3992 
lastttttttttttttttttttttt = 0
UVM_INFO ../AXI_AGENT/axi_monitor.sv(215) @ 4005: uvm_test_top.envh.axi_agth[0].monh [axi_monitor] axi_trans :
 "--------------------------------------------------
Name        Type       Size  Value                
--------------------------------------------------
axi_xtn3    axi_trans  -     @1982                
  AWID      integral   8     'd0                  
  AWADDR    integral   32    'd0                  
  AWLEN     integral   8     'd0                  
  AWSIZE    integral   3     'd0                  
  AWBURST   integral   2     'd0                  
  AWVALID   integral   1     'd0                  
  AWREADY   integral   1     'd0                  
  WID       integral   8     'd0                  
  WLAST     integral   1     'd0                  
  WVALID    integral   1     'd0                  
  WREADY    integral   1     'd0                  
  bid       integral   8     'd0                  
  bresp     integral   2     'd0                  
  bvalid    integral   1     'd0                  
  bready    integral   1     'd0                  
  arid      integral   8     'd0                  
  araddr    integral   32    2192570301           
  arlen     integral   8     'd9                  
  arsize    integral   3     'd3                  
  arburst   integral   2     'd1                  
  arvalid   integral   1     1                    
  arready   integral   1     1                    
  rid       integral   8     'd0                  
  rdata[0]  integral   64    'd9068098857800711981
  rdata[1]  integral   64    17336070399282856702 
  rdata[2]  integral   64    17336070399282856702 
  rdata[3]  integral   64    17336070399282856702 
  rdata[4]  integral   64    17336070399282856702 
  rdata[5]  integral   64    17336070399282856702 
  rdata[6]  integral   64    17336070399282856702 
  rdata[7]  integral   64    17336070399282856702 
  rdata[8]  integral   64    17336070399282856702 
  rdata[9]  integral   64    16768633557928995784 
  rlast     integral   1     'd0                  
  rvalid    integral   1     1                    
  rready    integral   1     1                    
--------------------------------------------------
"
UVM_INFO ../AXI_AGENT/axi_monitor.sv(100) @ 4005: uvm_test_top.envh.axi_agth[0].monh [axi_monitor] after read data  channel
UVM_ERROR ../tb/scoreboard.sv(279) @ 4005: uvm_test_top.envh.scoreboardh [scoreboard] data is mismatched
UVM_ERROR ../tb/scoreboard.sv(280) @ 4005: uvm_test_top.envh.scoreboardh [scoreboard] axi_temp_rdata: 16768633557928995784 , ahb_hrdata: 17336070399282856702
 hrdata time =                 4008
UVM_INFO ../AHB_AGENT/ahb_monitor.sv(67) @ 4008: uvm_test_top.envh.ahb_agth[0].monh [ahb_monitor] ahb_trans: 
 "-----------------------------------------------
Name       Type       Size  Value              
-----------------------------------------------
ahb_xtn    ahb_trans  -     @2322              
  hwrite   integral   1     'd0                
  haddr    integral   32    4022684176         
  htrans   integral   2     2                  
  hsize    integral   3     'd3                
  hburst   integral   3     'd0                
  hrdata   integral   64    9919994664454743999
  hwdata   integral   64    'd0                
  hready   integral   1     1                  
  hresp    integral   1     'd0                
  hmaster  integral   1     'd0                
-----------------------------------------------
"
hwrite =0 time=                4008 
 hrdata time =                 4024
UVM_INFO ../AHB_AGENT/ahb_monitor.sv(67) @ 4024: uvm_test_top.envh.ahb_agth[0].monh [ahb_monitor] ahb_trans: 
 "-----------------------------------------------
Name       Type       Size  Value              
-----------------------------------------------
ahb_xtn    ahb_trans  -     @2334              
  hwrite   integral   1     'd0                
  haddr    integral   32    4022684184         
  htrans   integral   2     2                  
  hsize    integral   3     'd3                
  hburst   integral   3     'd0                
  hrdata   integral   64    9919994664454743999
  hwdata   integral   64    'd0                
  hready   integral   1     1                  
  hresp    integral   1     'd0                
  hmaster  integral   1     'd0                
-----------------------------------------------
"
hwrite =0 time=                4024 
lastttttttttttttttttttttt = 0
UVM_ERROR ../tb/scoreboard.sv(279) @ 4035: uvm_test_top.envh.scoreboardh [scoreboard] data is mismatched
UVM_ERROR ../tb/scoreboard.sv(280) @ 4035: uvm_test_top.envh.scoreboardh [scoreboard] axi_temp_rdata: 9919994664454743999 , ahb_hrdata: 16768633557928995784
 hrdata time =                 4040
UVM_INFO ../AHB_AGENT/ahb_monitor.sv(67) @ 4040: uvm_test_top.envh.ahb_agth[0].monh [ahb_monitor] ahb_trans: 
 "-----------------------------------------------
Name       Type       Size  Value              
-----------------------------------------------
ahb_xtn    ahb_trans  -     @2338              
  hwrite   integral   1     'd0                
  haddr    integral   32    4022684192         
  htrans   integral   2     2                  
  hsize    integral   3     'd3                
  hburst   integral   3     'd0                
  hrdata   integral   64    9919994664454743999
  hwdata   integral   64    'd0                
  hready   integral   1     1                  
  hresp    integral   1     'd0                
  hmaster  integral   1     'd0                
-----------------------------------------------
"
hwrite =0 time=                4040 
lastttttttttttttttttttttt = 0
UVM_INFO ../tb/scoreboard.sv(274) @ 4055: uvm_test_top.envh.scoreboardh [scoreboard] data is matched
UVM_INFO ../tb/scoreboard.sv(275) @ 4055: uvm_test_top.envh.scoreboardh [scoreboard] axi_temp_rdata: 9919994664454743999 , ahb_hrdata: 9919994664454743999
 hrdata time =                 4056
UVM_INFO ../AHB_AGENT/ahb_monitor.sv(67) @ 4056: uvm_test_top.envh.ahb_agth[0].monh [ahb_monitor] ahb_trans: 
 "-----------------------------------------------
Name       Type       Size  Value              
-----------------------------------------------
ahb_xtn    ahb_trans  -     @2346              
  hwrite   integral   1     'd0                
  haddr    integral   32    4022684200         
  htrans   integral   2     2                  
  hsize    integral   3     'd3                
  hburst   integral   3     'd0                
  hrdata   integral   64    9919994664454743999
  hwdata   integral   64    'd0                
  hready   integral   1     1                  
  hresp    integral   1     'd0                
  hmaster  integral   1     'd0                
-----------------------------------------------
"
hwrite =0 time=                4056 
lastttttttttttttttttttttt = 0
 hrdata time =                 4072
UVM_INFO ../AHB_AGENT/ahb_monitor.sv(67) @ 4072: uvm_test_top.envh.ahb_agth[0].monh [ahb_monitor] ahb_trans: 
 "-----------------------------------------------
Name       Type       Size  Value              
-----------------------------------------------
ahb_xtn    ahb_trans  -     @2354              
  hwrite   integral   1     'd0                
  haddr    integral   32    4022684136         
  htrans   integral   2     2                  
  hsize    integral   3     'd3                
  hburst   integral   3     'd0                
  hrdata   integral   64    9919994664454743999
  hwdata   integral   64    'd0                
  hready   integral   1     1                  
  hresp    integral   1     'd0                
  hmaster  integral   1     'd0                
-----------------------------------------------
"
UVM_INFO ../tb/scoreboard.sv(274) @ 4075: uvm_test_top.envh.scoreboardh [scoreboard] data is matched
UVM_INFO ../tb/scoreboard.sv(275) @ 4075: uvm_test_top.envh.scoreboardh [scoreboard] axi_temp_rdata: 9919994664454743999 , ahb_hrdata: 9919994664454743999
lastttttttttttttttttttttt = 0
UVM_INFO ../tb/scoreboard.sv(274) @ 4095: uvm_test_top.envh.scoreboardh [scoreboard] data is matched
UVM_INFO ../tb/scoreboard.sv(275) @ 4095: uvm_test_top.envh.scoreboardh [scoreboard] axi_temp_rdata: 9919994664454743999 , ahb_hrdata: 9919994664454743999
lastttttttttttttttttttttt = 0
UVM_INFO ../tb/scoreboard.sv(274) @ 4115: uvm_test_top.envh.scoreboardh [scoreboard] data is matched
UVM_INFO ../tb/scoreboard.sv(275) @ 4115: uvm_test_top.envh.scoreboardh [scoreboard] axi_temp_rdata: 9919994664454743999 , ahb_hrdata: 9919994664454743999
lastttttttttttttttttttttt = 0
UVM_INFO ../tb/scoreboard.sv(274) @ 4135: uvm_test_top.envh.scoreboardh [scoreboard] data is matched
