vsim -cvgperinstance -vopt -voptargs="+acc" -coverage -sva -c -do " log -r /* ;coverage save -onexit mem_cov4;run -all; exit" -wlf wave_file4.wlf -l test4.log -sv_seed 264320261 work.axi2ahb_bridge_tb_top "+UVM_TESTNAME=axi_test_write_burst" "+UVM_VERBOSITY=UVM_HIGH" 
Start time: 12:15:47 on Feb 07,2025
** Note: (vsim-8009) Loading existing optimized design _opt
//  Questa Sim-64
//  Version 2019.2 linux_x86_64 Apr 16 2019
//
//  Copyright 1991-2019 Mentor Graphics Corporation
//  All Rights Reserved.
//
//  QuestaSim and its associated documentation contain trade
//  secrets and commercial or financial information that are the property of
//  Mentor Graphics Corporation and are privileged, confidential,
//  and exempt from disclosure under the Freedom of Information Act,
//  5 U.S.C. Section 552. Furthermore, this information
//  is prohibited from disclosure under the Trade Secrets Act,
//  18 U.S.C. Section 1905.
//
Loading sv_std.std
Loading work.ahb_if(fast)
Loading work.axi_rst_if(fast)
Loading mtiUvm.uvm_pkg
Loading work.axi2ahb_pkg(fast)
Loading work.axi_if(fast)
Loading work.ahb_rst_if(fast)
Loading mtiUvm.questa_uvm_pkg(fast)
Loading work.axi2ahb_bridge_tb_top(fast)
Loading work.axi_if(fast)
Loading work.ahb_if(fast)
Loading work.axi_rst_if(fast)
Loading work.ahb_rst_if(fast)
Loading work.axi2ahb_bridge_top(fast)
Loading work.axi_controller(fast)
Loading work.axi2fifo(fast)
Loading work.fifo2axi(fast)
Loading work.fifo_wrapper(fast)
Loading work.id_resp_fifo(fast)
Loading work.resp_fifo(fast)
Loading work.rdata_fifo(fast)
Loading work.size_fifo(fast)
Loading work.id_send_fifo(fast)
Loading work.write_fifo(fast)
Loading work.data_fifo(fast)
Loading work.addr_fifo(fast)
Loading work.ahb_controller(fast)
** Warning: (vsim-8441) Clocking block output vif.axi_drv_cb.arlen is not legal in this
or another expression.
   Time: 0 ns  Iteration: 0  Region: /axi2ahb_pkg::axi_driver File: ../AXI_AGENT/axi_driver.sv Line: 177
# Loading /home/cad/eda/Questa_2019/questasim/uvm-1.1d/linux_x86_64/uvm_dpi.so
** Warning: (vsim-8634) Code was not compiled with coverage options.
 log -r /* 
coverage save -onexit mem_cov4
run -all
----------------------------------------------------------------
UVM-1.1d
(C) 2007-2013 Mentor Graphics Corporation
(C) 2007-2013 Cadence Design Systems, Inc.
(C) 2006-2013 Synopsys, Inc.
(C) 2011-2013 Cypress Semiconductor Corp.
----------------------------------------------------------------

  ***********       IMPORTANT RELEASE NOTES         ************

  You are using a version of the UVM library that has been compiled
  with `UVM_NO_DEPRECATED undefined.
  See http://www.eda.org/svdb/view.php?id=3313 for more details.

  You are using a version of the UVM library that has been compiled
  with `UVM_OBJECT_MUST_HAVE_CONSTRUCTOR undefined.
  See http://www.eda.org/svdb/view.php?id=3770 for more details.

      (Specify +UVM_NO_RELNOTES to turn off this notice)

UVM_INFO verilog_src/questa_uvm_pkg-1.2/src/questa_uvm_pkg.sv(277) @ 0: reporter [Questa UVM] QUESTA_UVM-1.2.3
UVM_INFO verilog_src/questa_uvm_pkg-1.2/src/questa_uvm_pkg.sv(278) @ 0: reporter [Questa UVM]  questa_uvm::init(+struct)
UVM_INFO @ 0: reporter [RNTST] Running test axi_test_write_burst...
 lengths : 15
 lengths : 7
 lengths : 3
 lengths : 3
 lengths : 15
 lengths : 7
 lengths : 15
 lengths : 3
 lengths : 15
 lengths : 15
 lengths : 3
 lengths : 7
 lengths : 3
 lengths : 7
 lengths : 7
 lengths : 3
 lengths : 3
 lengths : 7
 lengths : 15
 lengths : 3
UVM_INFO ../AHB_AGENT/ahb_agent.sv(30) @ 0: uvm_test_top.envh.ahb_agth[0] [ahb_agent] ahb agent build_phase
UVM_INFO ../AHB_RST_AGENT/ahb_rst_agent.sv(31) @ 0: uvm_test_top.envh.ahb_rst_agth[0] [ahb_rst_agent] ahb rst agent  build_phase
UVM_INFO ../AHB_RST_AGENT/ahb_rst_driver.sv(29) @ 0: uvm_test_top.envh.ahb_rst_agth[0].drvh [ahb_rst_driver] ahb rst driver build_phase
UVM_INFO ../AHB_RST_AGENT/ahb_rst_monitor.sv(31) @ 0: uvm_test_top.envh.ahb_rst_agth[0].monh [ahb_rst_monitor] ahb rst monitor build_phase
UVM_INFO ../AXI_AGENT/axi_agent.sv(26) @ 0: uvm_test_top.envh.axi_agth[0] [axi_agent] axi agent build_phase
UVM_INFO ../AXI_RST_AGENT/axi_rst_agent.sv(28) @ 0: uvm_test_top.envh.axi_rst_agth[0] [axi_rst_agent] axi rst agent  build_phase
UVM_INFO ../AXI_RST_AGENT/axi_rst_driver.sv(24) @ 0: uvm_test_top.envh.axi_rst_agth[0].drvh [axi_rst_driver] axi rst driver build_phase
UVM_INFO ../AXI_RST_AGENT/axi_rst_monitor.sv(32) @ 0: uvm_test_top.envh.axi_rst_agth[0].monh [axi_rst_monitor] axi rst monitor build_phase
UVM_INFO ../AHB_AGENT/ahb_agent.sv(36) @ 0: uvm_test_top.envh.ahb_agth[0] [ahb_agent] ahb agent connect _phase
UVM_INFO ../AHB_RST_AGENT/ahb_rst_driver.sv(36) @ 0: uvm_test_top.envh.ahb_rst_agth[0].drvh [ahb_rst_driver] ahb rst driver connect_phase
UVM_INFO ../AHB_RST_AGENT/ahb_rst_monitor.sv(38) @ 0: uvm_test_top.envh.ahb_rst_agth[0].monh [ahb_rst_monitor] ahb rst monitor connect_phase
UVM_INFO ../AHB_RST_AGENT/ahb_rst_agent.sv(38) @ 0: uvm_test_top.envh.ahb_rst_agth[0] [ahb_rst_agent] ahb rst agent connect_phase
UVM_INFO ../AXI_AGENT/axi_agent.sv(33) @ 0: uvm_test_top.envh.axi_agth[0] [axi_agent] axi agent connect_phase
UVM_INFO ../AXI_RST_AGENT/axi_rst_driver.sv(30) @ 0: uvm_test_top.envh.axi_rst_agth[0].drvh [axi_rst_driver] axi rst driver connecr_phase
UVM_INFO ../AXI_RST_AGENT/axi_rst_monitor.sv(39) @ 0: uvm_test_top.envh.axi_rst_agth[0].monh [axi_rst_monitor] axi rst monitor connect_phase
UVM_INFO ../AXI_RST_AGENT/axi_rst_agent.sv(35) @ 0: uvm_test_top.envh.axi_rst_agth[0] [axi_rst_agent] axi rst agent connnect_phase
UVM_INFO ../test/test.sv(131) @ 0: uvm_test_top [axi_test_write_burst] test end of elaboration__phase
UVM_INFO @ 0: reporter [UVMTOP] UVM testbench topology:
----------------------------------------------------------------------------
Name                                 Type                        Size  Value
----------------------------------------------------------------------------
uvm_test_top                         axi_test_write_burst        -     @491 
  envh                               environment                 -     @511 
    ahb_agth[0]                      ahb_agent                   -     @541 
      drvh                           ahb_driver                  -     @696 
        rsp_port                     uvm_analysis_port           -     @711 
        seq_item_port                uvm_seq_item_pull_port      -     @703 
      monh                           ahb_monitor                 -     @681 
        monitor_port                 uvm_analysis_port           -     @688 
      seqrh                          ahb_sequencer               -     @719 
        rsp_export                   uvm_analysis_export         -     @726 
        seq_item_export              uvm_seq_item_pull_imp       -     @820 
        arbitration_queue            array                       0     -    
        lock_queue                   array                       0     -    
        num_last_reqs                integral                    32    'd1  
        num_last_rsps                integral                    32    'd1  
    ahb_rst_agth[0]                  ahb_rst_agent               -     @552 
      drvh                           ahb_rst_driver              -     @854 
        rsp_port                     uvm_analysis_port           -     @869 
        seq_item_port                uvm_seq_item_pull_port      -     @861 
      monh                           ahb_rst_monitor             -     @839 
        rst_monitor_port             uvm_analysis_port           -     @846 
      seqrh                          ahb_rst_sequencer           -     @877 
        rsp_export                   uvm_analysis_export         -     @884 
        seq_item_export              uvm_seq_item_pull_imp       -     @978 
        arbitration_queue            array                       0     -    
        lock_queue                   array                       0     -    
        num_last_reqs                integral                    32    'd1  
        num_last_rsps                integral                    32    'd1  
    axi_agth[0]                      axi_agent                   -     @519 
      drvh                           axi_driver                  -     @1028
        rsp_port                     uvm_analysis_port           -     @1043
        seq_item_port                uvm_seq_item_pull_port      -     @1035
      monh                           axi_monitor                 -     @997 
        axi_monitor_port             uvm_analysis_port           -     @1004
        axi_read_data_monitor_port   uvm_analysis_port           -     @1020
        axi_write_data_monitor_port  uvm_analysis_port           -     @1012
      seqrh                          axi_sequencer               -     @1051
        rsp_export                   uvm_analysis_export         -     @1058
        seq_item_export              uvm_seq_item_pull_imp       -     @1152
        arbitration_queue            array                       0     -    
        lock_queue                   array                       0     -    
        num_last_reqs                integral                    32    'd1  
        num_last_rsps                integral                    32    'd1  
    axi_rst_agth[0]                  axi_rst_agent               -     @530 
      drvh                           axi_rst_driver              -     @1185
        rsp_port                     uvm_analysis_port           -     @1200
        seq_item_port                uvm_seq_item_pull_port      -     @1192
      monh                           axi_rst_monitor             -     @1170
        rst_monitor_port             uvm_analysis_port           -     @1177
      seqrh                          axi_rst_sequencer           -     @1208
        rsp_export                   uvm_analysis_export         -     @1215
        seq_item_export              uvm_seq_item_pull_imp       -     @1309
        arbitration_queue            array                       0     -    
        lock_queue                   array                       0     -    
        num_last_reqs                integral                    32    'd1  
        num_last_rsps                integral                    32    'd1  
    scoreboardh                      scoreboard                  -     @672 
      fifo_ahb_h[0]                  uvm_tlm_analysis_fifo #(T)  -     @1565
        analysis_export              uvm_analysis_imp            -     @1604
        get_ap                       uvm_analysis_port           -     @1596
        get_peek_export              uvm_get_peek_imp            -     @1580
        put_ap                       uvm_analysis_port           -     @1588
        put_export                   uvm_put_imp                 -     @1572
      fifo_ahb_rst_h[0]              uvm_tlm_analysis_fifo #(T)  -     @1377
        analysis_export              uvm_analysis_imp            -     @1416
        get_ap                       uvm_analysis_port           -     @1408
        get_peek_export              uvm_get_peek_imp            -     @1392
        put_ap                       uvm_analysis_port           -     @1400
        put_export                   uvm_put_imp                 -     @1384
      fifo_axi_h[0]                  uvm_tlm_analysis_fifo #(T)  -     @1424
        analysis_export              uvm_analysis_imp            -     @1463
        get_ap                       uvm_analysis_port           -     @1455
        get_peek_export              uvm_get_peek_imp            -     @1439
        put_ap                       uvm_analysis_port           -     @1447
        put_export                   uvm_put_imp                 -     @1431
      fifo_axi_rdata_h[0]            uvm_tlm_analysis_fifo #(T)  -     @1518
        analysis_export              uvm_analysis_imp            -     @1557
        get_ap                       uvm_analysis_port           -     @1549
        get_peek_export              uvm_get_peek_imp            -     @1533
        put_ap                       uvm_analysis_port           -     @1541
        put_export                   uvm_put_imp                 -     @1525
      fifo_axi_rst_h[0]              uvm_tlm_analysis_fifo #(T)  -     @1330
        analysis_export              uvm_analysis_imp            -     @1369
        get_ap                       uvm_analysis_port           -     @1361
        get_peek_export              uvm_get_peek_imp            -     @1345
        put_ap                       uvm_analysis_port           -     @1353
        put_export                   uvm_put_imp                 -     @1337
      fifo_axi_wdata_h[0]            uvm_tlm_analysis_fifo #(T)  -     @1471
        analysis_export              uvm_analysis_imp            -     @1510
        get_ap                       uvm_analysis_port           -     @1502
        get_peek_export              uvm_get_peek_imp            -     @1486
        put_ap                       uvm_analysis_port           -     @1494
        put_export                   uvm_put_imp                 -     @1478
    vseqrh                           virtual_sequencer           -     @563 
      rsp_export                     uvm_analysis_export         -     @570 
      seq_item_export                uvm_seq_item_pull_imp       -     @664 
      arbitration_queue              array                       0     -    
      lock_queue                     array                       0     -    
      num_last_reqs                  integral                    32    'd1  
      num_last_rsps                  integral                    32    'd1  
----------------------------------------------------------------------------

UVM_INFO verilog_src/questa_uvm_pkg-1.2/src/questa_uvm_pkg.sv(339) @ 0: reporter [Questa UVM] End Of Elaboration
UVM_INFO ../test/test.sv(265) @ 0: uvm_test_top [axi_test_write_burst] reset_test run phase
UVM_INFO ../tb/virtual_sequence.sv(36) @ 0: uvm_test_top.envh.vseqrh@@axi_rst_vseqh [axi_rst_vseq] virtual seq base body
/////////////////////// 0
UVM_INFO ../tb/scoreboard.sv(235) @ 25: uvm_test_top.envh.scoreboardh [scoreboard] axi reset operation is successful
UVM_INFO ../tb/virtual_sequence.sv(36) @ 25: uvm_test_top.envh.vseqrh@@ahb_rst_vseqh [ahb_rst_vseq] virtual seq base body
/////////////////////// 1
UVM_INFO ../tb/scoreboard.sv(245) @ 72: uvm_test_top.envh.scoreboardh [scoreboard] ahb reset operation successful
UVM_INFO ../tb/virtual_sequence.sv(36) @ 124: uvm_test_top.envh.vseqrh@@axi_vseqh [axi_burst_vseq] virtual seq base body
UVM_INFO ../tb/virtual_sequence.sv(36) @ 124: uvm_test_top.envh.vseqrh@@ahb_vseqh [ahb_vseq] virtual seq base body

 AWLEN  :          15 
 axi_length = '{7, 3, 3, 15, 7, 15, 3, 15, 15, 3, 7, 3, 7, 7, 3, 3, 7, 15, 3}
ahb_length :'{15, 7, 3, 3, 15, 7, 15, 3, 15, 15, 3, 7, 3, 7, 7, 3, 3, 7, 15, 3}
UVM_INFO ../AHB_AGENT/ahb_driver.sv(46) @ 124: uvm_test_top.envh.ahb_agth[0].drvh [ahb_driver] in ahb driver           0
UVM_INFO ../AXI_AGENT/axi_driver.sv(61) @ 135: uvm_test_top.envh.axi_agth[0].drvh [axi_driver] axi_trans :
 "---------------------------------------------------------------------------------------------------
Name                           Type       Size  Value                                              
---------------------------------------------------------------------------------------------------
req                            axi_trans  -     @1824                                              
  begin_time                   time       64    124                                                
  depth                        int        32    'd2                                                
  parent sequence (name)       string     15    axi_burst_vseqh                                    
  parent sequence (full name)  string     51    uvm_test_top.envh.axi_agth[0].seqrh.axi_burst_vseqh
  sequencer                    string     35    uvm_test_top.envh.axi_agth[0].seqrh                
  AWID                         integral   8     'd0                                                
  AWADDR                       integral   32    'd193095272                                        
  AWLEN                        integral   8     'd15                                               
  AWSIZE                       integral   3     'd3                                                
  AWBURST                      integral   2     2                                                  
  AWVALID                      integral   1     1                                                  
  AWREADY                      integral   1     'd0                                                
  WID                          integral   8     'd0                                                
  WDATA[0]                     integral   64    10711672262744502193                               
  WDATA[1]                     integral   64    15688109233801180118                               
  WDATA[2]                     integral   64    18167034213772394707                               
  WDATA[3]                     integral   64    'd3957744350084198885                              
  WDATA[4]                     integral   64    'd4746492052986263581                              
  WDATA[5]                     integral   64    'd5095118430504163936                              
  WDATA[6]                     integral   64    'd224922184257381782                               
  WDATA[7]                     integral   64    'd5431175390953840837                              
  WDATA[8]                     integral   64    'd7275937641803876353                              
  WDATA[9]                     integral   64    'd6294523986214707486                              
  WDATA[10]                    integral   64    'd4082113423173462335                              
  WDATA[11]                    integral   64    17404341664524688151                               
  WDATA[12]                    integral   64    'd9092095179058027654                              
  WDATA[13]                    integral   64    'd1871695794771306226                              
  WDATA[14]                    integral   64    17806385497218571258                               
  WDATA[15]                    integral   64    14037010615797534883                               
  WSTRB[0]                     integral   8     'b11111111                                         
  WSTRB[1]                     integral   8     'b11111111                                         
  WSTRB[2]                     integral   8     'b11111111                                         
  WSTRB[3]                     integral   8     'b11111111                                         
  WSTRB[4]                     integral   8     'b11111111                                         
  WSTRB[5]                     integral   8     'b11111111                                         
  WSTRB[6]                     integral   8     'b11111111                                         
  WSTRB[7]                     integral   8     'b11111111                                         
  WSTRB[8]                     integral   8     'b11111111                                         
  WSTRB[9]                     integral   8     'b11111111                                         
  WSTRB[10]                    integral   8     'b11111111                                         
  WSTRB[11]                    integral   8     'b11111111                                         
  WSTRB[12]                    integral   8     'b11111111                                         
  WSTRB[13]                    integral   8     'b11111111                                         
  WSTRB[14]                    integral   8     'b11111111                                         
  WSTRB[15]                    integral   8     'b11111111                                         
  WLAST                        integral   1     'd0                                                
  WVALID                       integral   1     1                                                  
  WREADY                       integral   1     'd0                                                
  bid                          integral   8     'd0                                                
  bresp                        integral   2     'd0                                                
  bvalid                       integral   1     'd0                                                
  bready                       integral   1     'd0                                                
  arid                         integral   8     'd0                                                
  araddr                       integral   32    3891081532                                         
  arlen                        integral   8     'd15                                               
  arsize                       integral   3     'd2                                                
  arburst                      integral   2     'd0                                                
  arvalid                      integral   1     'd0                                                
  arready                      integral   1     'd0                                                
  rid                          integral   8     'd0                                                
  rlast                        integral   1     'd0                                                
  rvalid                       integral   1     'd0                                                
  rready                       integral   1     'd0                                                
---------------------------------------------------------------------------------------------------
"
UVM_INFO ../AHB_AGENT/ahb_driver.sv(46) @ 136: uvm_test_top.envh.ahb_agth[0].drvh [ahb_driver] in ahb driver           1
UVM_INFO ../AXI_AGENT/axi_monitor.sv(70) @ 145: uvm_test_top.envh.axi_agth[0].monh [axi_monitor] after write address channel
 temp_data = 10711672262744502193 
 strb = 11111111
strb= 11111111
 temp_data = 15688109233801180118 
 strb = 11111111
strb= 11111111
 temp_data = 18167034213772394707 
 strb = 11111111
strb= 11111111
 temp_data =  3957744350084198885 
 strb = 11111111
strb= 11111111
UVM_INFO ../AHB_AGENT/ahb_driver.sv(46) @ 216: uvm_test_top.envh.ahb_agth[0].drvh [ahb_driver] in ahb driver           0
 temp_data =  4746492052986263581 
 strb = 11111111
strb= 11111111
hwrite =1 time=                 232 
UVM_INFO ../AHB_AGENT/ahb_driver.sv(46) @ 232: uvm_test_top.envh.ahb_agth[0].drvh [ahb_driver] in ahb driver           2
 temp_data =  5095118430504163936 
 strb = 11111111
strb= 11111111
UVM_INFO ../AHB_AGENT/ahb_monitor.sv(67) @ 248: uvm_test_top.envh.ahb_agth[0].monh [ahb_monitor] ahb_trans: 
 "------------------------------------------------
Name       Type       Size  Value               
------------------------------------------------
ahb_xtn    ahb_trans  -     @1657               
  hwrite   integral   1     1                   
  haddr    integral   32    'd193095272         
  htrans   integral   2     2                   
  hsize    integral   3     'd3                 
  hburst   integral   3     'd0                 
  hrdata   integral   64    'd0                 
  hwdata   integral   64    10711672262744502193
  hready   integral   1     1                   
  hresp    integral   1     'd0                 
  hmaster  integral   1     'd0                 
------------------------------------------------
"
hwrite =1 time=                 248 
UVM_INFO ../tb/scoreboard.sv(259) @ 248: uvm_test_top.envh.scoreboardh [scoreboard] data is matched
UVM_INFO ../tb/scoreboard.sv(260) @ 248: uvm_test_top.envh.scoreboardh [scoreboard] axi_temp_wdata: 10711672262744502193 , ahb_hwdata: 10711672262744502193
UVM_INFO ../AHB_AGENT/ahb_monitor.sv(67) @ 264: uvm_test_top.envh.ahb_agth[0].monh [ahb_monitor] ahb_trans: 
 "------------------------------------------------
Name       Type       Size  Value               
------------------------------------------------
ahb_xtn    ahb_trans  -     @1868               
  hwrite   integral   1     1                   
  haddr    integral   32    'd193095280         
  htrans   integral   2     2                   
  hsize    integral   3     'd3                 
  hburst   integral   3     'd0                 
  hrdata   integral   64    'd0                 
  hwdata   integral   64    15688109233801180118
  hready   integral   1     1                   
  hresp    integral   1     'd0                 
  hmaster  integral   1     'd0                 
------------------------------------------------
"
UVM_INFO ../tb/scoreboard.sv(259) @ 264: uvm_test_top.envh.scoreboardh [scoreboard] data is matched
UVM_INFO ../tb/scoreboard.sv(260) @ 264: uvm_test_top.envh.scoreboardh [scoreboard] axi_temp_wdata: 15688109233801180118 , ahb_hwdata: 15688109233801180118
 temp_data =   224922184257381782 
 strb = 11111111
strb= 11111111
hwrite =1 time=                 280 
UVM_INFO ../AHB_AGENT/ahb_driver.sv(46) @ 280: uvm_test_top.envh.ahb_agth[0].drvh [ahb_driver] in ahb driver           1
 temp_data =  5431175390953840837 
 strb = 11111111
strb= 11111111
UVM_INFO ../AHB_AGENT/ahb_monitor.sv(67) @ 296: uvm_test_top.envh.ahb_agth[0].monh [ahb_monitor] ahb_trans: 
 "------------------------------------------------
Name       Type       Size  Value               
------------------------------------------------
ahb_xtn    ahb_trans  -     @1872               
  hwrite   integral   1     1                   
  haddr    integral   32    'd193095288         
  htrans   integral   2     2                   
  hsize    integral   3     'd3                 
  hburst   integral   3     'd0                 
  hrdata   integral   64    'd0                 
  hwdata   integral   64    18167034213772394707
  hready   integral   1     1                   
  hresp    integral   1     1                   
  hmaster  integral   1     'd0                 
------------------------------------------------
"
UVM_INFO ../tb/scoreboard.sv(259) @ 296: uvm_test_top.envh.scoreboardh [scoreboard] data is matched
UVM_INFO ../tb/scoreboard.sv(260) @ 296: uvm_test_top.envh.scoreboardh [scoreboard] axi_temp_wdata: 18167034213772394707 , ahb_hwdata: 18167034213772394707
 temp_data =  7275937641803876353 
 strb = 11111111
strb= 11111111
 temp_data =  6294523986214707486 
 strb = 11111111
strb= 11111111
hwrite =1 time=                 344 
 temp_data =  4082113423173462335 
 strb = 11111111
strb= 11111111
UVM_INFO ../AHB_AGENT/ahb_monitor.sv(67) @ 360: uvm_test_top.envh.ahb_agth[0].monh [ahb_monitor] ahb_trans: 
 "-------------------------------------------------
Name       Type       Size  Value                
-------------------------------------------------
ahb_xtn    ahb_trans  -     @1884                
  hwrite   integral   1     1                    
  haddr    integral   32    'd193095176          
  htrans   integral   2     2                    
  hsize    integral   3     'd3                  
  hburst   integral   3     'd0                  
  hrdata   integral   64    'd0                  
  hwdata   integral   64    'd3957744350084198885
  hready   integral   1     1                    
  hresp    integral   1     'd0                  
  hmaster  integral   1     'd0                  
-------------------------------------------------
"
hwrite =1 time=                 360 
UVM_INFO ../tb/scoreboard.sv(259) @ 360: uvm_test_top.envh.scoreboardh [scoreboard] data is matched
UVM_INFO ../tb/scoreboard.sv(260) @ 360: uvm_test_top.envh.scoreboardh [scoreboard] axi_temp_wdata: 3957744350084198885 , ahb_hwdata: 3957744350084198885
UVM_INFO ../AHB_AGENT/ahb_driver.sv(46) @ 360: uvm_test_top.envh.ahb_agth[0].drvh [ahb_driver] in ahb driver           0
 temp_data = 17404341664524688151 
 strb = 11111111
strb= 11111111
UVM_INFO ../AHB_AGENT/ahb_monitor.sv(67) @ 376: uvm_test_top.envh.ahb_agth[0].monh [ahb_monitor] ahb_trans: 
 "-------------------------------------------------
Name       Type       Size  Value                
-------------------------------------------------
ahb_xtn    ahb_trans  -     @1900                
  hwrite   integral   1     1                    
  haddr    integral   32    'd193095192          
  htrans   integral   2     2                    
  hsize    integral   3     'd3                  
  hburst   integral   3     'd0                  
  hrdata   integral   64    'd0                  
  hwdata   integral   64    'd4746492052986263581
  hready   integral   1     1                    
  hresp    integral   1     'd0                  
  hmaster  integral   1     'd0                  
-------------------------------------------------
"
hwrite =1 time=                 376 
UVM_INFO ../tb/scoreboard.sv(259) @ 376: uvm_test_top.envh.scoreboardh [scoreboard] data is matched
UVM_INFO ../tb/scoreboard.sv(260) @ 376: uvm_test_top.envh.scoreboardh [scoreboard] axi_temp_wdata: 4746492052986263581 , ahb_hwdata: 4746492052986263581
UVM_INFO ../AHB_AGENT/ahb_driver.sv(46) @ 376: uvm_test_top.envh.ahb_agth[0].drvh [ahb_driver] in ahb driver           0
 temp_data =  9092095179058027654 
 strb = 11111111
strb= 11111111
UVM_INFO ../AHB_AGENT/ahb_monitor.sv(67) @ 392: uvm_test_top.envh.ahb_agth[0].monh [ahb_monitor] ahb_trans: 
 "-------------------------------------------------
Name       Type       Size  Value                
-------------------------------------------------
ahb_xtn    ahb_trans  -     @1908                
  hwrite   integral   1     1                    
  haddr    integral   32    'd193095208          
  htrans   integral   2     2                    
  hsize    integral   3     'd3                  
  hburst   integral   3     'd0                  
  hrdata   integral   64    'd0                  
  hwdata   integral   64    'd5095118430504163936
  hready   integral   1     1                    
  hresp    integral   1     'd0                  
  hmaster  integral   1     'd0                  
-------------------------------------------------
"
hwrite =1 time=                 392 
UVM_INFO ../tb/scoreboard.sv(259) @ 392: uvm_test_top.envh.scoreboardh [scoreboard] data is matched
UVM_INFO ../tb/scoreboard.sv(260) @ 392: uvm_test_top.envh.scoreboardh [scoreboard] axi_temp_wdata: 5095118430504163936 , ahb_hwdata: 5095118430504163936
UVM_INFO ../AHB_AGENT/ahb_driver.sv(46) @ 392: uvm_test_top.envh.ahb_agth[0].drvh [ahb_driver] in ahb driver           2
 temp_data =  1871695794771306226 
 strb = 11111111
strb= 11111111
UVM_INFO ../AHB_AGENT/ahb_monitor.sv(67) @ 408: uvm_test_top.envh.ahb_agth[0].monh [ahb_monitor] ahb_trans: 
 "------------------------------------------------
Name       Type       Size  Value               
------------------------------------------------
ahb_xtn    ahb_trans  -     @1916               
  hwrite   integral   1     1                   
  haddr    integral   32    'd193095224         
  htrans   integral   2     2                   
  hsize    integral   3     'd3                 
  hburst   integral   3     'd0                 
  hrdata   integral   64    'd0                 
  hwdata   integral   64    'd224922184257381782
  hready   integral   1     1                   
  hresp    integral   1     'd0                 
  hmaster  integral   1     'd0                 
------------------------------------------------
"
hwrite =1 time=                 408 
UVM_INFO ../tb/scoreboard.sv(259) @ 408: uvm_test_top.envh.scoreboardh [scoreboard] data is matched
UVM_INFO ../tb/scoreboard.sv(260) @ 408: uvm_test_top.envh.scoreboardh [scoreboard] axi_temp_wdata: 224922184257381782 , ahb_hwdata: 224922184257381782
UVM_INFO ../AHB_AGENT/ahb_monitor.sv(67) @ 424: uvm_test_top.envh.ahb_agth[0].monh [ahb_monitor] ahb_trans: 
 "-------------------------------------------------
Name       Type       Size  Value                
-------------------------------------------------
ahb_xtn    ahb_trans  -     @1924                
  hwrite   integral   1     1                    
  haddr    integral   32    'd193095240          
  htrans   integral   2     2                    
  hsize    integral   3     'd3                  
  hburst   integral   3     'd0                  
  hrdata   integral   64    'd0                  
  hwdata   integral   64    'd5431175390953840837
  hready   integral   1     1                    
  hresp    integral   1     'd0                  
  hmaster  integral   1     'd0                  
-------------------------------------------------
"
UVM_INFO ../tb/scoreboard.sv(259) @ 424: uvm_test_top.envh.scoreboardh [scoreboard] data is matched
UVM_INFO ../tb/scoreboard.sv(260) @ 424: uvm_test_top.envh.scoreboardh [scoreboard] axi_temp_wdata: 5431175390953840837 , ahb_hwdata: 5431175390953840837
 temp_data = 17806385497218571258 
 strb = 11111111
strb= 11111111
hwrite =1 time=                 440 
UVM_INFO ../AHB_AGENT/ahb_driver.sv(46) @ 440: uvm_test_top.envh.ahb_agth[0].drvh [ahb_driver] in ahb driver           2
 temp_data = 14037010615797534883 
 strb = 11111111
strb= 11111111
UVM_INFO ../AXI_AGENT/axi_monitor.sv(155) @ 455: uvm_test_top.envh.axi_agth[0].monh [axi_monitor] axi_trans :
 "---------------------------------------------------
Name         Type       Size  Value                
---------------------------------------------------
axi_xtn      axi_trans  -     @1641                
  AWID       integral   8     'd0                  
  AWADDR     integral   32    'd193095272          
  AWLEN      integral   8     'd15                 
  AWSIZE     integral   3     'd3                  
  AWBURST    integral   2     2                    
  AWVALID    integral   1     1                    
  AWREADY    integral   1     1                    
  WID        integral   8     'd0                  
  WDATA[0]   integral   64    10711672262744502193 
  WDATA[1]   integral   64    15688109233801180118 
  WDATA[2]   integral   64    18167034213772394707 
  WDATA[3]   integral   64    'd3957744350084198885
  WDATA[4]   integral   64    'd4746492052986263581
  WDATA[5]   integral   64    'd5095118430504163936
  WDATA[6]   integral   64    'd224922184257381782 
  WDATA[7]   integral   64    'd5431175390953840837
  WDATA[8]   integral   64    'd7275937641803876353
  WDATA[9]   integral   64    'd6294523986214707486
  WDATA[10]  integral   64    'd4082113423173462335
  WDATA[11]  integral   64    17404341664524688151 
  WDATA[12]  integral   64    'd9092095179058027654
  WDATA[13]  integral   64    'd1871695794771306226
  WDATA[14]  integral   64    17806385497218571258 
  WDATA[15]  integral   64    14037010615797534883 
  WSTRB[0]   integral   8     'b11111111           
  WSTRB[1]   integral   8     'b11111111           
  WSTRB[2]   integral   8     'b11111111           
  WSTRB[3]   integral   8     'b11111111           
  WSTRB[4]   integral   8     'b11111111           
  WSTRB[5]   integral   8     'b11111111           
  WSTRB[6]   integral   8     'b11111111           
  WSTRB[7]   integral   8     'b11111111           
  WSTRB[8]   integral   8     'b11111111           
  WSTRB[9]   integral   8     'b11111111           
  WSTRB[10]  integral   8     'b11111111           
  WSTRB[11]  integral   8     'b11111111           
  WSTRB[12]  integral   8     'b11111111           
  WSTRB[13]  integral   8     'b11111111           
  WSTRB[14]  integral   8     'b11111111           
  WSTRB[15]  integral   8     'b11111111           
  WLAST      integral   1     1                    
  WVALID     integral   1     1                    
  WREADY     integral   1     1                    
  bid        integral   8     'd0                  
  bresp      integral   2     'd0                  
  bvalid     integral   1     'd0                  
  bready     integral   1     'd0                  
  arid       integral   8     'd0                  
  araddr     integral   32    'd0                  
  arlen      integral   8     'd0                  
  arsize     integral   3     'd0                  
  arburst    integral   2     'd0                  
  arvalid    integral   1     'd0                  
  arready    integral   1     'd0                  
  rid        integral   8     'd0                  
  rlast      integral   1     'd0                  
  rvalid     integral   1     'd0                  
  rready     integral   1     'd0                  
---------------------------------------------------
"
UVM_INFO ../AXI_AGENT/axi_monitor.sv(78) @ 455: uvm_test_top.envh.axi_agth[0].monh [axi_monitor] after write data channel
UVM_INFO ../AHB_AGENT/ahb_monitor.sv(67) @ 456: uvm_test_top.envh.ahb_agth[0].monh [ahb_monitor] ahb_trans: 
 "-------------------------------------------------
Name       Type       Size  Value                
-------------------------------------------------
ahb_xtn    ahb_trans  -     @1928                
  hwrite   integral   1     1                    
  haddr    integral   32    'd193095256          
  htrans   integral   2     2                    
  hsize    integral   3     'd3                  
  hburst   integral   3     'd0                  
  hrdata   integral   64    'd0                  
  hwdata   integral   64    'd7275937641803876353
  hready   integral   1     1                    
  hresp    integral   1     1                    
  hmaster  integral   1     'd0                  
-------------------------------------------------
"
UVM_INFO ../tb/scoreboard.sv(259) @ 456: uvm_test_top.envh.scoreboardh [scoreboard] data is matched
UVM_INFO ../tb/scoreboard.sv(260) @ 456: uvm_test_top.envh.scoreboardh [scoreboard] axi_temp_wdata: 7275937641803876353 , ahb_hwdata: 7275937641803876353
hwrite =1 time=                 488 
UVM_INFO ../AHB_AGENT/ahb_driver.sv(46) @ 488: uvm_test_top.envh.ahb_agth[0].drvh [ahb_driver] in ahb driver           2
UVM_INFO ../AHB_AGENT/ahb_monitor.sv(67) @ 504: uvm_test_top.envh.ahb_agth[0].monh [ahb_monitor] ahb_trans: 
 "-------------------------------------------------
Name       Type       Size  Value                
-------------------------------------------------
ahb_xtn    ahb_trans  -     @1944                
  hwrite   integral   1     1                    
  haddr    integral   32    'd193095272          
  htrans   integral   2     2                    
  hsize    integral   3     'd3                  
  hburst   integral   3     'd0                  
  hrdata   integral   64    'd0                  
  hwdata   integral   64    'd6294523986214707486
  hready   integral   1     1                    
  hresp    integral   1     1                    
  hmaster  integral   1     'd0                  
-------------------------------------------------
"
UVM_INFO ../tb/scoreboard.sv(259) @ 504: uvm_test_top.envh.scoreboardh [scoreboard] data is matched
UVM_INFO ../tb/scoreboard.sv(260) @ 504: uvm_test_top.envh.scoreboardh [scoreboard] axi_temp_wdata: 6294523986214707486 , ahb_hwdata: 6294523986214707486
hwrite =1 time=                 536 
UVM_INFO ../AHB_AGENT/ahb_driver.sv(46) @ 536: uvm_test_top.envh.ahb_agth[0].drvh [ahb_driver] in ahb driver           2
UVM_INFO ../AHB_AGENT/ahb_monitor.sv(67) @ 552: uvm_test_top.envh.ahb_agth[0].monh [ahb_monitor] ahb_trans: 
 "-------------------------------------------------
Name       Type       Size  Value                
-------------------------------------------------
ahb_xtn    ahb_trans  -     @1948                
  hwrite   integral   1     1                    
  haddr    integral   32    'd193095288          
  htrans   integral   2     2                    
  hsize    integral   3     'd3                  
  hburst   integral   3     'd0                  
  hrdata   integral   64    'd0                  
  hwdata   integral   64    'd4082113423173462335
  hready   integral   1     1                    
  hresp    integral   1     1                    
  hmaster  integral   1     'd0                  
-------------------------------------------------
"
UVM_INFO ../tb/scoreboard.sv(259) @ 552: uvm_test_top.envh.scoreboardh [scoreboard] data is matched
UVM_INFO ../tb/scoreboard.sv(260) @ 552: uvm_test_top.envh.scoreboardh [scoreboard] axi_temp_wdata: 4082113423173462335 , ahb_hwdata: 4082113423173462335
hwrite =1 time=                 584 
UVM_INFO ../AHB_AGENT/ahb_driver.sv(46) @ 584: uvm_test_top.envh.ahb_agth[0].drvh [ahb_driver] in ahb driver           0
UVM_INFO ../AHB_AGENT/ahb_monitor.sv(67) @ 600: uvm_test_top.envh.ahb_agth[0].monh [ahb_monitor] ahb_trans: 
 "------------------------------------------------
Name       Type       Size  Value               
------------------------------------------------
ahb_xtn    ahb_trans  -     @1952               
  hwrite   integral   1     1                   
  haddr    integral   32    'd193095304         
  htrans   integral   2     2                   
  hsize    integral   3     'd3                 
  hburst   integral   3     'd0                 
  hrdata   integral   64    'd0                 
  hwdata   integral   64    17404341664524688151
  hready   integral   1     1                   
  hresp    integral   1     1                   
  hmaster  integral   1     'd0                 
------------------------------------------------
"
hwrite =1 time=                 600 
UVM_INFO ../tb/scoreboard.sv(259) @ 600: uvm_test_top.envh.scoreboardh [scoreboard] data is matched
UVM_INFO ../tb/scoreboard.sv(260) @ 600: uvm_test_top.envh.scoreboardh [scoreboard] axi_temp_wdata: 17404341664524688151 , ahb_hwdata: 17404341664524688151
UVM_INFO ../AHB_AGENT/ahb_driver.sv(46) @ 600: uvm_test_top.envh.ahb_agth[0].drvh [ahb_driver] in ahb driver           1
UVM_INFO ../AHB_AGENT/ahb_monitor.sv(67) @ 616: uvm_test_top.envh.ahb_agth[0].monh [ahb_monitor] ahb_trans: 
 "-------------------------------------------------
Name       Type       Size  Value                
-------------------------------------------------
ahb_xtn    ahb_trans  -     @1956                
  hwrite   integral   1     1                    
  haddr    integral   32    'd193095320          
  htrans   integral   2     2                    
  hsize    integral   3     'd3                  
  hburst   integral   3     'd0                  
  hrdata   integral   64    'd0                  
  hwdata   integral   64    'd9092095179058027654
  hready   integral   1     1                    
  hresp    integral   1     'd0                  
  hmaster  integral   1     'd0                  
-------------------------------------------------
"
UVM_INFO ../tb/scoreboard.sv(259) @ 616: uvm_test_top.envh.scoreboardh [scoreboard] data is matched
UVM_INFO ../tb/scoreboard.sv(260) @ 616: uvm_test_top.envh.scoreboardh [scoreboard] axi_temp_wdata: 9092095179058027654 , ahb_hwdata: 9092095179058027654
hwrite =1 time=                 664 
UVM_INFO ../AHB_AGENT/ahb_monitor.sv(67) @ 680: uvm_test_top.envh.ahb_agth[0].monh [ahb_monitor] ahb_trans: 
 "-------------------------------------------------
Name       Type       Size  Value                
-------------------------------------------------
ahb_xtn    ahb_trans  -     @1960                
  hwrite   integral   1     1                    
  haddr    integral   32    'd193095336          
  htrans   integral   2     2                    
  hsize    integral   3     'd3                  
  hburst   integral   3     'd0                  
  hrdata   integral   64    'd0                  
  hwdata   integral   64    'd1871695794771306226
  hready   integral   1     1                    
  hresp    integral   1     'd0                  
  hmaster  integral   1     'd0                  
-------------------------------------------------
"
hwrite =1 time=                 680 
UVM_INFO ../tb/scoreboard.sv(259) @ 680: uvm_test_top.envh.scoreboardh [scoreboard] data is matched
UVM_INFO ../tb/scoreboard.sv(260) @ 680: uvm_test_top.envh.scoreboardh [scoreboard] axi_temp_wdata: 1871695794771306226 , ahb_hwdata: 1871695794771306226
UVM_INFO ../AHB_AGENT/ahb_driver.sv(46) @ 680: uvm_test_top.envh.ahb_agth[0].drvh [ahb_driver] in ahb driver           0
UVM_INFO ../AHB_AGENT/ahb_monitor.sv(67) @ 696: uvm_test_top.envh.ahb_agth[0].monh [ahb_monitor] ahb_trans: 
 "------------------------------------------------
Name       Type       Size  Value               
------------------------------------------------
ahb_xtn    ahb_trans  -     @1964               
  hwrite   integral   1     1                   
  haddr    integral   32    'd193095352         
  htrans   integral   2     2                   
  hsize    integral   3     'd3                 
  hburst   integral   3     'd0                 
  hrdata   integral   64    'd0                 
  hwdata   integral   64    17806385497218571258
  hready   integral   1     1                   
  hresp    integral   1     'd0                 
  hmaster  integral   1     'd0                 
------------------------------------------------
"
hwrite =1 time=                 696 
UVM_INFO ../tb/scoreboard.sv(259) @ 696: uvm_test_top.envh.scoreboardh [scoreboard] data is matched
UVM_INFO ../tb/scoreboard.sv(260) @ 696: uvm_test_top.envh.scoreboardh [scoreboard] axi_temp_wdata: 17806385497218571258 , ahb_hwdata: 17806385497218571258
UVM_INFO ../AHB_AGENT/ahb_driver.sv(46) @ 696: uvm_test_top.envh.ahb_agth[0].drvh [ahb_driver] in ahb driver           0
UVM_INFO ../AHB_AGENT/ahb_monitor.sv(67) @ 712: uvm_test_top.envh.ahb_agth[0].monh [ahb_monitor] ahb_trans: 
 "------------------------------------------------
Name       Type       Size  Value               
------------------------------------------------
ahb_xtn    ahb_trans  -     @1968               
  hwrite   integral   1     1                   
  haddr    integral   32    'd193095368         
  htrans   integral   2     2                   
  hsize    integral   3     'd3                 
  hburst   integral   3     'd0                 
  hrdata   integral   64    'd0                 
  hwdata   integral   64    14037010615797534883
  hready   integral   1     1                   
  hresp    integral   1     'd0                 
  hmaster  integral   1     'd0                 
------------------------------------------------
"
############################################# -- 15
UVM_INFO ../tb/scoreboard.sv(259) @ 712: uvm_test_top.envh.scoreboardh [scoreboard] data is matched
UVM_INFO ../tb/scoreboard.sv(260) @ 712: uvm_test_top.envh.scoreboardh [scoreboard] axi_temp_wdata: 14037010615797534883 , ahb_hwdata: 14037010615797534883
UVM_INFO ../AXI_AGENT/axi_monitor.sv(170) @ 765: uvm_test_top.envh.axi_agth[0].monh [axi_monitor] axi_trans:
 "---------------------------------------------------
Name         Type       Size  Value                
---------------------------------------------------
axi_xtn      axi_trans  -     @1641                
  AWID       integral   8     'd0                  
  AWADDR     integral   32    'd193095272          
  AWLEN      integral   8     'd15                 
  AWSIZE     integral   3     'd3                  
  AWBURST    integral   2     2                    
  AWVALID    integral   1     1                    
  AWREADY    integral   1     1                    
  WID        integral   8     'd0                  
  WDATA[0]   integral   64    10711672262744502193 
  WDATA[1]   integral   64    15688109233801180118 
  WDATA[2]   integral   64    18167034213772394707 
  WDATA[3]   integral   64    'd3957744350084198885
  WDATA[4]   integral   64    'd4746492052986263581
  WDATA[5]   integral   64    'd5095118430504163936
  WDATA[6]   integral   64    'd224922184257381782 
  WDATA[7]   integral   64    'd5431175390953840837
  WDATA[8]   integral   64    'd7275937641803876353
  WDATA[9]   integral   64    'd6294523986214707486
  WDATA[10]  integral   64    'd4082113423173462335
  WDATA[11]  integral   64    17404341664524688151 
  WDATA[12]  integral   64    'd9092095179058027654
  WDATA[13]  integral   64    'd1871695794771306226
  WDATA[14]  integral   64    17806385497218571258 
  WDATA[15]  integral   64    14037010615797534883 
  WSTRB[0]   integral   8     'b11111111           
  WSTRB[1]   integral   8     'b11111111           
  WSTRB[2]   integral   8     'b11111111           
  WSTRB[3]   integral   8     'b11111111           
  WSTRB[4]   integral   8     'b11111111           
  WSTRB[5]   integral   8     'b11111111           
  WSTRB[6]   integral   8     'b11111111           
  WSTRB[7]   integral   8     'b11111111           
  WSTRB[8]   integral   8     'b11111111           
  WSTRB[9]   integral   8     'b11111111           
  WSTRB[10]  integral   8     'b11111111           
  WSTRB[11]  integral   8     'b11111111           
  WSTRB[12]  integral   8     'b11111111           
  WSTRB[13]  integral   8     'b11111111           
  WSTRB[14]  integral   8     'b11111111           
  WSTRB[15]  integral   8     'b11111111           
  WLAST      integral   1     1                    
  WVALID     integral   1     1                    
  WREADY     integral   1     1                    
  bid        integral   8     'd0                  
  bresp      integral   2     'd0                  
  bvalid     integral   1     1                    
  bready     integral   1     'd0                  
  arid       integral   8     'd0                  
  araddr     integral   32    'd0                  
  arlen      integral   8     'd0                  
  arsize     integral   3     'd0                  
  arburst    integral   2     'd0                  
  arvalid    integral   1     'd0                  
  arready    integral   1     'd0                  
  rid        integral   8     'd0                  
  rlast      integral   1     'd0                  
  rvalid     integral   1     'd0                  
  rready     integral   1     'd0                  
---------------------------------------------------
"
UVM_INFO ../AXI_AGENT/axi_monitor.sv(86) @ 775: uvm_test_top.envh.axi_agth[0].monh [axi_monitor] after write response channel
UVM_INFO ../test/test.sv(265) @ 1712: uvm_test_top [axi_test_write_burst] reset_test run phase
UVM_INFO ../tb/virtual_sequence.sv(36) @ 1712: uvm_test_top.envh.vseqrh@@axi_rst_vseqh [axi_rst_vseq] virtual seq base body
/////////////////////// 0
UVM_INFO ../tb/scoreboard.sv(235) @ 1735: uvm_test_top.envh.scoreboardh [scoreboard] axi reset operation is successful
UVM_INFO ../tb/virtual_sequence.sv(36) @ 1735: uvm_test_top.envh.vseqrh@@ahb_rst_vseqh [ahb_rst_vseq] virtual seq base body
/////////////////////// 1
UVM_INFO ../tb/scoreboard.sv(245) @ 1768: uvm_test_top.envh.scoreboardh [scoreboard] ahb reset operation successful
UVM_INFO ../tb/virtual_sequence.sv(36) @ 1820: uvm_test_top.envh.vseqrh@@axi_vseqh [axi_burst_vseq] virtual seq base body
UVM_INFO ../tb/virtual_sequence.sv(36) @ 1820: uvm_test_top.envh.vseqrh@@ahb_vseqh [ahb_vseq] virtual seq base body

 AWLEN  :           7 
 axi_length = '{3, 3, 15, 7, 15, 3, 15, 15, 3, 7, 3, 7, 7, 3, 3, 7, 15, 3}
ahb_length :'{7, 3, 3, 15, 7, 15, 3, 15, 15, 3, 7, 3, 7, 7, 3, 3, 7, 15, 3}
UVM_INFO ../AHB_AGENT/ahb_driver.sv(46) @ 1820: uvm_test_top.envh.ahb_agth[0].drvh [ahb_driver] in ahb driver           0
UVM_INFO ../AHB_AGENT/ahb_driver.sv(46) @ 1832: uvm_test_top.envh.ahb_agth[0].drvh [ahb_driver] in ahb driver           1
UVM_INFO ../AXI_AGENT/axi_driver.sv(61) @ 1835: uvm_test_top.envh.axi_agth[0].drvh [axi_driver] axi_trans :
 "---------------------------------------------------------------------------------------------------
Name                           Type       Size  Value                                              
---------------------------------------------------------------------------------------------------
req                            axi_trans  -     @2028                                              
  begin_time                   time       64    1820                                               
  depth                        int        32    'd2                                                
  parent sequence (name)       string     15    axi_burst_vseqh                                    
  parent sequence (full name)  string     51    uvm_test_top.envh.axi_agth[0].seqrh.axi_burst_vseqh
  sequencer                    string     35    uvm_test_top.envh.axi_agth[0].seqrh                
  AWID                         integral   8     'd0                                                
  AWADDR                       integral   32    3492403851                                         
  AWLEN                        integral   8     'd7                                                
  AWSIZE                       integral   3     'd0                                                
  AWBURST                      integral   2     2                                                  
  AWVALID                      integral   1     1                                                  
  AWREADY                      integral   1     'd0                                                
  WID                          integral   8     'd0                                                
  WDATA[0]                     integral   64    'd4121514057740779425                              
  WDATA[1]                     integral   64    16665282633613714634                               
  WDATA[2]                     integral   64    12770033128363569694                               
  WDATA[3]                     integral   64    'd8944393653245972540                              
  WDATA[4]                     integral   64    11490674215100580014                               
  WDATA[5]                     integral   64    10217145293545318796                               
  WDATA[6]                     integral   64    'd4322982899225672137                              
  WDATA[7]                     integral   64    'd943197882060310857                               
  WSTRB[0]                     integral   8     'b1000                                             
  WSTRB[1]                     integral   8     'b10000                                            
  WSTRB[2]                     integral   8     'b100000                                           
  WSTRB[3]                     integral   8     'b1000000                                          
  WSTRB[4]                     integral   8     'b10000000                                         
  WSTRB[5]                     integral   8     'b1                                                
  WSTRB[6]                     integral   8     'b10                                               
  WSTRB[7]                     integral   8     'b100                                              
  WLAST                        integral   1     'd0                                                
  WVALID                       integral   1     1                                                  
  WREADY                       integral   1     'd0                                                
  bid                          integral   8     'd0                                                
  bresp                        integral   2     'd0                                                
  bvalid                       integral   1     'd0                                                
  bready                       integral   1     'd0                                                
  arid                         integral   8     'd0                                                
  araddr                       integral   32    'd517615726                                        
  arlen                        integral   8     'd7                                                
  arsize                       integral   3     'd2                                                
  arburst                      integral   2     'd1                                                
  arvalid                      integral   1     'd0                                                
  arready                      integral   1     'd0                                                
  rid                          integral   8     'd0                                                
  rlast                        integral   1     'd0                                                
  rvalid                       integral   1     'd0                                                
  rready                       integral   1     'd0                                                
---------------------------------------------------------------------------------------------------
"
UVM_INFO ../AXI_AGENT/axi_monitor.sv(70) @ 1845: uvm_test_top.envh.axi_agth[0].monh [axi_monitor] after write address channel
 temp_data =           3825205248 
 strb = 00001000
strb= 00001000
 temp_data =         283467841536 
 strb = 00010000
strb= 00010000
 temp_data =       75866302316544 
 strb = 00100000
strb= 00100000
 temp_data =     9007199254740992 
 strb = 01000000
strb= 01000000
UVM_INFO ../AHB_AGENT/ahb_driver.sv(46) @ 1912: uvm_test_top.envh.ahb_agth[0].drvh [ahb_driver] in ahb driver           1
 temp_data = 11457157452030541824 
 strb = 10000000
strb= 10000000
 temp_data =                  140 
 strb = 00000001
strb= 00000001
 temp_data =                14592 
 strb = 00000010
strb= 00000010
hwrite =1 time=                1976 
 temp_data =              1769472 
 strb = 00000100
strb= 00000100
UVM_INFO ../AHB_AGENT/ahb_monitor.sv(67) @ 1992: uvm_test_top.envh.ahb_agth[0].monh [ahb_monitor] ahb_trans: 
 "----------------------------------------
Name       Type       Size  Value       
----------------------------------------
ahb_xtn    ahb_trans  -     @1972       
  hwrite   integral   1     1           
  haddr    integral   32    3492403851  
  htrans   integral   2     2           
  hsize    integral   3     'd0         
  hburst   integral   3     'd0         
  hrdata   integral   64    'd0         
  hwdata   integral   64    'd3825205248
  hready   integral   1     1           
  hresp    integral   1     'd0         
  hmaster  integral   1     'd0         
----------------------------------------
"
hwrite =1 time=                1992 
UVM_INFO ../tb/scoreboard.sv(259) @ 1992: uvm_test_top.envh.scoreboardh [scoreboard] data is matched
UVM_INFO ../tb/scoreboard.sv(260) @ 1992: uvm_test_top.envh.scoreboardh [scoreboard] axi_temp_wdata: 3825205248 , ahb_hwdata: 3825205248
UVM_INFO ../AHB_AGENT/ahb_driver.sv(46) @ 1992: uvm_test_top.envh.ahb_agth[0].drvh [ahb_driver] in ahb driver           0
UVM_INFO ../AXI_AGENT/axi_monitor.sv(155) @ 1995: uvm_test_top.envh.axi_agth[0].monh [axi_monitor] axi_trans :
 "--------------------------------------------------
Name        Type       Size  Value                
--------------------------------------------------
axi_xtn     axi_trans  -     @1836                
  AWID      integral   8     'd0                  
  AWADDR    integral   32    3492403851           
  AWLEN     integral   8     'd7                  
  AWSIZE    integral   3     'd0                  
  AWBURST   integral   2     2                    
  AWVALID   integral   1     1                    
  AWREADY   integral   1     1                    
  WID       integral   8     'd0                  
  WDATA[0]  integral   64    'd4121514057740779425
  WDATA[1]  integral   64    16665282633613714634 
  WDATA[2]  integral   64    12770033128363569694 
  WDATA[3]  integral   64    'd8944393653245972540
  WDATA[4]  integral   64    11490674215100580014 
  WDATA[5]  integral   64    10217145293545318796 
  WDATA[6]  integral   64    'd4322982899225672137
  WDATA[7]  integral   64    'd943197882060310857 
  WSTRB[0]  integral   8     'b1000               
  WSTRB[1]  integral   8     'b10000              
  WSTRB[2]  integral   8     'b100000             
  WSTRB[3]  integral   8     'b1000000            
  WSTRB[4]  integral   8     'b10000000           
  WSTRB[5]  integral   8     'b1                  
  WSTRB[6]  integral   8     'b10                 
  WSTRB[7]  integral   8     'b100                
  WLAST     integral   1     1                    
  WVALID    integral   1     1                    
  WREADY    integral   1     1                    
  bid       integral   8     'd0                  
  bresp     integral   2     'd0                  
  bvalid    integral   1     1                    
  bready    integral   1     1                    
  arid      integral   8     'd0                  
  araddr    integral   32    'd0                  
  arlen     integral   8     'd0                  
  arsize    integral   3     'd0                  
  arburst   integral   2     'd0                  
  arvalid   integral   1     'd0                  
  arready   integral   1     'd0                  
  rid       integral   8     'd0                  
  rlast     integral   1     'd0                  
  rvalid    integral   1     'd0                  
  rready    integral   1     'd0                  
--------------------------------------------------
"
UVM_INFO ../AXI_AGENT/axi_monitor.sv(78) @ 1995: uvm_test_top.envh.axi_agth[0].monh [axi_monitor] after write data channel
UVM_INFO ../AHB_AGENT/ahb_monitor.sv(67) @ 2008: uvm_test_top.envh.ahb_agth[0].monh [ahb_monitor] ahb_trans: 
 "------------------------------------------
Name       Type       Size  Value         
------------------------------------------
ahb_xtn    ahb_trans  -     @2078         
  hwrite   integral   1     1             
  haddr    integral   32    3492403852    
  htrans   integral   2     2             
  hsize    integral   3     'd0           
  hburst   integral   3     'd0           
  hrdata   integral   64    'd0           
  hwdata   integral   64    'd283467841536
  hready   integral   1     1             
  hresp    integral   1     'd0           
  hmaster  integral   1     'd0           
------------------------------------------
"
hwrite =1 time=                2008 
UVM_INFO ../tb/scoreboard.sv(259) @ 2008: uvm_test_top.envh.scoreboardh [scoreboard] data is matched
UVM_INFO ../tb/scoreboard.sv(260) @ 2008: uvm_test_top.envh.scoreboardh [scoreboard] axi_temp_wdata: 283467841536 , ahb_hwdata: 283467841536
UVM_INFO ../AHB_AGENT/ahb_driver.sv(46) @ 2008: uvm_test_top.envh.ahb_agth[0].drvh [ahb_driver] in ahb driver           2
UVM_INFO ../AHB_AGENT/ahb_monitor.sv(67) @ 2024: uvm_test_top.envh.ahb_agth[0].monh [ahb_monitor] ahb_trans: 
 "--------------------------------------------
Name       Type       Size  Value           
--------------------------------------------
ahb_xtn    ahb_trans  -     @2086           
  hwrite   integral   1     1               
  haddr    integral   32    3492403853      
  htrans   integral   2     2               
  hsize    integral   3     'd0             
  hburst   integral   3     'd0             
  hrdata   integral   64    'd0             
  hwdata   integral   64    'd75866302316544
  hready   integral   1     1               
  hresp    integral   1     'd0             
  hmaster  integral   1     'd0             
--------------------------------------------
"
hwrite =1 time=                2024 
UVM_INFO ../tb/scoreboard.sv(259) @ 2024: uvm_test_top.envh.scoreboardh [scoreboard] data is matched
UVM_INFO ../tb/scoreboard.sv(260) @ 2024: uvm_test_top.envh.scoreboardh [scoreboard] axi_temp_wdata: 75866302316544 , ahb_hwdata: 75866302316544
UVM_INFO ../AHB_AGENT/ahb_monitor.sv(67) @ 2040: uvm_test_top.envh.ahb_agth[0].monh [ahb_monitor] ahb_trans: 
 "----------------------------------------------
Name       Type       Size  Value             
----------------------------------------------
ahb_xtn    ahb_trans  -     @2090             
  hwrite   integral   1     1                 
  haddr    integral   32    3492403854        
  htrans   integral   2     2                 
  hsize    integral   3     'd0               
  hburst   integral   3     'd0               
  hrdata   integral   64    'd0               
  hwdata   integral   64    'd9007199254740992
  hready   integral   1     1                 
  hresp    integral   1     'd0               
  hmaster  integral   1     'd0               
----------------------------------------------
"
UVM_INFO ../tb/scoreboard.sv(259) @ 2040: uvm_test_top.envh.scoreboardh [scoreboard] data is matched
UVM_INFO ../tb/scoreboard.sv(260) @ 2040: uvm_test_top.envh.scoreboardh [scoreboard] axi_temp_wdata: 9007199254740992 , ahb_hwdata: 9007199254740992
hwrite =1 time=                2056 
UVM_INFO ../AHB_AGENT/ahb_driver.sv(46) @ 2056: uvm_test_top.envh.ahb_agth[0].drvh [ahb_driver] in ahb driver           0
UVM_INFO ../AHB_AGENT/ahb_monitor.sv(67) @ 2072: uvm_test_top.envh.ahb_agth[0].monh [ahb_monitor] ahb_trans: 
 "------------------------------------------------
Name       Type       Size  Value               
------------------------------------------------
ahb_xtn    ahb_trans  -     @2094               
  hwrite   integral   1     1                   
  haddr    integral   32    3492403855          
  htrans   integral   2     2                   
  hsize    integral   3     'd0                 
  hburst   integral   3     'd0                 
  hrdata   integral   64    'd0                 
  hwdata   integral   64    11457157452030541824
  hready   integral   1     1                   
  hresp    integral   1     1                   
  hmaster  integral   1     'd0                 
------------------------------------------------
"
hwrite =1 time=                2072 
UVM_INFO ../tb/scoreboard.sv(259) @ 2072: uvm_test_top.envh.scoreboardh [scoreboard] data is matched
UVM_INFO ../tb/scoreboard.sv(260) @ 2072: uvm_test_top.envh.scoreboardh [scoreboard] axi_temp_wdata: 11457157452030541824 , ahb_hwdata: 11457157452030541824
UVM_INFO ../AHB_AGENT/ahb_driver.sv(46) @ 2072: uvm_test_top.envh.ahb_agth[0].drvh [ahb_driver] in ahb driver           0
UVM_INFO ../AHB_AGENT/ahb_monitor.sv(67) @ 2088: uvm_test_top.envh.ahb_agth[0].monh [ahb_monitor] ahb_trans: 
 "--------------------------------------
Name       Type       Size  Value     
--------------------------------------
ahb_xtn    ahb_trans  -     @2098     
  hwrite   integral   1     1         
  haddr    integral   32    3492403849
  htrans   integral   2     2         
  hsize    integral   3     'd0       
  hburst   integral   3     'd0       
  hrdata   integral   64    'd0       
  hwdata   integral   64    'd140     
  hready   integral   1     1         
  hresp    integral   1     'd0       
  hmaster  integral   1     'd0       
--------------------------------------
"
hwrite =1 time=                2088 
############################################# -- 22
UVM_INFO ../tb/scoreboard.sv(259) @ 2088: uvm_test_top.envh.scoreboardh [scoreboard] data is matched
UVM_INFO ../tb/scoreboard.sv(260) @ 2088: uvm_test_top.envh.scoreboardh [scoreboard] axi_temp_wdata: 140 , ahb_hwdata: 140
UVM_INFO ../AHB_AGENT/ahb_monitor.sv(67) @ 2104: uvm_test_top.envh.ahb_agth[0].monh [ahb_monitor] ahb_trans: 
 "--------------------------------------
Name       Type       Size  Value     
--------------------------------------
ahb_xtn    ahb_trans  -     @2102     
  hwrite   integral   1     1         
  haddr    integral   32    3492403851
  htrans   integral   2     2         
  hsize    integral   3     'd0       
  hburst   integral   3     'd0       
  hrdata   integral   64    'd0       
  hwdata   integral   64    'd14592   
  hready   integral   1     1         
  hresp    integral   1     'd0       
  hmaster  integral   1     'd0       
--------------------------------------
"
hwrite =1 time=                2104 
UVM_INFO ../tb/scoreboard.sv(259) @ 2104: uvm_test_top.envh.scoreboardh [scoreboard] data is matched
UVM_INFO ../tb/scoreboard.sv(260) @ 2104: uvm_test_top.envh.scoreboardh [scoreboard] axi_temp_wdata: 14592 , ahb_hwdata: 14592
UVM_INFO ../AHB_AGENT/ahb_monitor.sv(67) @ 2120: uvm_test_top.envh.ahb_agth[0].monh [ahb_monitor] ahb_trans: 
 "--------------------------------------
Name       Type       Size  Value     
--------------------------------------
ahb_xtn    ahb_trans  -     @2106     
  hwrite   integral   1     1         
  haddr    integral   32    3492403853
  htrans   integral   2     2         
  hsize    integral   3     'd0       
  hburst   integral   3     'd0       
  hrdata   integral   64    'd0       
  hwdata   integral   64    'd1769472 
  hready   integral   1     1         
  hresp    integral   1     'd0       
  hmaster  integral   1     'd0       
--------------------------------------
"
UVM_INFO ../tb/scoreboard.sv(259) @ 2120: uvm_test_top.envh.scoreboardh [scoreboard] data is matched
UVM_INFO ../tb/scoreboard.sv(260) @ 2120: uvm_test_top.envh.scoreboardh [scoreboard] axi_temp_wdata: 1769472 , ahb_hwdata: 1769472
UVM_INFO ../AXI_AGENT/axi_monitor.sv(170) @ 2155: uvm_test_top.envh.axi_agth[0].monh [axi_monitor] axi_trans:
 "--------------------------------------------------
Name        Type       Size  Value                
--------------------------------------------------
axi_xtn     axi_trans  -     @1836                
  AWID      integral   8     'd0                  
  AWADDR    integral   32    3492403851           
  AWLEN     integral   8     'd7                  
  AWSIZE    integral   3     'd0                  
  AWBURST   integral   2     2                    
  AWVALID   integral   1     1                    
  AWREADY   integral   1     1                    
  WID       integral   8     'd0                  
  WDATA[0]  integral   64    'd4121514057740779425
  WDATA[1]  integral   64    16665282633613714634 
  WDATA[2]  integral   64    12770033128363569694 
  WDATA[3]  integral   64    'd8944393653245972540
  WDATA[4]  integral   64    11490674215100580014 
  WDATA[5]  integral   64    10217145293545318796 
  WDATA[6]  integral   64    'd4322982899225672137
  WDATA[7]  integral   64    'd943197882060310857 
  WSTRB[0]  integral   8     'b1000               
  WSTRB[1]  integral   8     'b10000              
  WSTRB[2]  integral   8     'b100000             
  WSTRB[3]  integral   8     'b1000000            
  WSTRB[4]  integral   8     'b10000000           
  WSTRB[5]  integral   8     'b1                  
  WSTRB[6]  integral   8     'b10                 
  WSTRB[7]  integral   8     'b100                
  WLAST     integral   1     1                    
  WVALID    integral   1     1                    
  WREADY    integral   1     1                    
  bid       integral   8     'd0                  
  bresp     integral   2     'd0                  
  bvalid    integral   1     1                    
  bready    integral   1     1                    
  arid      integral   8     'd0                  
  araddr    integral   32    'd0                  
  arlen     integral   8     'd0                  
  arsize    integral   3     'd0                  
  arburst   integral   2     'd0                  
  arvalid   integral   1     'd0                  
  arready   integral   1     'd0                  
  rid       integral   8     'd0                  
  rlast     integral   1     'd0                  
  rvalid    integral   1     'd0                  
  rready    integral   1     'd0                  
--------------------------------------------------
"
UVM_INFO ../AXI_AGENT/axi_monitor.sv(86) @ 2165: uvm_test_top.envh.axi_agth[0].monh [axi_monitor] after write response channel
UVM_INFO ../test/test.sv(265) @ 3088: uvm_test_top [axi_test_write_burst] reset_test run phase
UVM_INFO ../tb/virtual_sequence.sv(36) @ 3088: uvm_test_top.envh.vseqrh@@axi_rst_vseqh [axi_rst_vseq] virtual seq base body
/////////////////////// 0
UVM_INFO ../tb/scoreboard.sv(235) @ 3115: uvm_test_top.envh.scoreboardh [scoreboard] axi reset operation is successful
UVM_INFO ../tb/virtual_sequence.sv(36) @ 3115: uvm_test_top.envh.vseqrh@@ahb_rst_vseqh [ahb_rst_vseq] virtual seq base body
/////////////////////// 1
UVM_INFO ../tb/scoreboard.sv(245) @ 3160: uvm_test_top.envh.scoreboardh [scoreboard] ahb reset operation successful
UVM_INFO ../tb/virtual_sequence.sv(36) @ 3212: uvm_test_top.envh.vseqrh@@axi_vseqh [axi_burst_vseq] virtual seq base body
UVM_INFO ../tb/virtual_sequence.sv(36) @ 3212: uvm_test_top.envh.vseqrh@@ahb_vseqh [ahb_vseq] virtual seq base body

 AWLEN  :           3 
 axi_length = '{3, 15, 7, 15, 3, 15, 15, 3, 7, 3, 7, 7, 3, 3, 7, 15, 3}
ahb_length :'{3, 3, 15, 7, 15, 3, 15, 15, 3, 7, 3, 7, 7, 3, 3, 7, 15, 3}
UVM_INFO ../AHB_AGENT/ahb_driver.sv(46) @ 3212: uvm_test_top.envh.ahb_agth[0].drvh [ahb_driver] in ahb driver           1
UVM_INFO ../AXI_AGENT/axi_driver.sv(61) @ 3225: uvm_test_top.envh.axi_agth[0].drvh [axi_driver] axi_trans :
 "---------------------------------------------------------------------------------------------------
Name                           Type       Size  Value                                              
---------------------------------------------------------------------------------------------------
req                            axi_trans  -     @2166                                              
  begin_time                   time       64    3212                                               
  depth                        int        32    'd2                                                
  parent sequence (name)       string     15    axi_burst_vseqh                                    
  parent sequence (full name)  string     51    uvm_test_top.envh.axi_agth[0].seqrh.axi_burst_vseqh
  sequencer                    string     35    uvm_test_top.envh.axi_agth[0].seqrh                
  AWID                         integral   8     'd0                                                
  AWADDR                       integral   32    'd328689145                                        
  AWLEN                        integral   8     'd3                                                
  AWSIZE                       integral   3     'd0                                                
  AWBURST                      integral   2     2                                                  
  AWVALID                      integral   1     1                                                  
  AWREADY                      integral   1     'd0                                                
  WID                          integral   8     'd0                                                
  WDATA[0]                     integral   64    11336089522008872569                               
  WDATA[1]                     integral   64    'd1568825928148625699                              
  WDATA[2]                     integral   64    'd8684110534197054713                              
  WDATA[3]                     integral   64    15085033406405251917                               
  WSTRB[0]                     integral   8     'b10                                               
  WSTRB[1]                     integral   8     'b100                                              
  WSTRB[2]                     integral   8     'b1000                                             
  WSTRB[3]                     integral   8     'b10000                                            
  WLAST                        integral   1     'd0                                                
  WVALID                       integral   1     1                                                  
  WREADY                       integral   1     'd0                                                
  bid                          integral   8     'd0                                                
  bresp                        integral   2     'd0                                                
  bvalid                       integral   1     'd0                                                
  bready                       integral   1     'd0                                                
  arid                         integral   8     'd0                                                
  araddr                       integral   32    3923095286                                         
  arlen                        integral   8     'd3                                                
  arsize                       integral   3     'd0                                                
  arburst                      integral   2     'd0                                                
  arvalid                      integral   1     'd0                                                
  arready                      integral   1     'd0                                                
  rid                          integral   8     'd0                                                
  rlast                        integral   1     'd0                                                
  rvalid                       integral   1     'd0                                                
  rready                       integral   1     'd0                                                
---------------------------------------------------------------------------------------------------
"
UVM_INFO ../AXI_AGENT/axi_monitor.sv(70) @ 3235: uvm_test_top.envh.axi_agth[0].monh [axi_monitor] after write address channel
 temp_data =                54784 
 strb = 00000010
strb= 00000010
 temp_data =             12058624 
 strb = 00000100
strb= 00000100
 temp_data =           1023410176 
 strb = 00001000
strb= 00001000
UVM_INFO ../AHB_AGENT/ahb_driver.sv(46) @ 3288: uvm_test_top.envh.ahb_agth[0].drvh [ahb_driver] in ahb driver           2
 temp_data =        1052266987520 
 strb = 00010000
strb= 00010000
UVM_INFO ../AXI_AGENT/axi_monitor.sv(155) @ 3305: uvm_test_top.envh.axi_agth[0].monh [axi_monitor] axi_trans :
 "--------------------------------------------------
Name        Type       Size  Value                
--------------------------------------------------
axi_xtn     axi_trans  -     @2038                
  AWID      integral   8     'd0                  
  AWADDR    integral   32    'd328689145          
  AWLEN     integral   8     'd3                  
  AWSIZE    integral   3     'd0                  
  AWBURST   integral   2     2                    
  AWVALID   integral   1     1                    
  AWREADY   integral   1     1                    
  WID       integral   8     'd0                  
  WDATA[0]  integral   64    11336089522008872569 
  WDATA[1]  integral   64    'd1568825928148625699
  WDATA[2]  integral   64    'd8684110534197054713
  WDATA[3]  integral   64    15085033406405251917 
  WSTRB[0]  integral   8     'b10                 
  WSTRB[1]  integral   8     'b100                
  WSTRB[2]  integral   8     'b1000               
  WSTRB[3]  integral   8     'b10000              
  WLAST     integral   1     1                    
  WVALID    integral   1     1                    
  WREADY    integral   1     1                    
  bid       integral   8     'd0                  
  bresp     integral   2     'd0                  
  bvalid    integral   1     1                    
  bready    integral   1     1                    
  arid      integral   8     'd0                  
  araddr    integral   32    'd0                  
  arlen     integral   8     'd0                  
  arsize    integral   3     'd0                  
  arburst   integral   2     'd0                  
  arvalid   integral   1     'd0                  
  arready   integral   1     'd0                  
  rid       integral   8     'd0                  
  rlast     integral   1     'd0                  
  rvalid    integral   1     'd0                  
  rready    integral   1     'd0                  
--------------------------------------------------
"
UVM_INFO ../AXI_AGENT/axi_monitor.sv(78) @ 3305: uvm_test_top.envh.axi_agth[0].monh [axi_monitor] after write data channel
UVM_INFO ../AHB_AGENT/ahb_driver.sv(46) @ 3352: uvm_test_top.envh.ahb_agth[0].drvh [ahb_driver] in ahb driver           0
hwrite =1 time=                3368 
############################################# -- 25
UVM_INFO ../AHB_AGENT/ahb_monitor.sv(67) @ 3384: uvm_test_top.envh.ahb_agth[0].monh [ahb_monitor] ahb_trans: 
 "---------------------------------------
Name       Type       Size  Value      
---------------------------------------
ahb_xtn    ahb_trans  -     @2110      
  hwrite   integral   1     1          
  haddr    integral   32    'd328689145
  htrans   integral   2     2          
  hsize    integral   3     'd0        
  hburst   integral   3     'd0        
  hrdata   integral   64    'd0        
  hwdata   integral   64    'd54784    
  hready   integral   1     1          
  hresp    integral   1     'd0        
  hmaster  integral   1     'd0        
---------------------------------------
"
hwrite =1 time=                3384 
UVM_INFO ../tb/scoreboard.sv(259) @ 3384: uvm_test_top.envh.scoreboardh [scoreboard] data is matched
UVM_INFO ../tb/scoreboard.sv(260) @ 3384: uvm_test_top.envh.scoreboardh [scoreboard] axi_temp_wdata: 54784 , ahb_hwdata: 54784
UVM_INFO ../AHB_AGENT/ahb_monitor.sv(67) @ 3400: uvm_test_top.envh.ahb_agth[0].monh [ahb_monitor] ahb_trans: 
 "---------------------------------------
Name       Type       Size  Value      
---------------------------------------
ahb_xtn    ahb_trans  -     @2204      
  hwrite   integral   1     1          
  haddr    integral   32    'd328689146
  htrans   integral   2     2          
  hsize    integral   3     'd0        
  hburst   integral   3     'd0        
  hrdata   integral   64    'd0        
  hwdata   integral   64    'd12058624 
  hready   integral   1     1          
  hresp    integral   1     'd0        
  hmaster  integral   1     'd0        
---------------------------------------
"
hwrite =1 time=                3400 
UVM_INFO ../tb/scoreboard.sv(259) @ 3400: uvm_test_top.envh.scoreboardh [scoreboard] data is matched
UVM_INFO ../tb/scoreboard.sv(260) @ 3400: uvm_test_top.envh.scoreboardh [scoreboard] axi_temp_wdata: 12058624 , ahb_hwdata: 12058624
UVM_INFO ../AHB_AGENT/ahb_monitor.sv(67) @ 3416: uvm_test_top.envh.ahb_agth[0].monh [ahb_monitor] ahb_trans: 
 "----------------------------------------
Name       Type       Size  Value       
----------------------------------------
ahb_xtn    ahb_trans  -     @2208       
  hwrite   integral   1     1           
  haddr    integral   32    'd328689147 
  htrans   integral   2     2           
  hsize    integral   3     'd0         
  hburst   integral   3     'd0         
  hrdata   integral   64    'd0         
  hwdata   integral   64    'd1023410176
  hready   integral   1     1           
  hresp    integral   1     'd0         
  hmaster  integral   1     'd0         
----------------------------------------
"
hwrite =1 time=                3416 
UVM_INFO ../tb/scoreboard.sv(259) @ 3416: uvm_test_top.envh.scoreboardh [scoreboard] data is matched
UVM_INFO ../tb/scoreboard.sv(260) @ 3416: uvm_test_top.envh.scoreboardh [scoreboard] axi_temp_wdata: 1023410176 , ahb_hwdata: 1023410176
UVM_INFO ../AHB_AGENT/ahb_monitor.sv(67) @ 3432: uvm_test_top.envh.ahb_agth[0].monh [ahb_monitor] ahb_trans: 
 "-------------------------------------------
Name       Type       Size  Value          
-------------------------------------------
ahb_xtn    ahb_trans  -     @2212          
  hwrite   integral   1     1              
  haddr    integral   32    'd328689145    
  htrans   integral   2     2              
  hsize    integral   3     'd0            
  hburst   integral   3     'd0            
  hrdata   integral   64    'd0            
  hwdata   integral   64    'd1052266987520
  hready   integral   1     1              
  hresp    integral   1     'd0            
  hmaster  integral   1     'd0            
-------------------------------------------
"
UVM_INFO ../tb/scoreboard.sv(259) @ 3432: uvm_test_top.envh.scoreboardh [scoreboard] data is matched
UVM_INFO ../tb/scoreboard.sv(260) @ 3432: uvm_test_top.envh.scoreboardh [scoreboard] axi_temp_wdata: 1052266987520 , ahb_hwdata: 1052266987520
UVM_INFO ../AXI_AGENT/axi_monitor.sv(170) @ 3465: uvm_test_top.envh.axi_agth[0].monh [axi_monitor] axi_trans:
 "--------------------------------------------------
Name        Type       Size  Value                
--------------------------------------------------
axi_xtn     axi_trans  -     @2038                
  AWID      integral   8     'd0                  
  AWADDR    integral   32    'd328689145          
  AWLEN     integral   8     'd3                  
  AWSIZE    integral   3     'd0                  
  AWBURST   integral   2     2                    
  AWVALID   integral   1     1                    
  AWREADY   integral   1     1                    
  WID       integral   8     'd0                  
  WDATA[0]  integral   64    11336089522008872569 
  WDATA[1]  integral   64    'd1568825928148625699
  WDATA[2]  integral   64    'd8684110534197054713
  WDATA[3]  integral   64    15085033406405251917 
  WSTRB[0]  integral   8     'b10                 
  WSTRB[1]  integral   8     'b100                
  WSTRB[2]  integral   8     'b1000               
  WSTRB[3]  integral   8     'b10000              
  WLAST     integral   1     1                    
  WVALID    integral   1     1                    
  WREADY    integral   1     1                    
  bid       integral   8     'd0                  
  bresp     integral   2     'd0                  
  bvalid    integral   1     1                    
  bready    integral   1     1                    
  arid      integral   8     'd0                  
  araddr    integral   32    'd0                  
  arlen     integral   8     'd0                  
  arsize    integral   3     'd0                  
  arburst   integral   2     'd0                  
  arvalid   integral   1     'd0                  
  arready   integral   1     'd0                  
  rid       integral   8     'd0                  
  rlast     integral   1     'd0                  
  rvalid    integral   1     'd0                  
  rready    integral   1     'd0                  
--------------------------------------------------
"
UVM_INFO ../AXI_AGENT/axi_monitor.sv(86) @ 3475: uvm_test_top.envh.axi_agth[0].monh [axi_monitor] after write response channel
UVM_INFO ../test/test.sv(265) @ 4368: uvm_test_top [axi_test_write_burst] reset_test run phase
UVM_INFO ../tb/virtual_sequence.sv(36) @ 4368: uvm_test_top.envh.vseqrh@@axi_rst_vseqh [axi_rst_vseq] virtual seq base body
/////////////////////// 0
UVM_INFO ../tb/scoreboard.sv(235) @ 4395: uvm_test_top.envh.scoreboardh [scoreboard] axi reset operation is successful
UVM_INFO ../tb/virtual_sequence.sv(36) @ 4395: uvm_test_top.envh.vseqrh@@ahb_rst_vseqh [ahb_rst_vseq] virtual seq base body
/////////////////////// 1
UVM_INFO ../tb/scoreboard.sv(245) @ 4440: uvm_test_top.envh.scoreboardh [scoreboard] ahb reset operation successful
UVM_INFO ../tb/virtual_sequence.sv(36) @ 4492: uvm_test_top.envh.vseqrh@@axi_vseqh [axi_burst_vseq] virtual seq base body
UVM_INFO ../tb/virtual_sequence.sv(36) @ 4492: uvm_test_top.envh.vseqrh@@ahb_vseqh [ahb_vseq] virtual seq base body

 AWLEN  :           3 
 axi_length = '{15, 7, 15, 3, 15, 15, 3, 7, 3, 7, 7, 3, 3, 7, 15, 3}
ahb_length :'{3, 15, 7, 15, 3, 15, 15, 3, 7, 3, 7, 7, 3, 3, 7, 15, 3}
UVM_INFO ../AHB_AGENT/ahb_driver.sv(46) @ 4492: uvm_test_top.envh.ahb_agth[0].drvh [ahb_driver] in ahb driver           1
UVM_INFO ../AXI_AGENT/axi_driver.sv(61) @ 4505: uvm_test_top.envh.axi_agth[0].drvh [axi_driver] axi_trans :
 "---------------------------------------------------------------------------------------------------
Name                           Type       Size  Value                                              
---------------------------------------------------------------------------------------------------
req                            axi_trans  -     @2272                                              
  begin_time                   time       64    4492                                               
  depth                        int        32    'd2                                                
  parent sequence (name)       string     15    axi_burst_vseqh                                    
  parent sequence (full name)  string     51    uvm_test_top.envh.axi_agth[0].seqrh.axi_burst_vseqh
  sequencer                    string     35    uvm_test_top.envh.axi_agth[0].seqrh                
  AWID                         integral   8     'd0                                                
  AWADDR                       integral   32    2423602815                                         
  AWLEN                        integral   8     'd3                                                
  AWSIZE                       integral   3     'd0                                                
  AWBURST                      integral   2     2                                                  
  AWVALID                      integral   1     1                                                  
  AWREADY                      integral   1     'd0                                                
  WID                          integral   8     'd0                                                
  WDATA[0]                     integral   64    'd2040443933235646869                              
  WDATA[1]                     integral   64    'd8913444869647093998                              
  WDATA[2]                     integral   64    'd9132545679963172299                              
  WDATA[3]                     integral   64    17057323883344985326                               
  WSTRB[0]                     integral   8     'b10000000                                         
  WSTRB[1]                     integral   8     'b1                                                
  WSTRB[2]                     integral   8     'b10                                               
  WSTRB[3]                     integral   8     'b100                                              
  WLAST                        integral   1     'd0                                                
  WVALID                       integral   1     1                                                  
  WREADY                       integral   1     'd0                                                
  bid                          integral   8     'd0                                                
  bresp                        integral   2     'd0                                                
  bvalid                       integral   1     'd0                                                
  bready                       integral   1     'd0                                                
  arid                         integral   8     'd0                                                
  araddr                       integral   32    'd1350443473                                       
  arlen                        integral   8     'd3                                                
  arsize                       integral   3     'd0                                                
  arburst                      integral   2     'd1                                                
  arvalid                      integral   1     'd0                                                
  arready                      integral   1     'd0                                                
  rid                          integral   8     'd0                                                
  rlast                        integral   1     'd0                                                
  rvalid                       integral   1     'd0                                                
  rready                       integral   1     'd0                                                
---------------------------------------------------------------------------------------------------
"
UVM_INFO ../AXI_AGENT/axi_monitor.sv(70) @ 4515: uvm_test_top.envh.axi_agth[0].monh [axi_monitor] after write address channel
 temp_data =  2017612633061982208 
 strb = 10000000
strb= 10000000
 temp_data =                  238 
 strb = 00000001
strb= 00000001
 temp_data =                44288 
 strb = 00000010
strb= 00000010
UVM_INFO ../AHB_AGENT/ahb_driver.sv(46) @ 4568: uvm_test_top.envh.ahb_agth[0].drvh [ahb_driver] in ahb driver           0
 temp_data =              9437184 
 strb = 00000100
strb= 00000100
UVM_INFO ../AHB_AGENT/ahb_driver.sv(46) @ 4584: uvm_test_top.envh.ahb_agth[0].drvh [ahb_driver] in ahb driver           1
UVM_INFO ../AXI_AGENT/axi_monitor.sv(155) @ 4585: uvm_test_top.envh.axi_agth[0].monh [axi_monitor] axi_trans :
 "--------------------------------------------------
Name        Type       Size  Value                
--------------------------------------------------
axi_xtn     axi_trans  -     @2176                
  AWID      integral   8     'd0                  
  AWADDR    integral   32    2423602815           
  AWLEN     integral   8     'd3                  
  AWSIZE    integral   3     'd0                  
  AWBURST   integral   2     2                    
  AWVALID   integral   1     1                    
  AWREADY   integral   1     1                    
  WID       integral   8     'd0                  
  WDATA[0]  integral   64    'd2040443933235646869
  WDATA[1]  integral   64    'd8913444869647093998
  WDATA[2]  integral   64    'd9132545679963172299
  WDATA[3]  integral   64    17057323883344985326 
  WSTRB[0]  integral   8     'b10000000           
  WSTRB[1]  integral   8     'b1                  
  WSTRB[2]  integral   8     'b10                 
  WSTRB[3]  integral   8     'b100                
  WLAST     integral   1     1                    
  WVALID    integral   1     1                    
  WREADY    integral   1     1                    
  bid       integral   8     'd0                  
  bresp     integral   2     'd0                  
  bvalid    integral   1     1                    
  bready    integral   1     1                    
  arid      integral   8     'd0                  
  araddr    integral   32    'd0                  
  arlen     integral   8     'd0                  
  arsize    integral   3     'd0                  
  arburst   integral   2     'd0                  
  arvalid   integral   1     'd0                  
  arready   integral   1     'd0                  
  rid       integral   8     'd0                  
  rlast     integral   1     'd0                  
  rvalid    integral   1     'd0                  
  rready    integral   1     'd0                  
--------------------------------------------------
"
UVM_INFO ../AXI_AGENT/axi_monitor.sv(78) @ 4585: uvm_test_top.envh.axi_agth[0].monh [axi_monitor] after write data channel
hwrite =1 time=                4648 
UVM_INFO ../AHB_AGENT/ahb_monitor.sv(67) @ 4664: uvm_test_top.envh.ahb_agth[0].monh [ahb_monitor] ahb_trans: 
 "-------------------------------------------------
Name       Type       Size  Value                
-------------------------------------------------
ahb_xtn    ahb_trans  -     @2216                
  hwrite   integral   1     1                    
  haddr    integral   32    2423602815           
  htrans   integral   2     2                    
  hsize    integral   3     'd0                  
  hburst   integral   3     'd0                  
  hrdata   integral   64    'd0                  
  hwdata   integral   64    'd2017612633061982208
  hready   integral   1     1                    
  hresp    integral   1     'd0                  
  hmaster  integral   1     'd0                  
-------------------------------------------------
"
hwrite =1 time=                4664 
############################################# -- 28
UVM_INFO ../tb/scoreboard.sv(259) @ 4664: uvm_test_top.envh.scoreboardh [scoreboard] data is matched
UVM_INFO ../tb/scoreboard.sv(260) @ 4664: uvm_test_top.envh.scoreboardh [scoreboard] axi_temp_wdata: 2017612633061982208 , ahb_hwdata: 2017612633061982208
UVM_INFO ../AHB_AGENT/ahb_monitor.sv(67) @ 4680: uvm_test_top.envh.ahb_agth[0].monh [ahb_monitor] ahb_trans: 
 "--------------------------------------
Name       Type       Size  Value     
--------------------------------------
ahb_xtn    ahb_trans  -     @2310     
  hwrite   integral   1     1         
  haddr    integral   32    2423602814
  htrans   integral   2     2         
  hsize    integral   3     'd0       
  hburst   integral   3     'd0       
  hrdata   integral   64    'd0       
  hwdata   integral   64    'd238     
  hready   integral   1     1         
  hresp    integral   1     'd0       
  hmaster  integral   1     'd0       
--------------------------------------
"
UVM_INFO ../tb/scoreboard.sv(259) @ 4680: uvm_test_top.envh.scoreboardh [scoreboard] data is matched
UVM_INFO ../tb/scoreboard.sv(260) @ 4680: uvm_test_top.envh.scoreboardh [scoreboard] axi_temp_wdata: 238 , ahb_hwdata: 238
UVM_INFO ../test/test.sv(265) @ 5664: uvm_test_top [axi_test_write_burst] reset_test run phase
UVM_INFO ../tb/virtual_sequence.sv(36) @ 5664: uvm_test_top.envh.vseqrh@@axi_rst_vseqh [axi_rst_vseq] virtual seq base body
/////////////////////// 0
UVM_INFO ../tb/scoreboard.sv(235) @ 5685: uvm_test_top.envh.scoreboardh [scoreboard] axi reset operation is successful
UVM_INFO ../tb/virtual_sequence.sv(36) @ 5685: uvm_test_top.envh.vseqrh@@ahb_rst_vseqh [ahb_rst_vseq] virtual seq base body
/////////////////////// 1
UVM_INFO ../tb/scoreboard.sv(245) @ 5720: uvm_test_top.envh.scoreboardh [scoreboard] ahb reset operation successful
UVM_INFO ../tb/virtual_sequence.sv(36) @ 5772: uvm_test_top.envh.vseqrh@@axi_vseqh [axi_burst_vseq] virtual seq base body
UVM_INFO ../tb/virtual_sequence.sv(36) @ 5772: uvm_test_top.envh.vseqrh@@ahb_vseqh [ahb_vseq] virtual seq base body

 AWLEN  :          15 
 axi_length = '{7, 15, 3, 15, 15, 3, 7, 3, 7, 7, 3, 3, 7, 15, 3}
ahb_length :'{15, 7, 15, 3, 15, 15, 3, 7, 3, 7, 7, 3, 3, 7, 15, 3}
UVM_INFO ../AHB_AGENT/ahb_driver.sv(46) @ 5772: uvm_test_top.envh.ahb_agth[0].drvh [ahb_driver] in ahb driver           1
UVM_INFO ../AXI_AGENT/axi_driver.sv(61) @ 5785: uvm_test_top.envh.axi_agth[0].drvh [axi_driver] axi_trans :
 "---------------------------------------------------------------------------------------------------
Name                           Type       Size  Value                                              
---------------------------------------------------------------------------------------------------
req                            axi_trans  -     @2370                                              
  begin_time                   time       64    5772                                               
  depth                        int        32    'd2                                                
  parent sequence (name)       string     15    axi_burst_vseqh                                    
  parent sequence (full name)  string     51    uvm_test_top.envh.axi_agth[0].seqrh.axi_burst_vseqh
  sequencer                    string     35    uvm_test_top.envh.axi_agth[0].seqrh                
  AWID                         integral   8     'd0                                                
  AWADDR                       integral   32    3840795567                                         
  AWLEN                        integral   8     'd15                                               
  AWSIZE                       integral   3     'd0                                                
  AWBURST                      integral   2     2                                                  
  AWVALID                      integral   1     1                                                  
