vsim -cvgperinstance -vopt -voptargs="+acc" -coverage -sva -c -do " log -r /* ;coverage save -onexit mem_cov3;run -all; exit" -wlf wave_file3.wlf -l test3.log -sv_seed random work.top "+UVM_TESTNAME=test2" 
Start time: 18:13:55 on Mar 28,2025
** Note: (vsim-8009) Loading existing optimized design _opt
//  Questa Sim-64
//  Version 2019.2 linux_x86_64 Apr 16 2019
//
//  Copyright 1991-2019 Mentor Graphics Corporation
//  All Rights Reserved.
//
//  QuestaSim and its associated documentation contain trade
//  secrets and commercial or financial information that are the property of
//  Mentor Graphics Corporation and are privileged, confidential,
//  and exempt from disclosure under the Freedom of Information Act,
//  5 U.S.C. Section 552. Furthermore, this information
//  is prohibited from disclosure under the Trade Secrets Act,
//  18 U.S.C. Section 1905.
//
Loading sv_std.std
Loading work.av_if(fast)
Loading mtiUvm.uvm_pkg
Loading work.avip_pkg(fast)
Loading mtiUvm.questa_uvm_pkg(fast)
Loading work.top(fast)
Loading work.av_if(fast)
# Loading /home/cad/eda/Questa_2019/questasim/uvm-1.1d/linux_x86_64/uvm_dpi.so
** Warning: (vsim-8634) Code was not compiled with coverage options.
Sv_Seed = 2345772381
 log -r /* 
coverage save -onexit mem_cov3
run -all
----------------------------------------------------------------
UVM-1.1d
(C) 2007-2013 Mentor Graphics Corporation
(C) 2007-2013 Cadence Design Systems, Inc.
(C) 2006-2013 Synopsys, Inc.
(C) 2011-2013 Cypress Semiconductor Corp.
----------------------------------------------------------------

  ***********       IMPORTANT RELEASE NOTES         ************

  You are using a version of the UVM library that has been compiled
  with `UVM_NO_DEPRECATED undefined.
  See http://www.eda.org/svdb/view.php?id=3313 for more details.

  You are using a version of the UVM library that has been compiled
  with `UVM_OBJECT_MUST_HAVE_CONSTRUCTOR undefined.
  See http://www.eda.org/svdb/view.php?id=3770 for more details.

      (Specify +UVM_NO_RELNOTES to turn off this notice)

UVM_INFO verilog_src/questa_uvm_pkg-1.2/src/questa_uvm_pkg.sv(277) @ 0: reporter [Questa UVM] QUESTA_UVM-1.2.3
UVM_INFO verilog_src/questa_uvm_pkg-1.2/src/questa_uvm_pkg.sv(278) @ 0: reporter [Questa UVM]  questa_uvm::init(+struct)
UVM_INFO @ 0: reporter [RNTST] Running test test2...
UVM_INFO @ 0: reporter [UVMTOP] UVM testbench topology:
------------------------------------------------------------------
Name                       Type                        Size  Value
------------------------------------------------------------------
uvm_test_top               test2                       -     @474 
  env_h                    env                         -     @490 
    m_agt[0]               m_agent                     -     @506 
      m_drv                m_driver                    -     @657 
        rsp_port           uvm_analysis_port           -     @672 
        seq_item_port      uvm_seq_item_pull_port      -     @664 
      m_mon                m_monitor                   -     @533 
        monitor_port       uvm_analysis_port           -     @540 
      m_seqr               ma_sequencer                -     @548 
        rsp_export         uvm_analysis_export         -     @555 
        seq_item_export    uvm_seq_item_pull_imp       -     @649 
        arbitration_queue  array                       0     -    
        lock_queue         array                       0     -    
        num_last_reqs      integral                    32    'd1  
        num_last_rsps      integral                    32    'd1  
    s_agt[0]               s_agent                     -     @517 
      s_drv                s_driver                    -     @817 
        rsp_port           uvm_analysis_port           -     @832 
        seq_item_port      uvm_seq_item_pull_port      -     @824 
      s_mon                s_monitor                   -     @693 
        monitor_port       uvm_analysis_port           -     @700 
      s_seqr               s_sequencer                 -     @708 
        rsp_export         uvm_analysis_export         -     @715 
        seq_item_export    uvm_seq_item_pull_imp       -     @809 
        arbitration_queue  array                       0     -    
        lock_queue         array                       0     -    
        num_last_reqs      integral                    32    'd1  
        num_last_rsps      integral                    32    'd1  
    sbh                    scoreboard                  -     @524 
      mst_fifo             uvm_tlm_analysis_fifo #(T)  -     @852 
        analysis_export    uvm_analysis_imp            -     @891 
        get_ap             uvm_analysis_port           -     @883 
        get_peek_export    uvm_get_peek_imp            -     @867 
        put_ap             uvm_analysis_port           -     @875 
        put_export         uvm_put_imp                 -     @859 
      slv_fifo             uvm_tlm_analysis_fifo #(T)  -     @899 
        analysis_export    uvm_analysis_imp            -     @938 
        get_ap             uvm_analysis_port           -     @930 
        get_peek_export    uvm_get_peek_imp            -     @914 
        put_ap             uvm_analysis_port           -     @922 
        put_export         uvm_put_imp                 -     @906 
------------------------------------------------------------------

aaaaaaaaaaaaaaaaaaaaaaaaaaaaaaaaaaa = 0
UVM_INFO ../master_agent/master_driver.sv(51) @ 75: uvm_test_top.env_h.m_agt[0].m_drv [MASTER DRV] THIS IS AHB DRIVER 
 ----------------------------------------
Name          Type      Size  Value     
----------------------------------------
req           trans     -     @955      
  HRESETn     integral  1     'd0       
  HBURST      integral  3     4         
  HRESP       integral  1     'd0       
  HADDR       integral  32    'h9d397d70
  HTRANS      integral  2     'd0       
  HWDATA      integral  32    'hdfe69dab
  HLEN        integral  8     'd8       
  HRDATA      integral  32    'd0       
  HSIZE       integral  3     'd2       
  HWRITE      integral  1     1         
  HREADY_OUT  integral  1     'd0       
----------------------------------------

UVM_INFO ../master_agent/master_driver.sv(51) @ 85: uvm_test_top.env_h.m_agt[0].m_drv [MASTER DRV] THIS IS AHB DRIVER 
 ----------------------------------------
Name          Type      Size  Value     
----------------------------------------
req           trans     -     @1008     
  HRESETn     integral  1     'd0       
  HBURST      integral  3     'd0       
  HRESP       integral  1     'd0       
  HADDR       integral  32    'hcfc3b30 
  HTRANS      integral  2     'd0       
  HWDATA      integral  32    'h8ee1160c
  HLEN        integral  8     'd1       
  HRDATA      integral  32    'd0       
  HSIZE       integral  3     'd2       
  HWRITE      integral  1     1         
  HREADY_OUT  integral  1     'd0       
----------------------------------------

UVM_INFO ../master_agent/master_monitor.sv(99) @ 85: uvm_test_top.env_h.m_agt[0].m_mon [master monitor] Printing from master monitor 
 ----------------------------------------
Name          Type      Size  Value     
----------------------------------------
txn           trans     -     @682      
  HRESETn     integral  1     'd0       
  HBURST      integral  3     4         
  HRESP       integral  1     'd0       
  HADDR       integral  32    'h9d397d70
  HTRANS      integral  2     'd0       
  HWDATA      integral  32    'h0       
  HLEN        integral  8     'd0       
  HRDATA      integral  32    'd0       
  HSIZE       integral  3     'd2       
  HWRITE      integral  1     1         
  HREADY_OUT  integral  1     'd0       
----------------------------------------

                  85master monitor write operation mem[2637790576]=dfe69dab
                  85slave monitor write operation mem[2637790576]= dfe69dab
UVM_INFO ../slave_agent/slave_monitor.sv(92) @ 85: uvm_test_top.env_h.s_agt[0].s_mon [slave monitor] Printing from slave monitor 
 ----------------------------------------
Name          Type      Size  Value     
----------------------------------------
txn           trans     -     @949      
  HRESETn     integral  1     'd0       
  HBURST      integral  3     'd0       
  HRESP       integral  1     'd0       
  HADDR       integral  32    'h9d397d70
  HTRANS      integral  2     'd0       
  HWDATA      integral  32    'h0       
  HLEN        integral  8     'd0       
  HRDATA      integral  32    'd0       
  HSIZE       integral  3     'd2       
  HWRITE      integral  1     1         
  HREADY_OUT  integral  1     'd0       
----------------------------------------

UVM_INFO ../tb/scoreboard.sv(121) @ 85: uvm_test_top.env_h.sbh [SB] Address compared successfully
** Warning: (vsim-3829) Non-existent associative array entry. Returning default value.
   Time: 85 ns  Iteration: 3  Process: /avip_pkg::scoreboard::run_phase/#FORK#90_7fefec1f53a File: ../tb/scoreboard.sv Line: 125
** Warning: (vsim-3829) Non-existent associative array entry. Returning default value.
   Time: 85 ns  Iteration: 3  Process: /avip_pkg::scoreboard::run_phase/#FORK#90_7fefec1f53a File: ../tb/scoreboard.sv Line: 125
UVM_INFO ../tb/scoreboard.sv(127) @ 85: uvm_test_top.env_h.sbh [SB] write data matched successfully
UVM_INFO ../master_agent/master_driver.sv(51) @ 95: uvm_test_top.env_h.m_agt[0].m_drv [MASTER DRV] THIS IS AHB DRIVER 
 ----------------------------------------
Name          Type      Size  Value     
----------------------------------------
req           trans     -     @1016     
  HRESETn     integral  1     'd0       
  HBURST      integral  3     'd3       
  HRESP       integral  1     'd0       
  HADDR       integral  32    'he6cf4b23
  HTRANS      integral  2     2         
  HWDATA      integral  32    'hcb24f58d
  HLEN        integral  8     'd4       
  HRDATA      integral  32    'd0       
  HSIZE       integral  3     'd0       
  HWRITE      integral  1     'd0       
  HREADY_OUT  integral  1     'd0       
----------------------------------------

UVM_INFO ../master_agent/master_monitor.sv(99) @ 95: uvm_test_top.env_h.m_agt[0].m_mon [master monitor] Printing from master monitor 
 ---------------------------------------
Name          Type      Size  Value    
---------------------------------------
txn           trans     -     @682     
  HRESETn     integral  1     'd0      
  HBURST      integral  3     'd0      
  HRESP       integral  1     'd0      
  HADDR       integral  32    'hcfc3b30
  HTRANS      integral  2     'd0      
  HWDATA      integral  32    'h0      
  HLEN        integral  8     'd0      
  HRDATA      integral  32    'd0      
  HSIZE       integral  3     'd2      
  HWRITE      integral  1     1        
  HREADY_OUT  integral  1     'd0      
---------------------------------------

                  95master monitor write operation mem[217856816]=8ee1160c
                  95slave monitor write operation mem[217856816]= 8ee1160c
UVM_INFO ../slave_agent/slave_monitor.sv(92) @ 95: uvm_test_top.env_h.s_agt[0].s_mon [slave monitor] Printing from slave monitor 
 ---------------------------------------
Name          Type      Size  Value    
---------------------------------------
txn           trans     -     @1012    
  HRESETn     integral  1     'd0      
  HBURST      integral  3     'd0      
  HRESP       integral  1     'd0      
  HADDR       integral  32    'hcfc3b30
  HTRANS      integral  2     'd0      
  HWDATA      integral  32    'h0      
  HLEN        integral  8     'd0      
  HRDATA      integral  32    'd0      
  HSIZE       integral  3     'd2      
  HWRITE      integral  1     1        
  HREADY_OUT  integral  1     'd0      
---------------------------------------

UVM_INFO ../tb/scoreboard.sv(121) @ 95: uvm_test_top.env_h.sbh [SB] Address compared successfully
** Warning: (vsim-3829) Non-existent associative array entry. Returning default value.
   Time: 95 ns  Iteration: 3  Process: /avip_pkg::scoreboard::run_phase/#FORK#90_7fefec1f53a File: ../tb/scoreboard.sv Line: 138
** Warning: (vsim-3829) Non-existent associative array entry. Returning default value.
   Time: 95 ns  Iteration: 3  Process: /avip_pkg::scoreboard::run_phase/#FORK#90_7fefec1f53a File: ../tb/scoreboard.sv Line: 138
UVM_INFO ../tb/scoreboard.sv(140) @ 95: uvm_test_top.env_h.sbh [SB] read data matched successfully
UVM_INFO ../master_agent/master_driver.sv(51) @ 105: uvm_test_top.env_h.m_agt[0].m_drv [MASTER DRV] THIS IS AHB DRIVER 
 ----------------------------------------
Name          Type      Size  Value     
----------------------------------------
req           trans     -     @1016     
  HRESETn     integral  1     'd0       
  HBURST      integral  3     'd3       
  HRESP       integral  1     'd0       
  HADDR       integral  32    'he6cf4b24
  HTRANS      integral  2     3         
  HWDATA      integral  32    'h244ff5c1
  HLEN        integral  8     'd4       
  HRDATA      integral  32    'd0       
  HSIZE       integral  3     'd0       
  HWRITE      integral  1     'd0       
  HREADY_OUT  integral  1     'd0       
----------------------------------------

** Warning: (vsim-3829) Non-existent associative array entry. Returning default value.
   Time: 105 ns  Iteration: 2  Process: /uvm_pkg::uvm_task_phase::execute/#FORK#137(#ublk#215181159#137)_7fefec436f2 File: ../master_agent/master_monitor.sv Line: 95
                 105master monitor read operation mem[3872344867]=0
UVM_INFO ../master_agent/master_monitor.sv(99) @ 105: uvm_test_top.env_h.m_agt[0].m_mon [master monitor] Printing from master monitor 
 ----------------------------------------
Name          Type      Size  Value     
----------------------------------------
txn           trans     -     @682      
  HRESETn     integral  1     'd0       
  HBURST      integral  3     'd3       
  HRESP       integral  1     'd0       
  HADDR       integral  32    'he6cf4b23
  HTRANS      integral  2     2         
  HWDATA      integral  32    'h0       
  HLEN        integral  8     'd0       
  HRDATA      integral  32    'd0       
  HSIZE       integral  3     'd0       
  HWRITE      integral  1     'd0       
  HREADY_OUT  integral  1     'd0       
----------------------------------------

** Warning: (vsim-3829) Non-existent associative array entry. Returning default value.
   Time: 105 ns  Iteration: 2  Process: /uvm_pkg::uvm_task_phase::execute/#FORK#137(#ublk#215181159#137)_7fefec436f2 File: ../master_agent/master_monitor.sv Line: 103
master monitor read operation mem[3872344867]=00000000
** Warning: (vsim-3829) Non-existent associative array entry. Returning default value.
   Time: 105 ns  Iteration: 2  Process: /uvm_pkg::uvm_task_phase::execute/#FORK#137(#ublk#215181159#137)_7fefec1f7ed File: ../slave_agent/slave_monitor.sv Line: 91
                 105slave monitor read operation mem[3872344867]= 00000000
UVM_INFO ../slave_agent/slave_monitor.sv(92) @ 105: uvm_test_top.env_h.s_agt[0].s_mon [slave monitor] Printing from slave monitor 
 ----------------------------------------
Name          Type      Size  Value     
----------------------------------------
txn           trans     -     @1020     
  HRESETn     integral  1     'd0       
  HBURST      integral  3     'd0       
  HRESP       integral  1     'd0       
  HADDR       integral  32    'he6cf4b23
  HTRANS      integral  2     'd0       
  HWDATA      integral  32    'h0       
  HLEN        integral  8     'd0       
  HRDATA      integral  32    'd0       
  HSIZE       integral  3     'd0       
  HWRITE      integral  1     'd0       
  HREADY_OUT  integral  1     'd0       
----------------------------------------

UVM_INFO ../tb/scoreboard.sv(121) @ 105: uvm_test_top.env_h.sbh [SB] Address compared successfully
** Warning: (vsim-3829) Non-existent associative array entry. Returning default value.
   Time: 105 ns  Iteration: 3  Process: /avip_pkg::scoreboard::run_phase/#FORK#90_7fefec1f53a File: ../tb/scoreboard.sv Line: 138
** Warning: (vsim-3829) Non-existent associative array entry. Returning default value.
   Time: 105 ns  Iteration: 3  Process: /avip_pkg::scoreboard::run_phase/#FORK#90_7fefec1f53a File: ../tb/scoreboard.sv Line: 138
UVM_INFO ../tb/scoreboard.sv(140) @ 105: uvm_test_top.env_h.sbh [SB] read data matched successfully
UVM_INFO ../master_agent/master_driver.sv(51) @ 115: uvm_test_top.env_h.m_agt[0].m_drv [MASTER DRV] THIS IS AHB DRIVER 
 ----------------------------------------
Name          Type      Size  Value     
----------------------------------------
req           trans     -     @1016     
  HRESETn     integral  1     'd0       
  HBURST      integral  3     'd3       
  HRESP       integral  1     'd0       
  HADDR       integral  32    'he6cf4b25
  HTRANS      integral  2     3         
  HWDATA      integral  32    'h384d2e74
  HLEN        integral  8     'd4       
  HRDATA      integral  32    'd0       
  HSIZE       integral  3     'd0       
  HWRITE      integral  1     'd0       
  HREADY_OUT  integral  1     'd0       
----------------------------------------

** Warning: (vsim-3829) Non-existent associative array entry. Returning default value.
   Time: 115 ns  Iteration: 2  Process: /uvm_pkg::uvm_task_phase::execute/#FORK#137(#ublk#215181159#137)_7fefec436f2 File: ../master_agent/master_monitor.sv Line: 95
                 115master monitor read operation mem[3872344868]=0
UVM_INFO ../master_agent/master_monitor.sv(99) @ 115: uvm_test_top.env_h.m_agt[0].m_mon [master monitor] Printing from master monitor 
 ----------------------------------------
Name          Type      Size  Value     
----------------------------------------
txn           trans     -     @682      
  HRESETn     integral  1     'd0       
  HBURST      integral  3     'd3       
  HRESP       integral  1     'd0       
  HADDR       integral  32    'he6cf4b24
  HTRANS      integral  2     3         
  HWDATA      integral  32    'h0       
  HLEN        integral  8     'd0       
  HRDATA      integral  32    'd0       
  HSIZE       integral  3     'd0       
  HWRITE      integral  1     'd0       
  HREADY_OUT  integral  1     'd0       
----------------------------------------

** Warning: (vsim-3829) Non-existent associative array entry. Returning default value.
   Time: 115 ns  Iteration: 2  Process: /uvm_pkg::uvm_task_phase::execute/#FORK#137(#ublk#215181159#137)_7fefec436f2 File: ../master_agent/master_monitor.sv Line: 103
master monitor read operation mem[3872344868]=00000000
** Warning: (vsim-3829) Non-existent associative array entry. Returning default value.
   Time: 115 ns  Iteration: 2  Process: /uvm_pkg::uvm_task_phase::execute/#FORK#137(#ublk#215181159#137)_7fefec1f7ed File: ../slave_agent/slave_monitor.sv Line: 91
                 115slave monitor read operation mem[3872344868]= 00000000
UVM_INFO ../slave_agent/slave_monitor.sv(92) @ 115: uvm_test_top.env_h.s_agt[0].s_mon [slave monitor] Printing from slave monitor 
 ----------------------------------------
Name          Type      Size  Value     
----------------------------------------
txn           trans     -     @1024     
  HRESETn     integral  1     'd0       
  HBURST      integral  3     'd0       
  HRESP       integral  1     'd0       
  HADDR       integral  32    'he6cf4b24
  HTRANS      integral  2     'd0       
  HWDATA      integral  32    'h0       
  HLEN        integral  8     'd0       
  HRDATA      integral  32    'd0       
  HSIZE       integral  3     'd0       
  HWRITE      integral  1     'd0       
  HREADY_OUT  integral  1     'd0       
----------------------------------------

UVM_INFO ../tb/scoreboard.sv(121) @ 115: uvm_test_top.env_h.sbh [SB] Address compared successfully
** Warning: (vsim-3829) Non-existent associative array entry. Returning default value.
   Time: 115 ns  Iteration: 3  Process: /avip_pkg::scoreboard::run_phase/#FORK#90_7fefec1f53a File: ../tb/scoreboard.sv Line: 138
** Warning: (vsim-3829) Non-existent associative array entry. Returning default value.
   Time: 115 ns  Iteration: 3  Process: /avip_pkg::scoreboard::run_phase/#FORK#90_7fefec1f53a File: ../tb/scoreboard.sv Line: 138
UVM_INFO ../tb/scoreboard.sv(140) @ 115: uvm_test_top.env_h.sbh [SB] read data matched successfully
UVM_INFO ../master_agent/master_driver.sv(51) @ 125: uvm_test_top.env_h.m_agt[0].m_drv [MASTER DRV] THIS IS AHB DRIVER 
 ----------------------------------------
Name          Type      Size  Value     
----------------------------------------
req           trans     -     @1016     
  HRESETn     integral  1     'd0       
  HBURST      integral  3     'd3       
  HRESP       integral  1     'd0       
  HADDR       integral  32    'he6cf4b26
  HTRANS      integral  2     3         
  HWDATA      integral  32    'hb7385fab
  HLEN        integral  8     'd4       
  HRDATA      integral  32    'd0       
  HSIZE       integral  3     'd0       
  HWRITE      integral  1     'd0       
  HREADY_OUT  integral  1     'd0       
----------------------------------------

** Warning: (vsim-3829) Non-existent associative array entry. Returning default value.
   Time: 125 ns  Iteration: 2  Process: /uvm_pkg::uvm_task_phase::execute/#FORK#137(#ublk#215181159#137)_7fefec436f2 File: ../master_agent/master_monitor.sv Line: 95
                 125master monitor read operation mem[3872344869]=0
UVM_INFO ../master_agent/master_monitor.sv(99) @ 125: uvm_test_top.env_h.m_agt[0].m_mon [master monitor] Printing from master monitor 
 ----------------------------------------
Name          Type      Size  Value     
----------------------------------------
txn           trans     -     @682      
  HRESETn     integral  1     'd0       
  HBURST      integral  3     'd3       
  HRESP       integral  1     'd0       
  HADDR       integral  32    'he6cf4b25
  HTRANS      integral  2     3         
  HWDATA      integral  32    'h0       
  HLEN        integral  8     'd0       
  HRDATA      integral  32    'd0       
  HSIZE       integral  3     'd0       
  HWRITE      integral  1     'd0       
  HREADY_OUT  integral  1     'd0       
----------------------------------------

** Warning: (vsim-3829) Non-existent associative array entry. Returning default value.
   Time: 125 ns  Iteration: 2  Process: /uvm_pkg::uvm_task_phase::execute/#FORK#137(#ublk#215181159#137)_7fefec436f2 File: ../master_agent/master_monitor.sv Line: 103
master monitor read operation mem[3872344869]=00000000
** Warning: (vsim-3829) Non-existent associative array entry. Returning default value.
   Time: 125 ns  Iteration: 2  Process: /uvm_pkg::uvm_task_phase::execute/#FORK#137(#ublk#215181159#137)_7fefec1f7ed File: ../slave_agent/slave_monitor.sv Line: 91
                 125slave monitor read operation mem[3872344869]= 00000000
UVM_INFO ../slave_agent/slave_monitor.sv(92) @ 125: uvm_test_top.env_h.s_agt[0].s_mon [slave monitor] Printing from slave monitor 
 ----------------------------------------
Name          Type      Size  Value     
----------------------------------------
txn           trans     -     @1028     
  HRESETn     integral  1     'd0       
  HBURST      integral  3     'd0       
  HRESP       integral  1     'd0       
  HADDR       integral  32    'he6cf4b25
  HTRANS      integral  2     'd0       
  HWDATA      integral  32    'h0       
  HLEN        integral  8     'd0       
  HRDATA      integral  32    'd0       
  HSIZE       integral  3     'd0       
  HWRITE      integral  1     'd0       
  HREADY_OUT  integral  1     'd0       
----------------------------------------

UVM_INFO ../tb/scoreboard.sv(121) @ 125: uvm_test_top.env_h.sbh [SB] Address compared successfully
** Warning: (vsim-3829) Non-existent associative array entry. Returning default value.
   Time: 125 ns  Iteration: 3  Process: /avip_pkg::scoreboard::run_phase/#FORK#90_7fefec1f53a File: ../tb/scoreboard.sv Line: 138
** Warning: (vsim-3829) Non-existent associative array entry. Returning default value.
   Time: 125 ns  Iteration: 3  Process: /avip_pkg::scoreboard::run_phase/#FORK#90_7fefec1f53a File: ../tb/scoreboard.sv Line: 138
UVM_INFO ../tb/scoreboard.sv(140) @ 125: uvm_test_top.env_h.sbh [SB] read data matched successfully
UVM_INFO ../master_agent/master_driver.sv(51) @ 135: uvm_test_top.env_h.m_agt[0].m_drv [MASTER DRV] THIS IS AHB DRIVER 
 ----------------------------------------
Name          Type      Size  Value     
----------------------------------------
req           trans     -     @1036     
  HRESETn     integral  1     'd0       
  HBURST      integral  3     7         
  HRESP       integral  1     'd0       
  HADDR       integral  32    'h2a55a5ce
  HTRANS      integral  2     2         
  HWDATA      integral  32    'h41e0c8a6
  HLEN        integral  8     'd16      
  HRDATA      integral  32    'd0       
  HSIZE       integral  3     'd0       
  HWRITE      integral  1     1         
  HREADY_OUT  integral  1     'd0       
----------------------------------------

** Warning: (vsim-3829) Non-existent associative array entry. Returning default value.
   Time: 135 ns  Iteration: 2  Process: /uvm_pkg::uvm_task_phase::execute/#FORK#137(#ublk#215181159#137)_7fefec436f2 File: ../master_agent/master_monitor.sv Line: 95
                 135master monitor read operation mem[3872344870]=0
UVM_INFO ../master_agent/master_monitor.sv(99) @ 135: uvm_test_top.env_h.m_agt[0].m_mon [master monitor] Printing from master monitor 
 ----------------------------------------
Name          Type      Size  Value     
----------------------------------------
txn           trans     -     @682      
  HRESETn     integral  1     'd0       
  HBURST      integral  3     'd3       
  HRESP       integral  1     'd0       
  HADDR       integral  32    'he6cf4b26
  HTRANS      integral  2     3         
  HWDATA      integral  32    'h0       
  HLEN        integral  8     'd0       
  HRDATA      integral  32    'd0       
  HSIZE       integral  3     'd0       
  HWRITE      integral  1     'd0       
  HREADY_OUT  integral  1     'd0       
----------------------------------------

** Warning: (vsim-3829) Non-existent associative array entry. Returning default value.
   Time: 135 ns  Iteration: 2  Process: /uvm_pkg::uvm_task_phase::execute/#FORK#137(#ublk#215181159#137)_7fefec436f2 File: ../master_agent/master_monitor.sv Line: 103
master monitor read operation mem[3872344870]=00000000
** Warning: (vsim-3829) Non-existent associative array entry. Returning default value.
   Time: 135 ns  Iteration: 2  Process: /uvm_pkg::uvm_task_phase::execute/#FORK#137(#ublk#215181159#137)_7fefec1f7ed File: ../slave_agent/slave_monitor.sv Line: 91
                 135slave monitor read operation mem[3872344870]= 00000000
UVM_INFO ../slave_agent/slave_monitor.sv(92) @ 135: uvm_test_top.env_h.s_agt[0].s_mon [slave monitor] Printing from slave monitor 
 ----------------------------------------
Name          Type      Size  Value     
----------------------------------------
txn           trans     -     @1032     
  HRESETn     integral  1     'd0       
  HBURST      integral  3     'd0       
  HRESP       integral  1     'd0       
  HADDR       integral  32    'he6cf4b26
  HTRANS      integral  2     'd0       
  HWDATA      integral  32    'h0       
  HLEN        integral  8     'd0       
  HRDATA      integral  32    'd0       
  HSIZE       integral  3     'd0       
  HWRITE      integral  1     'd0       
  HREADY_OUT  integral  1     'd0       
----------------------------------------

UVM_INFO ../tb/scoreboard.sv(121) @ 135: uvm_test_top.env_h.sbh [SB] Address compared successfully
** Warning: (vsim-3829) Non-existent associative array entry. Returning default value.
   Time: 135 ns  Iteration: 3  Process: /avip_pkg::scoreboard::run_phase/#FORK#90_7fefec1f53a File: ../tb/scoreboard.sv Line: 125
** Warning: (vsim-3829) Non-existent associative array entry. Returning default value.
   Time: 135 ns  Iteration: 3  Process: /avip_pkg::scoreboard::run_phase/#FORK#90_7fefec1f53a File: ../tb/scoreboard.sv Line: 125
UVM_INFO ../tb/scoreboard.sv(127) @ 135: uvm_test_top.env_h.sbh [SB] write data matched successfully
UVM_INFO ../master_agent/master_driver.sv(51) @ 145: uvm_test_top.env_h.m_agt[0].m_drv [MASTER DRV] THIS IS AHB DRIVER 
 ----------------------------------------
Name          Type      Size  Value     
----------------------------------------
req           trans     -     @1036     
  HRESETn     integral  1     'd0       
  HBURST      integral  3     7         
  HRESP       integral  1     'd0       
  HADDR       integral  32    'h2a55a5cf
  HTRANS      integral  2     3         
  HWDATA      integral  32    'hbcf46e72
  HLEN        integral  8     'd16      
  HRDATA      integral  32    'd0       
  HSIZE       integral  3     'd0       
  HWRITE      integral  1     1         
  HREADY_OUT  integral  1     'd0       
----------------------------------------

UVM_INFO ../master_agent/master_monitor.sv(99) @ 145: uvm_test_top.env_h.m_agt[0].m_mon [master monitor] Printing from master monitor 
 ----------------------------------------
Name          Type      Size  Value     
----------------------------------------
txn           trans     -     @682      
  HRESETn     integral  1     'd0       
  HBURST      integral  3     7         
  HRESP       integral  1     'd0       
  HADDR       integral  32    'h2a55a5ce
  HTRANS      integral  2     2         
  HWDATA      integral  32    'h0       
  HLEN        integral  8     'd0       
  HRDATA      integral  32    'd0       
  HSIZE       integral  3     'd0       
  HWRITE      integral  1     1         
  HREADY_OUT  integral  1     'd0       
----------------------------------------

                 145master monitor write operation mem[710256078]=000000e0
                 145slave monitor write operation mem[710256078]= 000000e0
UVM_INFO ../slave_agent/slave_monitor.sv(92) @ 145: uvm_test_top.env_h.s_agt[0].s_mon [slave monitor] Printing from slave monitor 
 ----------------------------------------
Name          Type      Size  Value     
----------------------------------------
txn           trans     -     @1040     
  HRESETn     integral  1     'd0       
  HBURST      integral  3     'd0       
  HRESP       integral  1     'd0       
  HADDR       integral  32    'h2a55a5ce
  HTRANS      integral  2     'd0       
  HWDATA      integral  32    'h0       
  HLEN        integral  8     'd0       
  HRDATA      integral  32    'd0       
  HSIZE       integral  3     'd0       
  HWRITE      integral  1     1         
  HREADY_OUT  integral  1     'd0       
----------------------------------------

UVM_INFO ../tb/scoreboard.sv(121) @ 145: uvm_test_top.env_h.sbh [SB] Address compared successfully
** Warning: (vsim-3829) Non-existent associative array entry. Returning default value.
   Time: 145 ns  Iteration: 3  Process: /avip_pkg::scoreboard::run_phase/#FORK#90_7fefec1f53a File: ../tb/scoreboard.sv Line: 125
** Warning: (vsim-3829) Non-existent associative array entry. Returning default value.
   Time: 145 ns  Iteration: 3  Process: /avip_pkg::scoreboard::run_phase/#FORK#90_7fefec1f53a File: ../tb/scoreboard.sv Line: 125
UVM_INFO ../tb/scoreboard.sv(127) @ 145: uvm_test_top.env_h.sbh [SB] write data matched successfully
aaaaaaaaaaaaaaaaaaaaaaaaaaaaaaaaaaa = 3
UVM_INFO ../master_agent/master_driver.sv(51) @ 215: uvm_test_top.env_h.m_agt[0].m_drv [MASTER DRV] THIS IS AHB DRIVER 
 ----------------------------------------
Name          Type      Size  Value     
----------------------------------------
req           trans     -     @1036     
  HRESETn     integral  1     'd0       
  HBURST      integral  3     7         
  HRESP       integral  1     'd0       
  HADDR       integral  32    'h2a55a5d0
  HTRANS      integral  2     3         
  HWDATA      integral  32    'h2de33c5b
  HLEN        integral  8     'd16      
  HRDATA      integral  32    'd0       
  HSIZE       integral  3     'd0       
  HWRITE      integral  1     1         
  HREADY_OUT  integral  1     'd0       
----------------------------------------

UVM_INFO ../master_agent/master_monitor.sv(99) @ 215: uvm_test_top.env_h.m_agt[0].m_mon [master monitor] Printing from master monitor 
 ----------------------------------------
Name          Type      Size  Value     
----------------------------------------
txn           trans     -     @682      
  HRESETn     integral  1     'd0       
  HBURST      integral  3     7         
  HRESP       integral  1     'd0       
  HADDR       integral  32    'h2a55a5cf
  HTRANS      integral  2     3         
  HWDATA      integral  32    'h0       
  HLEN        integral  8     'd0       
  HRDATA      integral  32    'd0       
  HSIZE       integral  3     'd0       
  HWRITE      integral  1     1         
  HREADY_OUT  integral  1     'd0       
----------------------------------------

                 215master monitor write operation mem[710256079]=000000bc
                 215slave monitor write operation mem[710256079]= 000000bc
UVM_INFO ../slave_agent/slave_monitor.sv(92) @ 215: uvm_test_top.env_h.s_agt[0].s_mon [slave monitor] Printing from slave monitor 
 ----------------------------------------
Name          Type      Size  Value     
----------------------------------------
txn           trans     -     @1044     
  HRESETn     integral  1     'd0       
  HBURST      integral  3     'd0       
  HRESP       integral  1     'd0       
  HADDR       integral  32    'h2a55a5cf
  HTRANS      integral  2     'd0       
  HWDATA      integral  32    'h0       
  HLEN        integral  8     'd0       
  HRDATA      integral  32    'd0       
  HSIZE       integral  3     'd0       
  HWRITE      integral  1     1         
  HREADY_OUT  integral  1     'd0       
----------------------------------------

UVM_INFO ../tb/scoreboard.sv(121) @ 215: uvm_test_top.env_h.sbh [SB] Address compared successfully
** Warning: (vsim-3829) Non-existent associative array entry. Returning default value.
   Time: 215 ns  Iteration: 3  Process: /avip_pkg::scoreboard::run_phase/#FORK#90_7fefec1f53a File: ../tb/scoreboard.sv Line: 125
** Warning: (vsim-3829) Non-existent associative array entry. Returning default value.
   Time: 215 ns  Iteration: 3  Process: /avip_pkg::scoreboard::run_phase/#FORK#90_7fefec1f53a File: ../tb/scoreboard.sv Line: 125
UVM_INFO ../tb/scoreboard.sv(127) @ 215: uvm_test_top.env_h.sbh [SB] write data matched successfully
UVM_INFO ../master_agent/master_driver.sv(51) @ 225: uvm_test_top.env_h.m_agt[0].m_drv [MASTER DRV] THIS IS AHB DRIVER 
 ----------------------------------------
Name          Type      Size  Value     
----------------------------------------
req           trans     -     @1036     
  HRESETn     integral  1     'd0       
  HBURST      integral  3     7         
  HRESP       integral  1     'd0       
  HADDR       integral  32    'h2a55a5d1
  HTRANS      integral  2     3         
  HWDATA      integral  32    'h7b64c225
  HLEN        integral  8     'd16      
  HRDATA      integral  32    'd0       
  HSIZE       integral  3     'd0       
  HWRITE      integral  1     1         
  HREADY_OUT  integral  1     'd0       
----------------------------------------

UVM_INFO ../master_agent/master_monitor.sv(99) @ 225: uvm_test_top.env_h.m_agt[0].m_mon [master monitor] Printing from master monitor 
 ----------------------------------------
Name          Type      Size  Value     
----------------------------------------
txn           trans     -     @682      
  HRESETn     integral  1     'd0       
  HBURST      integral  3     7         
  HRESP       integral  1     'd0       
  HADDR       integral  32    'h2a55a5d0
  HTRANS      integral  2     3         
  HWDATA      integral  32    'h0       
  HLEN        integral  8     'd0       
  HRDATA      integral  32    'd0       
  HSIZE       integral  3     'd0       
  HWRITE      integral  1     1         
  HREADY_OUT  integral  1     'd0       
----------------------------------------

                 225master monitor write operation mem[710256080]=0000005b
                 225slave monitor write operation mem[710256080]= 0000005b
UVM_INFO ../slave_agent/slave_monitor.sv(92) @ 225: uvm_test_top.env_h.s_agt[0].s_mon [slave monitor] Printing from slave monitor 
 ----------------------------------------
Name          Type      Size  Value     
----------------------------------------
txn           trans     -     @1048     
  HRESETn     integral  1     'd0       
  HBURST      integral  3     'd0       
  HRESP       integral  1     'd0       
  HADDR       integral  32    'h2a55a5d0
  HTRANS      integral  2     'd0       
  HWDATA      integral  32    'h0       
  HLEN        integral  8     'd0       
  HRDATA      integral  32    'd0       
  HSIZE       integral  3     'd0       
  HWRITE      integral  1     1         
  HREADY_OUT  integral  1     'd0       
----------------------------------------

UVM_INFO ../tb/scoreboard.sv(121) @ 225: uvm_test_top.env_h.sbh [SB] Address compared successfully
** Warning: (vsim-3829) Non-existent associative array entry. Returning default value.
   Time: 225 ns  Iteration: 3  Process: /avip_pkg::scoreboard::run_phase/#FORK#90_7fefec1f53a File: ../tb/scoreboard.sv Line: 125
** Warning: (vsim-3829) Non-existent associative array entry. Returning default value.
   Time: 225 ns  Iteration: 3  Process: /avip_pkg::scoreboard::run_phase/#FORK#90_7fefec1f53a File: ../tb/scoreboard.sv Line: 125
UVM_INFO ../tb/scoreboard.sv(127) @ 225: uvm_test_top.env_h.sbh [SB] write data matched successfully
UVM_INFO ../master_agent/master_driver.sv(51) @ 235: uvm_test_top.env_h.m_agt[0].m_drv [MASTER DRV] THIS IS AHB DRIVER 
 ----------------------------------------
Name          Type      Size  Value     
----------------------------------------
req           trans     -     @1036     
  HRESETn     integral  1     'd0       
  HBURST      integral  3     7         
  HRESP       integral  1     'd0       
  HADDR       integral  32    'h2a55a5d2
  HTRANS      integral  2     3         
  HWDATA      integral  32    'hd2099dcb
  HLEN        integral  8     'd16      
  HRDATA      integral  32    'd0       
  HSIZE       integral  3     'd0       
  HWRITE      integral  1     1         
  HREADY_OUT  integral  1     'd0       
----------------------------------------

UVM_INFO ../master_agent/master_monitor.sv(99) @ 235: uvm_test_top.env_h.m_agt[0].m_mon [master monitor] Printing from master monitor 
 ----------------------------------------
Name          Type      Size  Value     
----------------------------------------
txn           trans     -     @682      
  HRESETn     integral  1     'd0       
  HBURST      integral  3     7         
  HRESP       integral  1     3         
  HADDR       integral  32    'h2a55a5d1
  HTRANS      integral  2     3         
  HWDATA      integral  32    'h0       
  HLEN        integral  8     'd0       
  HRDATA      integral  32    'd0       
  HSIZE       integral  3     'd0       
  HWRITE      integral  1     1         
  HREADY_OUT  integral  1     'd0       
----------------------------------------

                 235master monitor write operation mem[710256081]=000000c2
                 235slave monitor write operation mem[710256081]= 000000c2
UVM_INFO ../slave_agent/slave_monitor.sv(92) @ 235: uvm_test_top.env_h.s_agt[0].s_mon [slave monitor] Printing from slave monitor 
 ----------------------------------------
Name          Type      Size  Value     
----------------------------------------
txn           trans     -     @1052     
  HRESETn     integral  1     'd0       
  HBURST      integral  3     'd0       
  HRESP       integral  1     'd0       
  HADDR       integral  32    'h2a55a5d1
  HTRANS      integral  2     'd0       
  HWDATA      integral  32    'h0       
  HLEN        integral  8     'd0       
  HRDATA      integral  32    'd0       
  HSIZE       integral  3     'd0       
  HWRITE      integral  1     1         
  HREADY_OUT  integral  1     'd0       
----------------------------------------

UVM_INFO ../tb/scoreboard.sv(121) @ 235: uvm_test_top.env_h.sbh [SB] Address compared successfully
** Warning: (vsim-3829) Non-existent associative array entry. Returning default value.
   Time: 235 ns  Iteration: 3  Process: /avip_pkg::scoreboard::run_phase/#FORK#90_7fefec1f53a File: ../tb/scoreboard.sv Line: 125
** Warning: (vsim-3829) Non-existent associative array entry. Returning default value.
   Time: 235 ns  Iteration: 3  Process: /avip_pkg::scoreboard::run_phase/#FORK#90_7fefec1f53a File: ../tb/scoreboard.sv Line: 125
UVM_INFO ../tb/scoreboard.sv(127) @ 235: uvm_test_top.env_h.sbh [SB] write data matched successfully
UVM_INFO ../master_agent/master_driver.sv(51) @ 245: uvm_test_top.env_h.m_agt[0].m_drv [MASTER DRV] THIS IS AHB DRIVER 
 ----------------------------------------
Name          Type      Size  Value     
----------------------------------------
req           trans     -     @1036     
  HRESETn     integral  1     'd0       
  HBURST      integral  3     7         
  HRESP       integral  1     'd0       
  HADDR       integral  32    'h2a55a5d3
  HTRANS      integral  2     3         
  HWDATA      integral  32    'h433d34d 
  HLEN        integral  8     'd16      
  HRDATA      integral  32    'd0       
  HSIZE       integral  3     'd0       
  HWRITE      integral  1     1         
  HREADY_OUT  integral  1     'd0       
----------------------------------------

UVM_INFO ../master_agent/master_monitor.sv(99) @ 245: uvm_test_top.env_h.m_agt[0].m_mon [master monitor] Printing from master monitor 
 ----------------------------------------
Name          Type      Size  Value     
----------------------------------------
txn           trans     -     @682      
  HRESETn     integral  1     'd0       
  HBURST      integral  3     7         
  HRESP       integral  1     3         
  HADDR       integral  32    'h2a55a5d2
  HTRANS      integral  2     3         
  HWDATA      integral  32    'h0       
  HLEN        integral  8     'd0       
  HRDATA      integral  32    'd0       
  HSIZE       integral  3     'd0       
  HWRITE      integral  1     1         
  HREADY_OUT  integral  1     'd0       
----------------------------------------

                 245master monitor write operation mem[710256082]=00000009
                 245slave monitor write operation mem[710256082]= 00000009
UVM_INFO ../slave_agent/slave_monitor.sv(92) @ 245: uvm_test_top.env_h.s_agt[0].s_mon [slave monitor] Printing from slave monitor 
 ----------------------------------------
Name          Type      Size  Value     
----------------------------------------
txn           trans     -     @1056     
  HRESETn     integral  1     'd0       
  HBURST      integral  3     'd0       
  HRESP       integral  1     'd0       
  HADDR       integral  32    'h2a55a5d2
  HTRANS      integral  2     'd0       
  HWDATA      integral  32    'h0       
  HLEN        integral  8     'd0       
  HRDATA      integral  32    'd0       
  HSIZE       integral  3     'd0       
  HWRITE      integral  1     1         
  HREADY_OUT  integral  1     'd0       
----------------------------------------

UVM_INFO ../tb/scoreboard.sv(121) @ 245: uvm_test_top.env_h.sbh [SB] Address compared successfully
** Warning: (vsim-3829) Non-existent associative array entry. Returning default value.
   Time: 245 ns  Iteration: 3  Process: /avip_pkg::scoreboard::run_phase/#FORK#90_7fefec1f53a File: ../tb/scoreboard.sv Line: 125
** Warning: (vsim-3829) Non-existent associative array entry. Returning default value.
   Time: 245 ns  Iteration: 3  Process: /avip_pkg::scoreboard::run_phase/#FORK#90_7fefec1f53a File: ../tb/scoreboard.sv Line: 125
UVM_INFO ../tb/scoreboard.sv(127) @ 245: uvm_test_top.env_h.sbh [SB] write data matched successfully
UVM_INFO ../master_agent/master_driver.sv(51) @ 255: uvm_test_top.env_h.m_agt[0].m_drv [MASTER DRV] THIS IS AHB DRIVER 
 ----------------------------------------
Name          Type      Size  Value     
----------------------------------------
req           trans     -     @1036     
  HRESETn     integral  1     'd0       
  HBURST      integral  3     7         
  HRESP       integral  1     'd0       
  HADDR       integral  32    'h2a55a5d4
  HTRANS      integral  2     3         
  HWDATA      integral  32    'hff7a98ab
  HLEN        integral  8     'd16      
  HRDATA      integral  32    'd0       
  HSIZE       integral  3     'd0       
  HWRITE      integral  1     1         
  HREADY_OUT  integral  1     'd0       
----------------------------------------

UVM_INFO ../master_agent/master_monitor.sv(99) @ 255: uvm_test_top.env_h.m_agt[0].m_mon [master monitor] Printing from master monitor 
 ----------------------------------------
Name          Type      Size  Value     
----------------------------------------
txn           trans     -     @682      
  HRESETn     integral  1     'd0       
  HBURST      integral  3     7         
  HRESP       integral  1     3         
  HADDR       integral  32    'h2a55a5d3
  HTRANS      integral  2     3         
  HWDATA      integral  32    'h0       
  HLEN        integral  8     'd0       
  HRDATA      integral  32    'd0       
  HSIZE       integral  3     'd0       
  HWRITE      integral  1     1         
  HREADY_OUT  integral  1     'd0       
----------------------------------------

                 255master monitor write operation mem[710256083]=00000004
                 255slave monitor write operation mem[710256083]= 00000004
UVM_INFO ../slave_agent/slave_monitor.sv(92) @ 255: uvm_test_top.env_h.s_agt[0].s_mon [slave monitor] Printing from slave monitor 
 ----------------------------------------
Name          Type      Size  Value     
----------------------------------------
txn           trans     -     @1060     
  HRESETn     integral  1     'd0       
  HBURST      integral  3     'd0       
  HRESP       integral  1     'd0       
  HADDR       integral  32    'h2a55a5d3
  HTRANS      integral  2     'd0       
  HWDATA      integral  32    'h0       
  HLEN        integral  8     'd0       
  HRDATA      integral  32    'd0       
  HSIZE       integral  3     'd0       
  HWRITE      integral  1     1         
  HREADY_OUT  integral  1     'd0       
----------------------------------------

UVM_INFO ../tb/scoreboard.sv(121) @ 255: uvm_test_top.env_h.sbh [SB] Address compared successfully
** Warning: (vsim-3829) Non-existent associative array entry. Returning default value.
   Time: 255 ns  Iteration: 3  Process: /avip_pkg::scoreboard::run_phase/#FORK#90_7fefec1f53a File: ../tb/scoreboard.sv Line: 125
** Warning: (vsim-3829) Non-existent associative array entry. Returning default value.
   Time: 255 ns  Iteration: 3  Process: /avip_pkg::scoreboard::run_phase/#FORK#90_7fefec1f53a File: ../tb/scoreboard.sv Line: 125
UVM_INFO ../tb/scoreboard.sv(127) @ 255: uvm_test_top.env_h.sbh [SB] write data matched successfully
UVM_INFO ../master_agent/master_driver.sv(51) @ 265: uvm_test_top.env_h.m_agt[0].m_drv [MASTER DRV] THIS IS AHB DRIVER 
 ----------------------------------------
Name          Type      Size  Value     
----------------------------------------
req           trans     -     @1036     
  HRESETn     integral  1     'd0       
  HBURST      integral  3     7         
  HRESP       integral  1     'd0       
  HADDR       integral  32    'h2a55a5d5
  HTRANS      integral  2     3         
  HWDATA      integral  32    'h6dcda737
  HLEN        integral  8     'd16      
  HRDATA      integral  32    'd0       
  HSIZE       integral  3     'd0       
  HWRITE      integral  1     1         
  HREADY_OUT  integral  1     'd0       
----------------------------------------

UVM_INFO ../master_agent/master_monitor.sv(99) @ 265: uvm_test_top.env_h.m_agt[0].m_mon [master monitor] Printing from master monitor 
 ----------------------------------------
Name          Type      Size  Value     
----------------------------------------
txn           trans     -     @682      
  HRESETn     integral  1     'd0       
  HBURST      integral  3     7         
  HRESP       integral  1     3         
  HADDR       integral  32    'h2a55a5d4
  HTRANS      integral  2     3         
  HWDATA      integral  32    'h0       
  HLEN        integral  8     'd0       
  HRDATA      integral  32    'd0       
  HSIZE       integral  3     'd0       
  HWRITE      integral  1     1         
  HREADY_OUT  integral  1     'd0       
----------------------------------------

                 265master monitor write operation mem[710256084]=000000ab
                 265slave monitor write operation mem[710256084]= 000000ab
UVM_INFO ../slave_agent/slave_monitor.sv(92) @ 265: uvm_test_top.env_h.s_agt[0].s_mon [slave monitor] Printing from slave monitor 
 ----------------------------------------
Name          Type      Size  Value     
----------------------------------------
txn           trans     -     @1064     
  HRESETn     integral  1     'd0       
  HBURST      integral  3     'd0       
  HRESP       integral  1     'd0       
  HADDR       integral  32    'h2a55a5d4
  HTRANS      integral  2     'd0       
  HWDATA      integral  32    'h0       
  HLEN        integral  8     'd0       
  HRDATA      integral  32    'd0       
  HSIZE       integral  3     'd0       
  HWRITE      integral  1     1         
  HREADY_OUT  integral  1     'd0       
----------------------------------------

UVM_INFO ../tb/scoreboard.sv(121) @ 265: uvm_test_top.env_h.sbh [SB] Address compared successfully
** Warning: (vsim-3829) Non-existent associative array entry. Returning default value.
   Time: 265 ns  Iteration: 3  Process: /avip_pkg::scoreboard::run_phase/#FORK#90_7fefec1f53a File: ../tb/scoreboard.sv Line: 125
** Warning: (vsim-3829) Non-existent associative array entry. Returning default value.
   Time: 265 ns  Iteration: 3  Process: /avip_pkg::scoreboard::run_phase/#FORK#90_7fefec1f53a File: ../tb/scoreboard.sv Line: 125
UVM_INFO ../tb/scoreboard.sv(127) @ 265: uvm_test_top.env_h.sbh [SB] write data matched successfully
UVM_INFO ../master_agent/master_driver.sv(51) @ 275: uvm_test_top.env_h.m_agt[0].m_drv [MASTER DRV] THIS IS AHB DRIVER 
 ----------------------------------------
Name          Type      Size  Value     
----------------------------------------
req           trans     -     @1036     
  HRESETn     integral  1     'd0       
  HBURST      integral  3     7         
  HRESP       integral  1     'd0       
  HADDR       integral  32    'h2a55a5d6
  HTRANS      integral  2     3         
  HWDATA      integral  32    'h81058b78
  HLEN        integral  8     'd16      
  HRDATA      integral  32    'd0       
  HSIZE       integral  3     'd0       
  HWRITE      integral  1     1         
  HREADY_OUT  integral  1     'd0       
----------------------------------------

UVM_INFO ../master_agent/master_monitor.sv(99) @ 275: uvm_test_top.env_h.m_agt[0].m_mon [master monitor] Printing from master monitor 
 ----------------------------------------
Name          Type      Size  Value     
----------------------------------------
txn           trans     -     @682      
  HRESETn     integral  1     'd0       
  HBURST      integral  3     7         
  HRESP       integral  1     3         
  HADDR       integral  32    'h2a55a5d5
  HTRANS      integral  2     3         
  HWDATA      integral  32    'h0       
  HLEN        integral  8     'd0       
  HRDATA      integral  32    'd0       
  HSIZE       integral  3     'd0       
  HWRITE      integral  1     1         
  HREADY_OUT  integral  1     'd0       
----------------------------------------

                 275master monitor write operation mem[710256085]=000000a7
                 275slave monitor write operation mem[710256085]= 000000a7
UVM_INFO ../slave_agent/slave_monitor.sv(92) @ 275: uvm_test_top.env_h.s_agt[0].s_mon [slave monitor] Printing from slave monitor 
 ----------------------------------------
Name          Type      Size  Value     
----------------------------------------
txn           trans     -     @1068     
  HRESETn     integral  1     'd0       
  HBURST      integral  3     'd0       
  HRESP       integral  1     'd0       
  HADDR       integral  32    'h2a55a5d5
  HTRANS      integral  2     'd0       
  HWDATA      integral  32    'h0       
  HLEN        integral  8     'd0       
  HRDATA      integral  32    'd0       
  HSIZE       integral  3     'd0       
  HWRITE      integral  1     1         
  HREADY_OUT  integral  1     'd0       
----------------------------------------

UVM_INFO ../tb/scoreboard.sv(121) @ 275: uvm_test_top.env_h.sbh [SB] Address compared successfully
** Warning: (vsim-3829) Non-existent associative array entry. Returning default value.
   Time: 275 ns  Iteration: 3  Process: /avip_pkg::scoreboard::run_phase/#FORK#90_7fefec1f53a File: ../tb/scoreboard.sv Line: 125
** Warning: (vsim-3829) Non-existent associative array entry. Returning default value.
   Time: 275 ns  Iteration: 3  Process: /avip_pkg::scoreboard::run_phase/#FORK#90_7fefec1f53a File: ../tb/scoreboard.sv Line: 125
UVM_INFO ../tb/scoreboard.sv(127) @ 275: uvm_test_top.env_h.sbh [SB] write data matched successfully
UVM_INFO ../master_agent/master_driver.sv(51) @ 285: uvm_test_top.env_h.m_agt[0].m_drv [MASTER DRV] THIS IS AHB DRIVER 
 ----------------------------------------
Name          Type      Size  Value     
----------------------------------------
req           trans     -     @1036     
  HRESETn     integral  1     'd0       
  HBURST      integral  3     7         
  HRESP       integral  1     'd0       
  HADDR       integral  32    'h2a55a5d7
  HTRANS      integral  2     3         
  HWDATA      integral  32    'h765cf3bf
  HLEN        integral  8     'd16      
  HRDATA      integral  32    'd0       
  HSIZE       integral  3     'd0       
  HWRITE      integral  1     1         
  HREADY_OUT  integral  1     'd0       
----------------------------------------

UVM_INFO ../master_agent/master_monitor.sv(99) @ 285: uvm_test_top.env_h.m_agt[0].m_mon [master monitor] Printing from master monitor 
 ----------------------------------------
Name          Type      Size  Value     
----------------------------------------
txn           trans     -     @682      
  HRESETn     integral  1     'd0       
  HBURST      integral  3     7         
  HRESP       integral  1     3         
  HADDR       integral  32    'h2a55a5d6
  HTRANS      integral  2     3         
  HWDATA      integral  32    'h0       
  HLEN        integral  8     'd0       
  HRDATA      integral  32    'd0       
  HSIZE       integral  3     'd0       
  HWRITE      integral  1     1         
  HREADY_OUT  integral  1     'd0       
----------------------------------------

                 285master monitor write operation mem[710256086]=00000005
                 285slave monitor write operation mem[710256086]= 00000005
UVM_INFO ../slave_agent/slave_monitor.sv(92) @ 285: uvm_test_top.env_h.s_agt[0].s_mon [slave monitor] Printing from slave monitor 
 ----------------------------------------
Name          Type      Size  Value     
----------------------------------------
txn           trans     -     @1072     
  HRESETn     integral  1     'd0       
  HBURST      integral  3     'd0       
  HRESP       integral  1     'd0       
  HADDR       integral  32    'h2a55a5d6
  HTRANS      integral  2     'd0       
  HWDATA      integral  32    'h0       
  HLEN        integral  8     'd0       
  HRDATA      integral  32    'd0       
  HSIZE       integral  3     'd0       
  HWRITE      integral  1     1         
  HREADY_OUT  integral  1     'd0       
----------------------------------------

UVM_INFO ../tb/scoreboard.sv(121) @ 285: uvm_test_top.env_h.sbh [SB] Address compared successfully
** Warning: (vsim-3829) Non-existent associative array entry. Returning default value.
   Time: 285 ns  Iteration: 3  Process: /avip_pkg::scoreboard::run_phase/#FORK#90_7fefec1f53a File: ../tb/scoreboard.sv Line: 125
** Warning: (vsim-3829) Non-existent associative array entry. Returning default value.
   Time: 285 ns  Iteration: 3  Process: /avip_pkg::scoreboard::run_phase/#FORK#90_7fefec1f53a File: ../tb/scoreboard.sv Line: 125
UVM_INFO ../tb/scoreboard.sv(127) @ 285: uvm_test_top.env_h.sbh [SB] write data matched successfully
aaaaaaaaaaaaaaaaaaaaaaaaaaaaaaaaaaa = 0
UVM_INFO ../master_agent/master_driver.sv(51) @ 325: uvm_test_top.env_h.m_agt[0].m_drv [MASTER DRV] THIS IS AHB DRIVER 
 ----------------------------------------
Name          Type      Size  Value     
----------------------------------------
req           trans     -     @1036     
  HRESETn     integral  1     'd0       
  HBURST      integral  3     7         
  HRESP       integral  1     'd0       
  HADDR       integral  32    'h2a55a5d8
  HTRANS      integral  2     3         
  HWDATA      integral  32    'h603b5e40
  HLEN        integral  8     'd16      
  HRDATA      integral  32    'd0       
  HSIZE       integral  3     'd0       
  HWRITE      integral  1     1         
  HREADY_OUT  integral  1     'd0       
----------------------------------------

UVM_INFO ../master_agent/master_monitor.sv(99) @ 325: uvm_test_top.env_h.m_agt[0].m_mon [master monitor] Printing from master monitor 
 ----------------------------------------
Name          Type      Size  Value     
----------------------------------------
txn           trans     -     @682      
  HRESETn     integral  1     'd0       
  HBURST      integral  3     7         
  HRESP       integral  1     3         
  HADDR       integral  32    'h2a55a5d7
  HTRANS      integral  2     3         
  HWDATA      integral  32    'h0       
  HLEN        integral  8     'd0       
  HRDATA      integral  32    'd0       
  HSIZE       integral  3     'd0       
  HWRITE      integral  1     1         
  HREADY_OUT  integral  1     'd0       
----------------------------------------

                 325master monitor write operation mem[710256087]=00000076
                 325slave monitor write operation mem[710256087]= 00000076
UVM_INFO ../slave_agent/slave_monitor.sv(92) @ 325: uvm_test_top.env_h.s_agt[0].s_mon [slave monitor] Printing from slave monitor 
 ----------------------------------------
Name          Type      Size  Value     
----------------------------------------
txn           trans     -     @1076     
  HRESETn     integral  1     'd0       
  HBURST      integral  3     'd0       
  HRESP       integral  1     'd0       
  HADDR       integral  32    'h2a55a5d7
  HTRANS      integral  2     'd0       
  HWDATA      integral  32    'h0       
  HLEN        integral  8     'd0       
  HRDATA      integral  32    'd0       
  HSIZE       integral  3     'd0       
  HWRITE      integral  1     1         
  HREADY_OUT  integral  1     'd0       
----------------------------------------

UVM_INFO ../tb/scoreboard.sv(121) @ 325: uvm_test_top.env_h.sbh [SB] Address compared successfully
** Warning: (vsim-3829) Non-existent associative array entry. Returning default value.
   Time: 325 ns  Iteration: 3  Process: /avip_pkg::scoreboard::run_phase/#FORK#90_7fefec1f53a File: ../tb/scoreboard.sv Line: 125
** Warning: (vsim-3829) Non-existent associative array entry. Returning default value.
   Time: 325 ns  Iteration: 3  Process: /avip_pkg::scoreboard::run_phase/#FORK#90_7fefec1f53a File: ../tb/scoreboard.sv Line: 125
UVM_INFO ../tb/scoreboard.sv(127) @ 325: uvm_test_top.env_h.sbh [SB] write data matched successfully
UVM_INFO ../master_agent/master_driver.sv(51) @ 335: uvm_test_top.env_h.m_agt[0].m_drv [MASTER DRV] THIS IS AHB DRIVER 
 ----------------------------------------
Name          Type      Size  Value     
----------------------------------------
req           trans     -     @1036     
  HRESETn     integral  1     'd0       
  HBURST      integral  3     7         
  HRESP       integral  1     'd0       
  HADDR       integral  32    'h2a55a5d9
  HTRANS      integral  2     3         
  HWDATA      integral  32    'h4e1bfea7
  HLEN        integral  8     'd16      
  HRDATA      integral  32    'd0       
  HSIZE       integral  3     'd0       
  HWRITE      integral  1     1         
  HREADY_OUT  integral  1     'd0       
----------------------------------------

UVM_INFO ../master_agent/master_monitor.sv(99) @ 335: uvm_test_top.env_h.m_agt[0].m_mon [master monitor] Printing from master monitor 
 ----------------------------------------
Name          Type      Size  Value     
----------------------------------------
txn           trans     -     @682      
  HRESETn     integral  1     'd0       
  HBURST      integral  3     7         
  HRESP       integral  1     'd0       
  HADDR       integral  32    'h2a55a5d8
  HTRANS      integral  2     3         
  HWDATA      integral  32    'h0       
  HLEN        integral  8     'd0       
  HRDATA      integral  32    'd0       
  HSIZE       integral  3     'd0       
  HWRITE      integral  1     1         
  HREADY_OUT  integral  1     'd0       
----------------------------------------

                 335master monitor write operation mem[710256088]=00000040
                 335slave monitor write operation mem[710256088]= 00000040
UVM_INFO ../slave_agent/slave_monitor.sv(92) @ 335: uvm_test_top.env_h.s_agt[0].s_mon [slave monitor] Printing from slave monitor 
 ----------------------------------------
Name          Type      Size  Value     
----------------------------------------
txn           trans     -     @1080     
  HRESETn     integral  1     'd0       
  HBURST      integral  3     'd0       
  HRESP       integral  1     'd0       
  HADDR       integral  32    'h2a55a5d8
  HTRANS      integral  2     'd0       
  HWDATA      integral  32    'h0       
  HLEN        integral  8     'd0       
  HRDATA      integral  32    'd0       
  HSIZE       integral  3     'd0       
  HWRITE      integral  1     1         
  HREADY_OUT  integral  1     'd0       
----------------------------------------

UVM_INFO ../tb/scoreboard.sv(121) @ 335: uvm_test_top.env_h.sbh [SB] Address compared successfully
** Warning: (vsim-3829) Non-existent associative array entry. Returning default value.
   Time: 335 ns  Iteration: 3  Process: /avip_pkg::scoreboard::run_phase/#FORK#90_7fefec1f53a File: ../tb/scoreboard.sv Line: 125
** Warning: (vsim-3829) Non-existent associative array entry. Returning default value.
   Time: 335 ns  Iteration: 3  Process: /avip_pkg::scoreboard::run_phase/#FORK#90_7fefec1f53a File: ../tb/scoreboard.sv Line: 125
UVM_INFO ../tb/scoreboard.sv(127) @ 335: uvm_test_top.env_h.sbh [SB] write data matched successfully
UVM_INFO ../master_agent/master_driver.sv(51) @ 345: uvm_test_top.env_h.m_agt[0].m_drv [MASTER DRV] THIS IS AHB DRIVER 
 ----------------------------------------
Name          Type      Size  Value     
----------------------------------------
req           trans     -     @1036     
  HRESETn     integral  1     'd0       
  HBURST      integral  3     7         
  HRESP       integral  1     'd0       
  HADDR       integral  32    'h2a55a5da
  HTRANS      integral  2     3         
  HWDATA      integral  32    'hb8a14481
  HLEN        integral  8     'd16      
  HRDATA      integral  32    'd0       
  HSIZE       integral  3     'd0       
  HWRITE      integral  1     1         
  HREADY_OUT  integral  1     'd0       
----------------------------------------

UVM_INFO ../master_agent/master_monitor.sv(99) @ 345: uvm_test_top.env_h.m_agt[0].m_mon [master monitor] Printing from master monitor 
 ----------------------------------------
Name          Type      Size  Value     
----------------------------------------
txn           trans     -     @682      
  HRESETn     integral  1     'd0       
  HBURST      integral  3     7         
  HRESP       integral  1     'd0       
  HADDR       integral  32    'h2a55a5d9
  HTRANS      integral  2     3         
  HWDATA      integral  32    'h0       
  HLEN        integral  8     'd0       
  HRDATA      integral  32    'd0       
  HSIZE       integral  3     'd0       
  HWRITE      integral  1     1         
  HREADY_OUT  integral  1     'd0       
----------------------------------------

                 345master monitor write operation mem[710256089]=000000fe
                 345slave monitor write operation mem[710256089]= 000000fe
UVM_INFO ../slave_agent/slave_monitor.sv(92) @ 345: uvm_test_top.env_h.s_agt[0].s_mon [slave monitor] Printing from slave monitor 
 ----------------------------------------
Name          Type      Size  Value     
----------------------------------------
txn           trans     -     @1084     
  HRESETn     integral  1     'd0       
  HBURST      integral  3     'd0       
  HRESP       integral  1     'd0       
  HADDR       integral  32    'h2a55a5d9
  HTRANS      integral  2     'd0       
  HWDATA      integral  32    'h0       
  HLEN        integral  8     'd0       
  HRDATA      integral  32    'd0       
  HSIZE       integral  3     'd0       
  HWRITE      integral  1     1         
  HREADY_OUT  integral  1     'd0       
----------------------------------------

UVM_INFO ../tb/scoreboard.sv(121) @ 345: uvm_test_top.env_h.sbh [SB] Address compared successfully
** Warning: (vsim-3829) Non-existent associative array entry. Returning default value.
   Time: 345 ns  Iteration: 3  Process: /avip_pkg::scoreboard::run_phase/#FORK#90_7fefec1f53a File: ../tb/scoreboard.sv Line: 125
** Warning: (vsim-3829) Non-existent associative array entry. Returning default value.
   Time: 345 ns  Iteration: 3  Process: /avip_pkg::scoreboard::run_phase/#FORK#90_7fefec1f53a File: ../tb/scoreboard.sv Line: 125
UVM_INFO ../tb/scoreboard.sv(127) @ 345: uvm_test_top.env_h.sbh [SB] write data matched successfully
UVM_INFO ../master_agent/master_driver.sv(51) @ 355: uvm_test_top.env_h.m_agt[0].m_drv [MASTER DRV] THIS IS AHB DRIVER 
 ----------------------------------------
Name          Type      Size  Value     
----------------------------------------
req           trans     -     @1036     
  HRESETn     integral  1     'd0       
  HBURST      integral  3     7         
  HRESP       integral  1     'd0       
  HADDR       integral  32    'h2a55a5db
  HTRANS      integral  2     3         
  HWDATA      integral  32    'h49f4f2f2
  HLEN        integral  8     'd16      
  HRDATA      integral  32    'd0       
  HSIZE       integral  3     'd0       
  HWRITE      integral  1     1         
  HREADY_OUT  integral  1     'd0       
----------------------------------------

UVM_INFO ../master_agent/master_monitor.sv(99) @ 355: uvm_test_top.env_h.m_agt[0].m_mon [master monitor] Printing from master monitor 
 ----------------------------------------
Name          Type      Size  Value     
----------------------------------------
txn           trans     -     @682      
  HRESETn     integral  1     'd0       
  HBURST      integral  3     7         
  HRESP       integral  1     'd0       
  HADDR       integral  32    'h2a55a5da
  HTRANS      integral  2     3         
  HWDATA      integral  32    'h0       
  HLEN        integral  8     'd0       
  HRDATA      integral  32    'd0       
  HSIZE       integral  3     'd0       
  HWRITE      integral  1     1         
  HREADY_OUT  integral  1     'd0       
----------------------------------------

                 355master monitor write operation mem[710256090]=000000a1
                 355slave monitor write operation mem[710256090]= 000000a1
UVM_INFO ../slave_agent/slave_monitor.sv(92) @ 355: uvm_test_top.env_h.s_agt[0].s_mon [slave monitor] Printing from slave monitor 
 ----------------------------------------
Name          Type      Size  Value     
----------------------------------------
txn           trans     -     @1088     
  HRESETn     integral  1     'd0       
  HBURST      integral  3     'd0       
  HRESP       integral  1     'd0       
  HADDR       integral  32    'h2a55a5da
  HTRANS      integral  2     'd0       
  HWDATA      integral  32    'h0       
  HLEN        integral  8     'd0       
  HRDATA      integral  32    'd0       
  HSIZE       integral  3     'd0       
  HWRITE      integral  1     1         
  HREADY_OUT  integral  1     'd0       
----------------------------------------

UVM_INFO ../tb/scoreboard.sv(121) @ 355: uvm_test_top.env_h.sbh [SB] Address compared successfully
** Warning: (vsim-3829) Non-existent associative array entry. Returning default value.
   Time: 355 ns  Iteration: 3  Process: /avip_pkg::scoreboard::run_phase/#FORK#90_7fefec1f53a File: ../tb/scoreboard.sv Line: 125
** Warning: (vsim-3829) Non-existent associative array entry. Returning default value.
   Time: 355 ns  Iteration: 3  Process: /avip_pkg::scoreboard::run_phase/#FORK#90_7fefec1f53a File: ../tb/scoreboard.sv Line: 125
UVM_INFO ../tb/scoreboard.sv(127) @ 355: uvm_test_top.env_h.sbh [SB] write data matched successfully
aaaaaaaaaaaaaaaaaaaaaaaaaaaaaaaaaaa = 0
UVM_INFO ../master_agent/master_driver.sv(51) @ 435: uvm_test_top.env_h.m_agt[0].m_drv [MASTER DRV] THIS IS AHB DRIVER 
 ----------------------------------------
Name          Type      Size  Value     
----------------------------------------
req           trans     -     @1036     
  HRESETn     integral  1     'd0       
  HBURST      integral  3     7         
  HRESP       integral  1     'd0       
  HADDR       integral  32    'h2a55a5dc
  HTRANS      integral  2     3         
  HWDATA      integral  32    'hb89d74ed
  HLEN        integral  8     'd16      
  HRDATA      integral  32    'd0       
  HSIZE       integral  3     'd0       
  HWRITE      integral  1     1         
  HREADY_OUT  integral  1     'd0       
----------------------------------------

UVM_INFO ../master_agent/master_monitor.sv(99) @ 435: uvm_test_top.env_h.m_agt[0].m_mon [master monitor] Printing from master monitor 
 ----------------------------------------
Name          Type      Size  Value     
----------------------------------------
txn           trans     -     @682      
  HRESETn     integral  1     'd0       
  HBURST      integral  3     7         
  HRESP       integral  1     'd0       
  HADDR       integral  32    'h2a55a5db
  HTRANS      integral  2     3         
  HWDATA      integral  32    'h0       
  HLEN        integral  8     'd0       
  HRDATA      integral  32    'd0       
  HSIZE       integral  3     'd0       
  HWRITE      integral  1     1         
  HREADY_OUT  integral  1     'd0       
----------------------------------------

                 435master monitor write operation mem[710256091]=00000049
                 435slave monitor write operation mem[710256091]= 00000049
UVM_INFO ../slave_agent/slave_monitor.sv(92) @ 435: uvm_test_top.env_h.s_agt[0].s_mon [slave monitor] Printing from slave monitor 
 ----------------------------------------
Name          Type      Size  Value     
----------------------------------------
txn           trans     -     @1092     
  HRESETn     integral  1     'd0       
  HBURST      integral  3     'd0       
  HRESP       integral  1     'd0       
  HADDR       integral  32    'h2a55a5db
  HTRANS      integral  2     'd0       
  HWDATA      integral  32    'h0       
  HLEN        integral  8     'd0       
  HRDATA      integral  32    'd0       
  HSIZE       integral  3     'd0       
  HWRITE      integral  1     1         
  HREADY_OUT  integral  1     'd0       
----------------------------------------

UVM_INFO ../tb/scoreboard.sv(121) @ 435: uvm_test_top.env_h.sbh [SB] Address compared successfully
** Warning: (vsim-3829) Non-existent associative array entry. Returning default value.
   Time: 435 ns  Iteration: 3  Process: /avip_pkg::scoreboard::run_phase/#FORK#90_7fefec1f53a File: ../tb/scoreboard.sv Line: 125
** Warning: (vsim-3829) Non-existent associative array entry. Returning default value.
   Time: 435 ns  Iteration: 3  Process: /avip_pkg::scoreboard::run_phase/#FORK#90_7fefec1f53a File: ../tb/scoreboard.sv Line: 125
UVM_INFO ../tb/scoreboard.sv(127) @ 435: uvm_test_top.env_h.sbh [SB] write data matched successfully
UVM_INFO ../master_agent/master_driver.sv(51) @ 445: uvm_test_top.env_h.m_agt[0].m_drv [MASTER DRV] THIS IS AHB DRIVER 
 ----------------------------------------
Name          Type      Size  Value     
----------------------------------------
req           trans     -     @1036     
  HRESETn     integral  1     'd0       
  HBURST      integral  3     7         
  HRESP       integral  1     'd0       
  HADDR       integral  32    'h2a55a5dd
  HTRANS      integral  2     3         
  HWDATA      integral  32    'h3e72b3ad
  HLEN        integral  8     'd16      
  HRDATA      integral  32    'd0       
  HSIZE       integral  3     'd0       
  HWRITE      integral  1     1         
  HREADY_OUT  integral  1     'd0       
----------------------------------------

UVM_INFO ../master_agent/master_monitor.sv(99) @ 445: uvm_test_top.env_h.m_agt[0].m_mon [master monitor] Printing from master monitor 
 ----------------------------------------
Name          Type      Size  Value     
----------------------------------------
txn           trans     -     @682      
  HRESETn     integral  1     'd0       
  HBURST      integral  3     7         
  HRESP       integral  1     'd0       
  HADDR       integral  32    'h2a55a5dc
  HTRANS      integral  2     3         
  HWDATA      integral  32    'h0       
  HLEN        integral  8     'd0       
  HRDATA      integral  32    'd0       
  HSIZE       integral  3     'd0       
  HWRITE      integral  1     1         
  HREADY_OUT  integral  1     'd0       
----------------------------------------

                 445master monitor write operation mem[710256092]=000000ed
                 445slave monitor write operation mem[710256092]= 000000ed
UVM_INFO ../slave_agent/slave_monitor.sv(92) @ 445: uvm_test_top.env_h.s_agt[0].s_mon [slave monitor] Printing from slave monitor 
 ----------------------------------------
Name          Type      Size  Value     
----------------------------------------
txn           trans     -     @1096     
  HRESETn     integral  1     'd0       
  HBURST      integral  3     'd0       
  HRESP       integral  1     'd0       
  HADDR       integral  32    'h2a55a5dc
  HTRANS      integral  2     'd0       
  HWDATA      integral  32    'h0       
  HLEN        integral  8     'd0       
  HRDATA      integral  32    'd0       
  HSIZE       integral  3     'd0       
  HWRITE      integral  1     1         
  HREADY_OUT  integral  1     'd0       
----------------------------------------

UVM_INFO ../tb/scoreboard.sv(121) @ 445: uvm_test_top.env_h.sbh [SB] Address compared successfully
** Warning: (vsim-3829) Non-existent associative array entry. Returning default value.
   Time: 445 ns  Iteration: 3  Process: /avip_pkg::scoreboard::run_phase/#FORK#90_7fefec1f53a File: ../tb/scoreboard.sv Line: 125
** Warning: (vsim-3829) Non-existent associative array entry. Returning default value.
   Time: 445 ns  Iteration: 3  Process: /avip_pkg::scoreboard::run_phase/#FORK#90_7fefec1f53a File: ../tb/scoreboard.sv Line: 125
UVM_INFO ../tb/scoreboard.sv(127) @ 445: uvm_test_top.env_h.sbh [SB] write data matched successfully
UVM_INFO ../master_agent/master_driver.sv(51) @ 455: uvm_test_top.env_h.m_agt[0].m_drv [MASTER DRV] THIS IS AHB DRIVER 
 ----------------------------------------
Name          Type      Size  Value     
----------------------------------------
req           trans     -     @1104     
  HRESETn     integral  1     'd0       
  HBURST      integral  3     5         
  HRESP       integral  1     'd0       
  HADDR       integral  32    'hda1f5669
  HTRANS      integral  2     2         
  HWDATA      integral  32    'hc03a66f 
  HLEN        integral  8     'd8       
  HRDATA      integral  32    'd0       
  HSIZE       integral  3     'd0       
  HWRITE      integral  1     1         
  HREADY_OUT  integral  1     'd0       
----------------------------------------

UVM_INFO ../master_agent/master_monitor.sv(99) @ 455: uvm_test_top.env_h.m_agt[0].m_mon [master monitor] Printing from master monitor 
 ----------------------------------------
Name          Type      Size  Value     
----------------------------------------
txn           trans     -     @682      
  HRESETn     integral  1     'd0       
  HBURST      integral  3     7         
  HRESP       integral  1     'd0       
  HADDR       integral  32    'h2a55a5dd
  HTRANS      integral  2     3         
  HWDATA      integral  32    'h0       
  HLEN        integral  8     'd0       
  HRDATA      integral  32    'd0       
  HSIZE       integral  3     'd0       
  HWRITE      integral  1     1         
  HREADY_OUT  integral  1     'd0       
----------------------------------------

                 455master monitor write operation mem[710256093]=000000b3
                 455slave monitor write operation mem[710256093]= 000000b3
UVM_INFO ../slave_agent/slave_monitor.sv(92) @ 455: uvm_test_top.env_h.s_agt[0].s_mon [slave monitor] Printing from slave monitor 
 ----------------------------------------
Name          Type      Size  Value     
----------------------------------------
txn           trans     -     @1100     
  HRESETn     integral  1     'd0       
  HBURST      integral  3     'd0       
  HRESP       integral  1     'd0       
  HADDR       integral  32    'h2a55a5dd
  HTRANS      integral  2     'd0       
  HWDATA      integral  32    'h0       
  HLEN        integral  8     'd0       
  HRDATA      integral  32    'd0       
  HSIZE       integral  3     'd0       
  HWRITE      integral  1     1         
  HREADY_OUT  integral  1     'd0       
----------------------------------------

UVM_INFO ../tb/scoreboard.sv(121) @ 455: uvm_test_top.env_h.sbh [SB] Address compared successfully
** Warning: (vsim-3829) Non-existent associative array entry. Returning default value.
   Time: 455 ns  Iteration: 3  Process: /avip_pkg::scoreboard::run_phase/#FORK#90_7fefec1f53a File: ../tb/scoreboard.sv Line: 125
** Warning: (vsim-3829) Non-existent associative array entry. Returning default value.
   Time: 455 ns  Iteration: 3  Process: /avip_pkg::scoreboard::run_phase/#FORK#90_7fefec1f53a File: ../tb/scoreboard.sv Line: 125
UVM_INFO ../tb/scoreboard.sv(127) @ 455: uvm_test_top.env_h.sbh [SB] write data matched successfully
UVM_INFO ../master_agent/master_driver.sv(51) @ 465: uvm_test_top.env_h.m_agt[0].m_drv [MASTER DRV] THIS IS AHB DRIVER 
 ----------------------------------------
Name          Type      Size  Value     
----------------------------------------
req           trans     -     @1104     
  HRESETn     integral  1     'd0       
  HBURST      integral  3     5         
  HRESP       integral  1     'd0       
  HADDR       integral  32    'hda1f566a
  HTRANS      integral  2     3         
  HWDATA      integral  32    'h9893ac0 
  HLEN        integral  8     'd8       
  HRDATA      integral  32    'd0       
  HSIZE       integral  3     'd0       
  HWRITE      integral  1     1         
  HREADY_OUT  integral  1     'd0       
----------------------------------------

UVM_INFO ../master_agent/master_monitor.sv(99) @ 465: uvm_test_top.env_h.m_agt[0].m_mon [master monitor] Printing from master monitor 
 ----------------------------------------
Name          Type      Size  Value     
----------------------------------------
txn           trans     -     @682      
  HRESETn     integral  1     'd0       
  HBURST      integral  3     5         
  HRESP       integral  1     'd0       
  HADDR       integral  32    'hda1f5669
  HTRANS      integral  2     2         
  HWDATA      integral  32    'h0       
  HLEN        integral  8     'd0       
  HRDATA      integral  32    'd0       
  HSIZE       integral  3     'd0       
  HWRITE      integral  1     1         
  HREADY_OUT  integral  1     'd0       
----------------------------------------

                 465master monitor write operation mem[3659486825]=000000a6
                 465slave monitor write operation mem[3659486825]= 000000a6
UVM_INFO ../slave_agent/slave_monitor.sv(92) @ 465: uvm_test_top.env_h.s_agt[0].s_mon [slave monitor] Printing from slave monitor 
 ----------------------------------------
Name          Type      Size  Value     
----------------------------------------
txn           trans     -     @1108     
  HRESETn     integral  1     'd0       
  HBURST      integral  3     'd0       
  HRESP       integral  1     'd0       
  HADDR       integral  32    'hda1f5669
  HTRANS      integral  2     'd0       
  HWDATA      integral  32    'h0       
  HLEN        integral  8     'd0       
  HRDATA      integral  32    'd0       
  HSIZE       integral  3     'd0       
  HWRITE      integral  1     1         
  HREADY_OUT  integral  1     'd0       
----------------------------------------

UVM_INFO ../tb/scoreboard.sv(121) @ 465: uvm_test_top.env_h.sbh [SB] Address compared successfully
** Warning: (vsim-3829) Non-existent associative array entry. Returning default value.
   Time: 465 ns  Iteration: 3  Process: /avip_pkg::scoreboard::run_phase/#FORK#90_7fefec1f53a File: ../tb/scoreboard.sv Line: 125
** Warning: (vsim-3829) Non-existent associative array entry. Returning default value.
   Time: 465 ns  Iteration: 3  Process: /avip_pkg::scoreboard::run_phase/#FORK#90_7fefec1f53a File: ../tb/scoreboard.sv Line: 125
UVM_INFO ../tb/scoreboard.sv(127) @ 465: uvm_test_top.env_h.sbh [SB] write data matched successfully
UVM_INFO ../master_agent/master_driver.sv(51) @ 475: uvm_test_top.env_h.m_agt[0].m_drv [MASTER DRV] THIS IS AHB DRIVER 
 ----------------------------------------
Name          Type      Size  Value     
----------------------------------------
req           trans     -     @1104     
  HRESETn     integral  1     'd0       
  HBURST      integral  3     5         
  HRESP       integral  1     'd0       
  HADDR       integral  32    'hda1f566b
  HTRANS      integral  2     3         
  HWDATA      integral  32    'h525037ad
  HLEN        integral  8     'd8       
  HRDATA      integral  32    'd0       
  HSIZE       integral  3     'd0       
  HWRITE      integral  1     1         
  HREADY_OUT  integral  1     'd0       
----------------------------------------

UVM_INFO ../master_agent/master_monitor.sv(99) @ 475: uvm_test_top.env_h.m_agt[0].m_mon [master monitor] Printing from master monitor 
 ----------------------------------------
Name          Type      Size  Value     
----------------------------------------
txn           trans     -     @682      
  HRESETn     integral  1     'd0       
  HBURST      integral  3     5         
  HRESP       integral  1     'd0       
  HADDR       integral  32    'hda1f566a
  HTRANS      integral  2     3         
  HWDATA      integral  32    'h0       
  HLEN        integral  8     'd0       
  HRDATA      integral  32    'd0       
  HSIZE       integral  3     'd0       
  HWRITE      integral  1     1         
  HREADY_OUT  integral  1     'd0       
----------------------------------------

                 475master monitor write operation mem[3659486826]=00000089
                 475slave monitor write operation mem[3659486826]= 00000089
UVM_INFO ../slave_agent/slave_monitor.sv(92) @ 475: uvm_test_top.env_h.s_agt[0].s_mon [slave monitor] Printing from slave monitor 
 ----------------------------------------
Name          Type      Size  Value     
----------------------------------------
txn           trans     -     @1112     
  HRESETn     integral  1     'd0       
  HBURST      integral  3     'd0       
  HRESP       integral  1     'd0       
  HADDR       integral  32    'hda1f566a
  HTRANS      integral  2     'd0       
  HWDATA      integral  32    'h0       
  HLEN        integral  8     'd0       
  HRDATA      integral  32    'd0       
  HSIZE       integral  3     'd0       
  HWRITE      integral  1     1         
  HREADY_OUT  integral  1     'd0       
----------------------------------------

UVM_INFO ../tb/scoreboard.sv(121) @ 475: uvm_test_top.env_h.sbh [SB] Address compared successfully
** Warning: (vsim-3829) Non-existent associative array entry. Returning default value.
   Time: 475 ns  Iteration: 3  Process: /avip_pkg::scoreboard::run_phase/#FORK#90_7fefec1f53a File: ../tb/scoreboard.sv Line: 125
** Warning: (vsim-3829) Non-existent associative array entry. Returning default value.
   Time: 475 ns  Iteration: 3  Process: /avip_pkg::scoreboard::run_phase/#FORK#90_7fefec1f53a File: ../tb/scoreboard.sv Line: 125
UVM_INFO ../tb/scoreboard.sv(127) @ 475: uvm_test_top.env_h.sbh [SB] write data matched successfully
UVM_INFO ../master_agent/master_driver.sv(51) @ 485: uvm_test_top.env_h.m_agt[0].m_drv [MASTER DRV] THIS IS AHB DRIVER 
 ----------------------------------------
Name          Type      Size  Value     
----------------------------------------
req           trans     -     @1104     
  HRESETn     integral  1     'd0       
  HBURST      integral  3     5         
  HRESP       integral  1     'd0       
  HADDR       integral  32    'hda1f566c
  HTRANS      integral  2     3         
  HWDATA      integral  32    'h109f0b79
  HLEN        integral  8     'd8       
  HRDATA      integral  32    'd0       
  HSIZE       integral  3     'd0       
  HWRITE      integral  1     1         
  HREADY_OUT  integral  1     'd0       
----------------------------------------

UVM_INFO ../master_agent/master_monitor.sv(99) @ 485: uvm_test_top.env_h.m_agt[0].m_mon [master monitor] Printing from master monitor 
 ----------------------------------------
Name          Type      Size  Value     
----------------------------------------
txn           trans     -     @682      
  HRESETn     integral  1     'd0       
  HBURST      integral  3     5         
  HRESP       integral  1     'd0       
  HADDR       integral  32    'hda1f566b
  HTRANS      integral  2     3         
  HWDATA      integral  32    'h0       
  HLEN        integral  8     'd0       
  HRDATA      integral  32    'd0       
  HSIZE       integral  3     'd0       
  HWRITE      integral  1     1         
  HREADY_OUT  integral  1     'd0       
----------------------------------------

                 485master monitor write operation mem[3659486827]=00000052
                 485slave monitor write operation mem[3659486827]= 00000052
UVM_INFO ../slave_agent/slave_monitor.sv(92) @ 485: uvm_test_top.env_h.s_agt[0].s_mon [slave monitor] Printing from slave monitor 
 ----------------------------------------
Name          Type      Size  Value     
----------------------------------------
txn           trans     -     @1116     
  HRESETn     integral  1     'd0       
  HBURST      integral  3     'd0       
  HRESP       integral  1     'd0       
  HADDR       integral  32    'hda1f566b
  HTRANS      integral  2     'd0       
  HWDATA      integral  32    'h0       
  HLEN        integral  8     'd0       
  HRDATA      integral  32    'd0       
  HSIZE       integral  3     'd0       
  HWRITE      integral  1     1         
  HREADY_OUT  integral  1     'd0       
----------------------------------------

UVM_INFO ../tb/scoreboard.sv(121) @ 485: uvm_test_top.env_h.sbh [SB] Address compared successfully
** Warning: (vsim-3829) Non-existent associative array entry. Returning default value.
   Time: 485 ns  Iteration: 3  Process: /avip_pkg::scoreboard::run_phase/#FORK#90_7fefec1f53a File: ../tb/scoreboard.sv Line: 125
** Warning: (vsim-3829) Non-existent associative array entry. Returning default value.
   Time: 485 ns  Iteration: 3  Process: /avip_pkg::scoreboard::run_phase/#FORK#90_7fefec1f53a File: ../tb/scoreboard.sv Line: 125
UVM_INFO ../tb/scoreboard.sv(127) @ 485: uvm_test_top.env_h.sbh [SB] write data matched successfully
UVM_INFO ../master_agent/master_driver.sv(51) @ 495: uvm_test_top.env_h.m_agt[0].m_drv [MASTER DRV] THIS IS AHB DRIVER 
 ----------------------------------------
Name          Type      Size  Value     
----------------------------------------
req           trans     -     @1104     
  HRESETn     integral  1     'd0       
  HBURST      integral  3     5         
  HRESP       integral  1     'd0       
  HADDR       integral  32    'hda1f566d
  HTRANS      integral  2     3         
  HWDATA      integral  32    'hd56c554b
  HLEN        integral  8     'd8       
  HRDATA      integral  32    'd0       
  HSIZE       integral  3     'd0       
  HWRITE      integral  1     1         
  HREADY_OUT  integral  1     'd0       
----------------------------------------

UVM_INFO ../master_agent/master_monitor.sv(99) @ 495: uvm_test_top.env_h.m_agt[0].m_mon [master monitor] Printing from master monitor 
 ----------------------------------------
Name          Type      Size  Value     
----------------------------------------
txn           trans     -     @682      
  HRESETn     integral  1     'd0       
  HBURST      integral  3     5         
  HRESP       integral  1     'd0       
  HADDR       integral  32    'hda1f566c
  HTRANS      integral  2     3         
  HWDATA      integral  32    'h0       
  HLEN        integral  8     'd0       
  HRDATA      integral  32    'd0       
  HSIZE       integral  3     'd0       
  HWRITE      integral  1     1         
  HREADY_OUT  integral  1     'd0       
----------------------------------------

                 495master monitor write operation mem[3659486828]=00000079
                 495slave monitor write operation mem[3659486828]= 00000079
UVM_INFO ../slave_agent/slave_monitor.sv(92) @ 495: uvm_test_top.env_h.s_agt[0].s_mon [slave monitor] Printing from slave monitor 
 ----------------------------------------
Name          Type      Size  Value     
----------------------------------------
txn           trans     -     @1120     
  HRESETn     integral  1     'd0       
  HBURST      integral  3     'd0       
  HRESP       integral  1     'd0       
  HADDR       integral  32    'hda1f566c
  HTRANS      integral  2     'd0       
  HWDATA      integral  32    'h0       
  HLEN        integral  8     'd0       
  HRDATA      integral  32    'd0       
  HSIZE       integral  3     'd0       
  HWRITE      integral  1     1         
  HREADY_OUT  integral  1     'd0       
----------------------------------------

UVM_INFO ../tb/scoreboard.sv(121) @ 495: uvm_test_top.env_h.sbh [SB] Address compared successfully
** Warning: (vsim-3829) Non-existent associative array entry. Returning default value.
   Time: 495 ns  Iteration: 3  Process: /avip_pkg::scoreboard::run_phase/#FORK#90_7fefec1f53a File: ../tb/scoreboard.sv Line: 125
** Warning: (vsim-3829) Non-existent associative array entry. Returning default value.
   Time: 495 ns  Iteration: 3  Process: /avip_pkg::scoreboard::run_phase/#FORK#90_7fefec1f53a File: ../tb/scoreboard.sv Line: 125
UVM_INFO ../tb/scoreboard.sv(127) @ 495: uvm_test_top.env_h.sbh [SB] write data matched successfully
UVM_INFO ../master_agent/master_driver.sv(51) @ 505: uvm_test_top.env_h.m_agt[0].m_drv [MASTER DRV] THIS IS AHB DRIVER 
 ----------------------------------------
Name          Type      Size  Value     
----------------------------------------
req           trans     -     @1104     
  HRESETn     integral  1     'd0       
  HBURST      integral  3     5         
  HRESP       integral  1     'd0       
  HADDR       integral  32    'hda1f566e
  HTRANS      integral  2     3         
  HWDATA      integral  32    'hddbc0a1a
  HLEN        integral  8     'd8       
  HRDATA      integral  32    'd0       
  HSIZE       integral  3     'd0       
  HWRITE      integral  1     1         
  HREADY_OUT  integral  1     'd0       
----------------------------------------

UVM_INFO ../master_agent/master_monitor.sv(99) @ 505: uvm_test_top.env_h.m_agt[0].m_mon [master monitor] Printing from master monitor 
 ----------------------------------------
Name          Type      Size  Value     
----------------------------------------
txn           trans     -     @682      
  HRESETn     integral  1     'd0       
  HBURST      integral  3     5         
  HRESP       integral  1     'd0       
  HADDR       integral  32    'hda1f566d
  HTRANS      integral  2     3         
  HWDATA      integral  32    'h0       
  HLEN        integral  8     'd0       
  HRDATA      integral  32    'd0       
  HSIZE       integral  3     'd0       
  HWRITE      integral  1     1         
  HREADY_OUT  integral  1     'd0       
----------------------------------------

                 505master monitor write operation mem[3659486829]=00000055
                 505slave monitor write operation mem[3659486829]= 00000055
UVM_INFO ../slave_agent/slave_monitor.sv(92) @ 505: uvm_test_top.env_h.s_agt[0].s_mon [slave monitor] Printing from slave monitor 
 ----------------------------------------
Name          Type      Size  Value     
----------------------------------------
txn           trans     -     @1124     
  HRESETn     integral  1     'd0       
  HBURST      integral  3     'd0       
  HRESP       integral  1     'd0       
  HADDR       integral  32    'hda1f566d
  HTRANS      integral  2     'd0       
  HWDATA      integral  32    'h0       
  HLEN        integral  8     'd0       
  HRDATA      integral  32    'd0       
  HSIZE       integral  3     'd0       
  HWRITE      integral  1     1         
  HREADY_OUT  integral  1     'd0       
----------------------------------------

UVM_INFO ../tb/scoreboard.sv(121) @ 505: uvm_test_top.env_h.sbh [SB] Address compared successfully
** Warning: (vsim-3829) Non-existent associative array entry. Returning default value.
   Time: 505 ns  Iteration: 3  Process: /avip_pkg::scoreboard::run_phase/#FORK#90_7fefec1f53a File: ../tb/scoreboard.sv Line: 125
** Warning: (vsim-3829) Non-existent associative array entry. Returning default value.
   Time: 505 ns  Iteration: 3  Process: /avip_pkg::scoreboard::run_phase/#FORK#90_7fefec1f53a File: ../tb/scoreboard.sv Line: 125
UVM_INFO ../tb/scoreboard.sv(127) @ 505: uvm_test_top.env_h.sbh [SB] write data matched successfully
aaaaaaaaaaaaaaaaaaaaaaaaaaaaaaaaaaa = 0
UVM_INFO ../master_agent/master_driver.sv(51) @ 545: uvm_test_top.env_h.m_agt[0].m_drv [MASTER DRV] THIS IS AHB DRIVER 
 ----------------------------------------
Name          Type      Size  Value     
----------------------------------------
req           trans     -     @1104     
  HRESETn     integral  1     'd0       
  HBURST      integral  3     5         
  HRESP       integral  1     'd0       
  HADDR       integral  32    'hda1f566f
  HTRANS      integral  2     3         
  HWDATA      integral  32    'h50a18e66
  HLEN        integral  8     'd8       
  HRDATA      integral  32    'd0       
  HSIZE       integral  3     'd0       
  HWRITE      integral  1     1         
  HREADY_OUT  integral  1     'd0       
----------------------------------------

UVM_INFO ../master_agent/master_monitor.sv(99) @ 545: uvm_test_top.env_h.m_agt[0].m_mon [master monitor] Printing from master monitor 
 ----------------------------------------
Name          Type      Size  Value     
----------------------------------------
txn           trans     -     @682      
  HRESETn     integral  1     'd0       
  HBURST      integral  3     5         
  HRESP       integral  1     'd0       
  HADDR       integral  32    'hda1f566e
  HTRANS      integral  2     3         
  HWDATA      integral  32    'h0       
  HLEN        integral  8     'd0       
  HRDATA      integral  32    'd0       
  HSIZE       integral  3     'd0       
  HWRITE      integral  1     1         
  HREADY_OUT  integral  1     'd0       
----------------------------------------

                 545master monitor write operation mem[3659486830]=000000bc
                 545slave monitor write operation mem[3659486830]= 000000bc
UVM_INFO ../slave_agent/slave_monitor.sv(92) @ 545: uvm_test_top.env_h.s_agt[0].s_mon [slave monitor] Printing from slave monitor 
 ----------------------------------------
Name          Type      Size  Value     
----------------------------------------
txn           trans     -     @1128     
  HRESETn     integral  1     'd0       
  HBURST      integral  3     'd0       
  HRESP       integral  1     'd0       
  HADDR       integral  32    'hda1f566e
  HTRANS      integral  2     'd0       
  HWDATA      integral  32    'h0       
  HLEN        integral  8     'd0       
  HRDATA      integral  32    'd0       
  HSIZE       integral  3     'd0       
  HWRITE      integral  1     1         
  HREADY_OUT  integral  1     'd0       
----------------------------------------

UVM_INFO ../tb/scoreboard.sv(121) @ 545: uvm_test_top.env_h.sbh [SB] Address compared successfully
** Warning: (vsim-3829) Non-existent associative array entry. Returning default value.
   Time: 545 ns  Iteration: 3  Process: /avip_pkg::scoreboard::run_phase/#FORK#90_7fefec1f53a File: ../tb/scoreboard.sv Line: 125
** Warning: (vsim-3829) Non-existent associative array entry. Returning default value.
   Time: 545 ns  Iteration: 3  Process: /avip_pkg::scoreboard::run_phase/#FORK#90_7fefec1f53a File: ../tb/scoreboard.sv Line: 125
UVM_INFO ../tb/scoreboard.sv(127) @ 545: uvm_test_top.env_h.sbh [SB] write data matched successfully
UVM_INFO ../master_agent/master_driver.sv(51) @ 555: uvm_test_top.env_h.m_agt[0].m_drv [MASTER DRV] THIS IS AHB DRIVER 
 ----------------------------------------
Name          Type      Size  Value     
----------------------------------------
req           trans     -     @1104     
  HRESETn     integral  1     'd0       
  HBURST      integral  3     5         
  HRESP       integral  1     'd0       
  HADDR       integral  32    'hda1f5670
  HTRANS      integral  2     3         
  HWDATA      integral  32    'hf27fd845
  HLEN        integral  8     'd8       
  HRDATA      integral  32    'd0       
  HSIZE       integral  3     'd0       
  HWRITE      integral  1     1         
  HREADY_OUT  integral  1     'd0       
----------------------------------------

UVM_INFO ../master_agent/master_monitor.sv(99) @ 555: uvm_test_top.env_h.m_agt[0].m_mon [master monitor] Printing from master monitor 
 ----------------------------------------
Name          Type      Size  Value     
----------------------------------------
txn           trans     -     @682      
  HRESETn     integral  1     'd0       
  HBURST      integral  3     5         
  HRESP       integral  1     'd0       
  HADDR       integral  32    'hda1f566f
  HTRANS      integral  2     3         
  HWDATA      integral  32    'h0       
  HLEN        integral  8     'd0       
  HRDATA      integral  32    'd0       
  HSIZE       integral  3     'd0       
  HWRITE      integral  1     1         
  HREADY_OUT  integral  1     'd0       
----------------------------------------

                 555master monitor write operation mem[3659486831]=00000050
                 555slave monitor write operation mem[3659486831]= 00000050
UVM_INFO ../slave_agent/slave_monitor.sv(92) @ 555: uvm_test_top.env_h.s_agt[0].s_mon [slave monitor] Printing from slave monitor 
 ----------------------------------------
Name          Type      Size  Value     
----------------------------------------
txn           trans     -     @1132     
  HRESETn     integral  1     'd0       
  HBURST      integral  3     'd0       
  HRESP       integral  1     'd0       
  HADDR       integral  32    'hda1f566f
  HTRANS      integral  2     'd0       
  HWDATA      integral  32    'h0       
  HLEN        integral  8     'd0       
  HRDATA      integral  32    'd0       
  HSIZE       integral  3     'd0       
