vsim -cvgperinstance -vopt -voptargs="+acc" -coverage -sva -c -do " log -r /* ;coverage save -onexit mem_cov4;run -all; exit" -wlf wave_file4.wlf -l test4.log -sv_seed 2879749925 work.top "+UVM_TESTNAME=test3" 
Start time: 18:13:58 on Mar 28,2025
** Note: (vsim-8009) Loading existing optimized design _opt
//  Questa Sim-64
//  Version 2019.2 linux_x86_64 Apr 16 2019
//
//  Copyright 1991-2019 Mentor Graphics Corporation
//  All Rights Reserved.
//
//  QuestaSim and its associated documentation contain trade
//  secrets and commercial or financial information that are the property of
//  Mentor Graphics Corporation and are privileged, confidential,
//  and exempt from disclosure under the Freedom of Information Act,
//  5 U.S.C. Section 552. Furthermore, this information
//  is prohibited from disclosure under the Trade Secrets Act,
//  18 U.S.C. Section 1905.
//
Loading sv_std.std
Loading work.av_if(fast)
Loading mtiUvm.uvm_pkg
Loading work.avip_pkg(fast)
Loading mtiUvm.questa_uvm_pkg(fast)
Loading work.top(fast)
Loading work.av_if(fast)
# Loading /home/cad/eda/Questa_2019/questasim/uvm-1.1d/linux_x86_64/uvm_dpi.so
** Warning: (vsim-8634) Code was not compiled with coverage options.
 log -r /* 
coverage save -onexit mem_cov4
run -all
----------------------------------------------------------------
UVM-1.1d
(C) 2007-2013 Mentor Graphics Corporation
(C) 2007-2013 Cadence Design Systems, Inc.
(C) 2006-2013 Synopsys, Inc.
(C) 2011-2013 Cypress Semiconductor Corp.
----------------------------------------------------------------

  ***********       IMPORTANT RELEASE NOTES         ************

  You are using a version of the UVM library that has been compiled
  with `UVM_NO_DEPRECATED undefined.
  See http://www.eda.org/svdb/view.php?id=3313 for more details.

  You are using a version of the UVM library that has been compiled
  with `UVM_OBJECT_MUST_HAVE_CONSTRUCTOR undefined.
  See http://www.eda.org/svdb/view.php?id=3770 for more details.

      (Specify +UVM_NO_RELNOTES to turn off this notice)

UVM_INFO verilog_src/questa_uvm_pkg-1.2/src/questa_uvm_pkg.sv(277) @ 0: reporter [Questa UVM] QUESTA_UVM-1.2.3
UVM_INFO verilog_src/questa_uvm_pkg-1.2/src/questa_uvm_pkg.sv(278) @ 0: reporter [Questa UVM]  questa_uvm::init(+struct)
UVM_INFO @ 0: reporter [RNTST] Running test test3...
UVM_INFO @ 0: reporter [UVMTOP] UVM testbench topology:
------------------------------------------------------------------
Name                       Type                        Size  Value
------------------------------------------------------------------
uvm_test_top               test3                       -     @474 
  env_h                    env                         -     @490 
    m_agt[0]               m_agent                     -     @506 
      m_drv                m_driver                    -     @657 
        rsp_port           uvm_analysis_port           -     @672 
        seq_item_port      uvm_seq_item_pull_port      -     @664 
      m_mon                m_monitor                   -     @533 
        monitor_port       uvm_analysis_port           -     @540 
      m_seqr               ma_sequencer                -     @548 
        rsp_export         uvm_analysis_export         -     @555 
        seq_item_export    uvm_seq_item_pull_imp       -     @649 
        arbitration_queue  array                       0     -    
        lock_queue         array                       0     -    
        num_last_reqs      integral                    32    'd1  
        num_last_rsps      integral                    32    'd1  
    s_agt[0]               s_agent                     -     @517 
      s_drv                s_driver                    -     @817 
        rsp_port           uvm_analysis_port           -     @832 
        seq_item_port      uvm_seq_item_pull_port      -     @824 
      s_mon                s_monitor                   -     @693 
        monitor_port       uvm_analysis_port           -     @700 
      s_seqr               s_sequencer                 -     @708 
        rsp_export         uvm_analysis_export         -     @715 
        seq_item_export    uvm_seq_item_pull_imp       -     @809 
        arbitration_queue  array                       0     -    
        lock_queue         array                       0     -    
        num_last_reqs      integral                    32    'd1  
        num_last_rsps      integral                    32    'd1  
    sbh                    scoreboard                  -     @524 
      mst_fifo             uvm_tlm_analysis_fifo #(T)  -     @852 
        analysis_export    uvm_analysis_imp            -     @891 
        get_ap             uvm_analysis_port           -     @883 
        get_peek_export    uvm_get_peek_imp            -     @867 
        put_ap             uvm_analysis_port           -     @875 
        put_export         uvm_put_imp                 -     @859 
      slv_fifo             uvm_tlm_analysis_fifo #(T)  -     @899 
        analysis_export    uvm_analysis_imp            -     @938 
        get_ap             uvm_analysis_port           -     @930 
        get_peek_export    uvm_get_peek_imp            -     @914 
        put_ap             uvm_analysis_port           -     @922 
        put_export         uvm_put_imp                 -     @906 
------------------------------------------------------------------

aaaaaaaaaaaaaaaaaaaaaaaaaaaaaaaaaaa = 3
UVM_INFO ../master_agent/master_driver.sv(51) @ 45: uvm_test_top.env_h.m_agt[0].m_drv [MASTER DRV] THIS IS AHB DRIVER 
 ----------------------------------------
Name          Type      Size  Value     
----------------------------------------
req           trans     -     @955      
  HRESETn     integral  1     'd0       
  HBURST      integral  3     'd2       
  HRESP       integral  1     'd0       
  HADDR       integral  32    'h13e98493
  HTRANS      integral  2     'd1       
  HWDATA      integral  32    'h29faf120
  HLEN        integral  8     'd4       
  HRDATA      integral  32    'd0       
  HSIZE       integral  3     'd0       
  HWRITE      integral  1     'd0       
  HREADY_OUT  integral  1     'd0       
----------------------------------------

UVM_INFO ../master_agent/master_driver.sv(51) @ 55: uvm_test_top.env_h.m_agt[0].m_drv [MASTER DRV] THIS IS AHB DRIVER 
 ----------------------------------------
Name          Type      Size  Value     
----------------------------------------
req           trans     -     @1008     
  HRESETn     integral  1     'd0       
  HBURST      integral  3     4         
  HRESP       integral  1     'd0       
  HADDR       integral  32    'hdfe2ccbc
  HTRANS      integral  2     'd1       
  HWDATA      integral  32    'h16166904
  HLEN        integral  8     'd8       
  HRDATA      integral  32    'd0       
  HSIZE       integral  3     'd2       
  HWRITE      integral  1     'd0       
  HREADY_OUT  integral  1     'd0       
----------------------------------------

** Warning: (vsim-3829) Non-existent associative array entry. Returning default value.
   Time: 55 ns  Iteration: 2  Process: /uvm_pkg::uvm_task_phase::execute/#FORK#137(#ublk#215181159#137)_7fefec436f2 File: ../master_agent/master_monitor.sv Line: 95
                  55master monitor read operation mem[334070931]=0
UVM_INFO ../master_agent/master_monitor.sv(99) @ 55: uvm_test_top.env_h.m_agt[0].m_mon [master monitor] Printing from master monitor 
 ----------------------------------------
Name          Type      Size  Value     
----------------------------------------
txn           trans     -     @682      
  HRESETn     integral  1     'd0       
  HBURST      integral  3     'd2       
  HRESP       integral  1     'd0       
  HADDR       integral  32    'h13e98493
  HTRANS      integral  2     'd1       
  HWDATA      integral  32    'h0       
  HLEN        integral  8     'd0       
  HRDATA      integral  32    'd0       
  HSIZE       integral  3     'd0       
  HWRITE      integral  1     'd0       
  HREADY_OUT  integral  1     'd0       
----------------------------------------

** Warning: (vsim-3829) Non-existent associative array entry. Returning default value.
   Time: 55 ns  Iteration: 2  Process: /uvm_pkg::uvm_task_phase::execute/#FORK#137(#ublk#215181159#137)_7fefec436f2 File: ../master_agent/master_monitor.sv Line: 103
master monitor read operation mem[334070931]=00000000
** Warning: (vsim-3829) Non-existent associative array entry. Returning default value.
   Time: 55 ns  Iteration: 2  Process: /uvm_pkg::uvm_task_phase::execute/#FORK#137(#ublk#215181159#137)_7fefec1f7ed File: ../slave_agent/slave_monitor.sv Line: 91
                  55slave monitor read operation mem[334070931]= 00000000
UVM_INFO ../slave_agent/slave_monitor.sv(92) @ 55: uvm_test_top.env_h.s_agt[0].s_mon [slave monitor] Printing from slave monitor 
 ----------------------------------------
Name          Type      Size  Value     
----------------------------------------
txn           trans     -     @949      
  HRESETn     integral  1     'd0       
  HBURST      integral  3     'd0       
  HRESP       integral  1     'd0       
  HADDR       integral  32    'h13e98493
  HTRANS      integral  2     'd0       
  HWDATA      integral  32    'h0       
  HLEN        integral  8     'd0       
  HRDATA      integral  32    'd0       
  HSIZE       integral  3     'd0       
  HWRITE      integral  1     'd0       
  HREADY_OUT  integral  1     'd0       
----------------------------------------

UVM_INFO ../tb/scoreboard.sv(121) @ 55: uvm_test_top.env_h.sbh [SB] Address compared successfully
** Warning: (vsim-3829) Non-existent associative array entry. Returning default value.
   Time: 55 ns  Iteration: 3  Process: /avip_pkg::scoreboard::run_phase/#FORK#90_7fefec1f53a File: ../tb/scoreboard.sv Line: 138
** Warning: (vsim-3829) Non-existent associative array entry. Returning default value.
   Time: 55 ns  Iteration: 3  Process: /avip_pkg::scoreboard::run_phase/#FORK#90_7fefec1f53a File: ../tb/scoreboard.sv Line: 138
UVM_INFO ../tb/scoreboard.sv(140) @ 55: uvm_test_top.env_h.sbh [SB] read data matched successfully
UVM_INFO ../master_agent/master_seqs.sv(133) @ 55: uvm_test_top.env_h.m_agt[0].m_seqr@@s1 [WRAP SEQUENCE] DATA FROM THE WRAP SEQUENCE ----------------------------------------
Name          Type      Size  Value     
----------------------------------------
req           trans     -     @1016     
  HRESETn     integral  1     'd0       
  HBURST      integral  3     'd2       
  HRESP       integral  1     'd0       
  HADDR       integral  32    'h692fdfc6
  HTRANS      integral  2     2         
  HWDATA      integral  32    'h7cd7aeec
  HLEN        integral  8     'd4       
  HRDATA      integral  32    'd0       
  HSIZE       integral  3     'd1       
  HWRITE      integral  1     'd0       
  HREADY_OUT  integral  1     'd0       
----------------------------------------

UVM_INFO ../master_agent/master_driver.sv(51) @ 65: uvm_test_top.env_h.m_agt[0].m_drv [MASTER DRV] THIS IS AHB DRIVER 
 ----------------------------------------
Name          Type      Size  Value     
----------------------------------------
req           trans     -     @1016     
  HRESETn     integral  1     'd0       
  HBURST      integral  3     'd2       
  HRESP       integral  1     'd0       
  HADDR       integral  32    'h692fdfc6
  HTRANS      integral  2     2         
  HWDATA      integral  32    'h7cd7aeec
  HLEN        integral  8     'd4       
  HRDATA      integral  32    'd0       
  HSIZE       integral  3     'd1       
  HWRITE      integral  1     'd0       
  HREADY_OUT  integral  1     'd0       
----------------------------------------

** Warning: (vsim-3829) Non-existent associative array entry. Returning default value.
   Time: 65 ns  Iteration: 2  Process: /uvm_pkg::uvm_task_phase::execute/#FORK#137(#ublk#215181159#137)_7fefec436f2 File: ../master_agent/master_monitor.sv Line: 95
                  65master monitor read operation mem[3756182716]=0
UVM_INFO ../master_agent/master_monitor.sv(99) @ 65: uvm_test_top.env_h.m_agt[0].m_mon [master monitor] Printing from master monitor 
 ----------------------------------------
Name          Type      Size  Value     
----------------------------------------
txn           trans     -     @682      
  HRESETn     integral  1     'd0       
  HBURST      integral  3     4         
  HRESP       integral  1     3         
  HADDR       integral  32    'hdfe2ccbc
  HTRANS      integral  2     'd1       
  HWDATA      integral  32    'h0       
  HLEN        integral  8     'd0       
  HRDATA      integral  32    'd0       
  HSIZE       integral  3     'd2       
  HWRITE      integral  1     'd0       
  HREADY_OUT  integral  1     'd0       
----------------------------------------

** Warning: (vsim-3829) Non-existent associative array entry. Returning default value.
   Time: 65 ns  Iteration: 2  Process: /uvm_pkg::uvm_task_phase::execute/#FORK#137(#ublk#215181159#137)_7fefec436f2 File: ../master_agent/master_monitor.sv Line: 103
master monitor read operation mem[3756182716]=00000000
** Warning: (vsim-3829) Non-existent associative array entry. Returning default value.
   Time: 65 ns  Iteration: 2  Process: /uvm_pkg::uvm_task_phase::execute/#FORK#137(#ublk#215181159#137)_7fefec1f7ed File: ../slave_agent/slave_monitor.sv Line: 91
                  65slave monitor read operation mem[3756182716]= 00000000
UVM_INFO ../slave_agent/slave_monitor.sv(92) @ 65: uvm_test_top.env_h.s_agt[0].s_mon [slave monitor] Printing from slave monitor 
 ----------------------------------------
Name          Type      Size  Value     
----------------------------------------
txn           trans     -     @1012     
  HRESETn     integral  1     'd0       
  HBURST      integral  3     'd0       
  HRESP       integral  1     'd0       
  HADDR       integral  32    'hdfe2ccbc
  HTRANS      integral  2     'd0       
  HWDATA      integral  32    'h0       
  HLEN        integral  8     'd0       
  HRDATA      integral  32    'd0       
  HSIZE       integral  3     'd2       
  HWRITE      integral  1     'd0       
  HREADY_OUT  integral  1     'd0       
----------------------------------------

UVM_INFO ../tb/scoreboard.sv(121) @ 65: uvm_test_top.env_h.sbh [SB] Address compared successfully
** Warning: (vsim-3829) Non-existent associative array entry. Returning default value.
   Time: 65 ns  Iteration: 3  Process: /avip_pkg::scoreboard::run_phase/#FORK#90_7fefec1f53a File: ../tb/scoreboard.sv Line: 138
** Warning: (vsim-3829) Non-existent associative array entry. Returning default value.
   Time: 65 ns  Iteration: 3  Process: /avip_pkg::scoreboard::run_phase/#FORK#90_7fefec1f53a File: ../tb/scoreboard.sv Line: 138
UVM_INFO ../tb/scoreboard.sv(140) @ 65: uvm_test_top.env_h.sbh [SB] read data matched successfully
UVM_INFO ../master_agent/master_driver.sv(51) @ 75: uvm_test_top.env_h.m_agt[0].m_drv [MASTER DRV] THIS IS AHB DRIVER 
 ----------------------------------------
Name          Type      Size  Value     
----------------------------------------
req           trans     -     @1016     
  HRESETn     integral  1     'd0       
  HBURST      integral  3     'd2       
  HRESP       integral  1     'd0       
  HADDR       integral  32    'h692fdfc0
  HTRANS      integral  2     3         
  HWDATA      integral  32    'h71a03972
  HLEN        integral  8     'd4       
  HRDATA      integral  32    'd0       
  HSIZE       integral  3     'd1       
  HWRITE      integral  1     'd0       
  HREADY_OUT  integral  1     'd0       
----------------------------------------

** Warning: (vsim-3829) Non-existent associative array entry. Returning default value.
   Time: 75 ns  Iteration: 2  Process: /uvm_pkg::uvm_task_phase::execute/#FORK#137(#ublk#215181159#137)_7fefec436f2 File: ../master_agent/master_monitor.sv Line: 95
                  75master monitor read operation mem[1764745158]=0
UVM_INFO ../master_agent/master_monitor.sv(99) @ 75: uvm_test_top.env_h.m_agt[0].m_mon [master monitor] Printing from master monitor 
 ----------------------------------------
Name          Type      Size  Value     
----------------------------------------
txn           trans     -     @682      
  HRESETn     integral  1     'd0       
  HBURST      integral  3     'd2       
  HRESP       integral  1     3         
  HADDR       integral  32    'h692fdfc6
  HTRANS      integral  2     2         
  HWDATA      integral  32    'h0       
  HLEN        integral  8     'd0       
  HRDATA      integral  32    'd0       
  HSIZE       integral  3     'd1       
  HWRITE      integral  1     'd0       
  HREADY_OUT  integral  1     'd0       
----------------------------------------

** Warning: (vsim-3829) Non-existent associative array entry. Returning default value.
   Time: 75 ns  Iteration: 2  Process: /uvm_pkg::uvm_task_phase::execute/#FORK#137(#ublk#215181159#137)_7fefec436f2 File: ../master_agent/master_monitor.sv Line: 103
master monitor read operation mem[1764745158]=00000000
** Warning: (vsim-3829) Non-existent associative array entry. Returning default value.
   Time: 75 ns  Iteration: 2  Process: /uvm_pkg::uvm_task_phase::execute/#FORK#137(#ublk#215181159#137)_7fefec1f7ed File: ../slave_agent/slave_monitor.sv Line: 91
                  75slave monitor read operation mem[1764745158]= 00000000
UVM_INFO ../slave_agent/slave_monitor.sv(92) @ 75: uvm_test_top.env_h.s_agt[0].s_mon [slave monitor] Printing from slave monitor 
 ----------------------------------------
Name          Type      Size  Value     
----------------------------------------
txn           trans     -     @1020     
  HRESETn     integral  1     'd0       
  HBURST      integral  3     'd0       
  HRESP       integral  1     'd0       
  HADDR       integral  32    'h692fdfc6
  HTRANS      integral  2     'd0       
  HWDATA      integral  32    'h0       
  HLEN        integral  8     'd0       
  HRDATA      integral  32    'd0       
  HSIZE       integral  3     'd1       
  HWRITE      integral  1     'd0       
  HREADY_OUT  integral  1     'd0       
----------------------------------------

UVM_INFO ../tb/scoreboard.sv(121) @ 75: uvm_test_top.env_h.sbh [SB] Address compared successfully
** Warning: (vsim-3829) Non-existent associative array entry. Returning default value.
   Time: 75 ns  Iteration: 3  Process: /avip_pkg::scoreboard::run_phase/#FORK#90_7fefec1f53a File: ../tb/scoreboard.sv Line: 138
** Warning: (vsim-3829) Non-existent associative array entry. Returning default value.
   Time: 75 ns  Iteration: 3  Process: /avip_pkg::scoreboard::run_phase/#FORK#90_7fefec1f53a File: ../tb/scoreboard.sv Line: 138
UVM_INFO ../tb/scoreboard.sv(140) @ 75: uvm_test_top.env_h.sbh [SB] read data matched successfully
UVM_INFO ../master_agent/master_driver.sv(51) @ 85: uvm_test_top.env_h.m_agt[0].m_drv [MASTER DRV] THIS IS AHB DRIVER 
 ----------------------------------------
Name          Type      Size  Value     
----------------------------------------
req           trans     -     @1016     
  HRESETn     integral  1     'd0       
  HBURST      integral  3     'd2       
  HRESP       integral  1     'd0       
  HADDR       integral  32    'h692fdfc2
  HTRANS      integral  2     3         
  HWDATA      integral  32    'hed68b042
  HLEN        integral  8     'd4       
  HRDATA      integral  32    'd0       
  HSIZE       integral  3     'd1       
  HWRITE      integral  1     'd0       
  HREADY_OUT  integral  1     'd0       
----------------------------------------

** Warning: (vsim-3829) Non-existent associative array entry. Returning default value.
   Time: 85 ns  Iteration: 2  Process: /uvm_pkg::uvm_task_phase::execute/#FORK#137(#ublk#215181159#137)_7fefec436f2 File: ../master_agent/master_monitor.sv Line: 95
                  85master monitor read operation mem[1764745152]=0
UVM_INFO ../master_agent/master_monitor.sv(99) @ 85: uvm_test_top.env_h.m_agt[0].m_mon [master monitor] Printing from master monitor 
 ----------------------------------------
Name          Type      Size  Value     
----------------------------------------
txn           trans     -     @682      
  HRESETn     integral  1     'd0       
  HBURST      integral  3     'd2       
  HRESP       integral  1     3         
  HADDR       integral  32    'h692fdfc0
  HTRANS      integral  2     3         
  HWDATA      integral  32    'h0       
  HLEN        integral  8     'd0       
  HRDATA      integral  32    'd0       
  HSIZE       integral  3     'd1       
  HWRITE      integral  1     'd0       
  HREADY_OUT  integral  1     'd0       
----------------------------------------

** Warning: (vsim-3829) Non-existent associative array entry. Returning default value.
   Time: 85 ns  Iteration: 2  Process: /uvm_pkg::uvm_task_phase::execute/#FORK#137(#ublk#215181159#137)_7fefec436f2 File: ../master_agent/master_monitor.sv Line: 103
master monitor read operation mem[1764745152]=00000000
** Warning: (vsim-3829) Non-existent associative array entry. Returning default value.
   Time: 85 ns  Iteration: 2  Process: /uvm_pkg::uvm_task_phase::execute/#FORK#137(#ublk#215181159#137)_7fefec1f7ed File: ../slave_agent/slave_monitor.sv Line: 91
                  85slave monitor read operation mem[1764745152]= 00000000
UVM_INFO ../slave_agent/slave_monitor.sv(92) @ 85: uvm_test_top.env_h.s_agt[0].s_mon [slave monitor] Printing from slave monitor 
 ----------------------------------------
Name          Type      Size  Value     
----------------------------------------
txn           trans     -     @1024     
  HRESETn     integral  1     'd0       
  HBURST      integral  3     'd0       
  HRESP       integral  1     'd0       
  HADDR       integral  32    'h692fdfc0
  HTRANS      integral  2     'd0       
  HWDATA      integral  32    'h0       
  HLEN        integral  8     'd0       
  HRDATA      integral  32    'd0       
  HSIZE       integral  3     'd1       
  HWRITE      integral  1     'd0       
  HREADY_OUT  integral  1     'd0       
----------------------------------------

UVM_INFO ../tb/scoreboard.sv(121) @ 85: uvm_test_top.env_h.sbh [SB] Address compared successfully
** Warning: (vsim-3829) Non-existent associative array entry. Returning default value.
   Time: 85 ns  Iteration: 3  Process: /avip_pkg::scoreboard::run_phase/#FORK#90_7fefec1f53a File: ../tb/scoreboard.sv Line: 138
** Warning: (vsim-3829) Non-existent associative array entry. Returning default value.
   Time: 85 ns  Iteration: 3  Process: /avip_pkg::scoreboard::run_phase/#FORK#90_7fefec1f53a File: ../tb/scoreboard.sv Line: 138
UVM_INFO ../tb/scoreboard.sv(140) @ 85: uvm_test_top.env_h.sbh [SB] read data matched successfully
UVM_INFO ../master_agent/master_driver.sv(51) @ 95: uvm_test_top.env_h.m_agt[0].m_drv [MASTER DRV] THIS IS AHB DRIVER 
 ----------------------------------------
Name          Type      Size  Value     
----------------------------------------
req           trans     -     @1016     
  HRESETn     integral  1     'd0       
  HBURST      integral  3     'd2       
  HRESP       integral  1     'd0       
  HADDR       integral  32    'h692fdfc4
  HTRANS      integral  2     3         
  HWDATA      integral  32    'h40372a75
  HLEN        integral  8     'd4       
  HRDATA      integral  32    'd0       
  HSIZE       integral  3     'd1       
  HWRITE      integral  1     'd0       
  HREADY_OUT  integral  1     'd0       
----------------------------------------

** Warning: (vsim-3829) Non-existent associative array entry. Returning default value.
   Time: 95 ns  Iteration: 2  Process: /uvm_pkg::uvm_task_phase::execute/#FORK#137(#ublk#215181159#137)_7fefec436f2 File: ../master_agent/master_monitor.sv Line: 95
                  95master monitor read operation mem[1764745154]=0
UVM_INFO ../master_agent/master_monitor.sv(99) @ 95: uvm_test_top.env_h.m_agt[0].m_mon [master monitor] Printing from master monitor 
 ----------------------------------------
Name          Type      Size  Value     
----------------------------------------
txn           trans     -     @682      
  HRESETn     integral  1     'd0       
  HBURST      integral  3     'd2       
  HRESP       integral  1     3         
  HADDR       integral  32    'h692fdfc2
  HTRANS      integral  2     3         
  HWDATA      integral  32    'h0       
  HLEN        integral  8     'd0       
  HRDATA      integral  32    'd0       
  HSIZE       integral  3     'd1       
  HWRITE      integral  1     'd0       
  HREADY_OUT  integral  1     'd0       
----------------------------------------

** Warning: (vsim-3829) Non-existent associative array entry. Returning default value.
   Time: 95 ns  Iteration: 2  Process: /uvm_pkg::uvm_task_phase::execute/#FORK#137(#ublk#215181159#137)_7fefec436f2 File: ../master_agent/master_monitor.sv Line: 103
master monitor read operation mem[1764745154]=00000000
** Warning: (vsim-3829) Non-existent associative array entry. Returning default value.
   Time: 95 ns  Iteration: 2  Process: /uvm_pkg::uvm_task_phase::execute/#FORK#137(#ublk#215181159#137)_7fefec1f7ed File: ../slave_agent/slave_monitor.sv Line: 91
                  95slave monitor read operation mem[1764745154]= 00000000
UVM_INFO ../slave_agent/slave_monitor.sv(92) @ 95: uvm_test_top.env_h.s_agt[0].s_mon [slave monitor] Printing from slave monitor 
 ----------------------------------------
Name          Type      Size  Value     
----------------------------------------
txn           trans     -     @1028     
  HRESETn     integral  1     'd0       
  HBURST      integral  3     'd0       
  HRESP       integral  1     'd0       
  HADDR       integral  32    'h692fdfc2
  HTRANS      integral  2     'd0       
  HWDATA      integral  32    'h0       
  HLEN        integral  8     'd0       
  HRDATA      integral  32    'd0       
  HSIZE       integral  3     'd1       
  HWRITE      integral  1     'd0       
  HREADY_OUT  integral  1     'd0       
----------------------------------------

UVM_INFO ../tb/scoreboard.sv(121) @ 95: uvm_test_top.env_h.sbh [SB] Address compared successfully
** Warning: (vsim-3829) Non-existent associative array entry. Returning default value.
   Time: 95 ns  Iteration: 3  Process: /avip_pkg::scoreboard::run_phase/#FORK#90_7fefec1f53a File: ../tb/scoreboard.sv Line: 138
** Warning: (vsim-3829) Non-existent associative array entry. Returning default value.
   Time: 95 ns  Iteration: 3  Process: /avip_pkg::scoreboard::run_phase/#FORK#90_7fefec1f53a File: ../tb/scoreboard.sv Line: 138
UVM_INFO ../tb/scoreboard.sv(140) @ 95: uvm_test_top.env_h.sbh [SB] read data matched successfully
UVM_INFO ../master_agent/master_seqs.sv(133) @ 95: uvm_test_top.env_h.m_agt[0].m_seqr@@s1 [WRAP SEQUENCE] DATA FROM THE WRAP SEQUENCE ----------------------------------------
Name          Type      Size  Value     
----------------------------------------
req           trans     -     @1036     
  HRESETn     integral  1     'd0       
  HBURST      integral  3     6         
  HRESP       integral  1     'd0       
  HADDR       integral  32    'h67b11ec5
  HTRANS      integral  2     2         
  HWDATA      integral  32    'h806d57fc
  HLEN        integral  8     'd16      
  HRDATA      integral  32    'd0       
  HSIZE       integral  3     'd0       
  HWRITE      integral  1     1         
  HREADY_OUT  integral  1     'd0       
----------------------------------------

aaaaaaaaaaaaaaaaaaaaaaaaaaaaaaaaaaa = 3
UVM_INFO ../master_agent/master_driver.sv(51) @ 125: uvm_test_top.env_h.m_agt[0].m_drv [MASTER DRV] THIS IS AHB DRIVER 
 ----------------------------------------
Name          Type      Size  Value     
----------------------------------------
req           trans     -     @1036     
  HRESETn     integral  1     'd0       
  HBURST      integral  3     6         
  HRESP       integral  1     'd0       
  HADDR       integral  32    'h67b11ec5
  HTRANS      integral  2     2         
  HWDATA      integral  32    'h806d57fc
  HLEN        integral  8     'd16      
  HRDATA      integral  32    'd0       
  HSIZE       integral  3     'd0       
  HWRITE      integral  1     1         
  HREADY_OUT  integral  1     'd0       
----------------------------------------

** Warning: (vsim-3829) Non-existent associative array entry. Returning default value.
   Time: 125 ns  Iteration: 2  Process: /uvm_pkg::uvm_task_phase::execute/#FORK#137(#ublk#215181159#137)_7fefec436f2 File: ../master_agent/master_monitor.sv Line: 95
                 125master monitor read operation mem[1764745156]=0
UVM_INFO ../master_agent/master_monitor.sv(99) @ 125: uvm_test_top.env_h.m_agt[0].m_mon [master monitor] Printing from master monitor 
 ----------------------------------------
Name          Type      Size  Value     
----------------------------------------
txn           trans     -     @682      
  HRESETn     integral  1     'd0       
  HBURST      integral  3     'd2       
  HRESP       integral  1     3         
  HADDR       integral  32    'h692fdfc4
  HTRANS      integral  2     3         
  HWDATA      integral  32    'h0       
  HLEN        integral  8     'd0       
  HRDATA      integral  32    'd0       
  HSIZE       integral  3     'd1       
  HWRITE      integral  1     'd0       
  HREADY_OUT  integral  1     'd0       
----------------------------------------

** Warning: (vsim-3829) Non-existent associative array entry. Returning default value.
   Time: 125 ns  Iteration: 2  Process: /uvm_pkg::uvm_task_phase::execute/#FORK#137(#ublk#215181159#137)_7fefec436f2 File: ../master_agent/master_monitor.sv Line: 103
master monitor read operation mem[1764745156]=00000000
** Warning: (vsim-3829) Non-existent associative array entry. Returning default value.
   Time: 125 ns  Iteration: 2  Process: /uvm_pkg::uvm_task_phase::execute/#FORK#137(#ublk#215181159#137)_7fefec1f7ed File: ../slave_agent/slave_monitor.sv Line: 91
                 125slave monitor read operation mem[1764745156]= 00000000
UVM_INFO ../slave_agent/slave_monitor.sv(92) @ 125: uvm_test_top.env_h.s_agt[0].s_mon [slave monitor] Printing from slave monitor 
 ----------------------------------------
Name          Type      Size  Value     
----------------------------------------
txn           trans     -     @1032     
  HRESETn     integral  1     'd0       
  HBURST      integral  3     'd0       
  HRESP       integral  1     'd0       
  HADDR       integral  32    'h692fdfc4
  HTRANS      integral  2     'd0       
  HWDATA      integral  32    'h0       
  HLEN        integral  8     'd0       
  HRDATA      integral  32    'd0       
  HSIZE       integral  3     'd1       
  HWRITE      integral  1     'd0       
  HREADY_OUT  integral  1     'd0       
----------------------------------------

UVM_INFO ../tb/scoreboard.sv(121) @ 125: uvm_test_top.env_h.sbh [SB] Address compared successfully
** Warning: (vsim-3829) Non-existent associative array entry. Returning default value.
   Time: 125 ns  Iteration: 3  Process: /avip_pkg::scoreboard::run_phase/#FORK#90_7fefec1f53a File: ../tb/scoreboard.sv Line: 125
** Warning: (vsim-3829) Non-existent associative array entry. Returning default value.
   Time: 125 ns  Iteration: 3  Process: /avip_pkg::scoreboard::run_phase/#FORK#90_7fefec1f53a File: ../tb/scoreboard.sv Line: 125
UVM_INFO ../tb/scoreboard.sv(127) @ 125: uvm_test_top.env_h.sbh [SB] write data matched successfully
UVM_INFO ../master_agent/master_driver.sv(51) @ 135: uvm_test_top.env_h.m_agt[0].m_drv [MASTER DRV] THIS IS AHB DRIVER 
 ----------------------------------------
Name          Type      Size  Value     
----------------------------------------
req           trans     -     @1036     
  HRESETn     integral  1     'd0       
  HBURST      integral  3     6         
  HRESP       integral  1     'd0       
  HADDR       integral  32    'h67b11ec6
  HTRANS      integral  2     3         
  HWDATA      integral  32    'hcadc268b
  HLEN        integral  8     'd16      
  HRDATA      integral  32    'd0       
  HSIZE       integral  3     'd0       
  HWRITE      integral  1     1         
  HREADY_OUT  integral  1     'd0       
----------------------------------------

UVM_INFO ../master_agent/master_monitor.sv(99) @ 135: uvm_test_top.env_h.m_agt[0].m_mon [master monitor] Printing from master monitor 
 ----------------------------------------
Name          Type      Size  Value     
----------------------------------------
txn           trans     -     @682      
  HRESETn     integral  1     'd0       
  HBURST      integral  3     6         
  HRESP       integral  1     3         
  HADDR       integral  32    'h67b11ec5
  HTRANS      integral  2     2         
  HWDATA      integral  32    'h0       
  HLEN        integral  8     'd0       
  HRDATA      integral  32    'd0       
  HSIZE       integral  3     'd0       
  HWRITE      integral  1     1         
  HREADY_OUT  integral  1     'd0       
----------------------------------------

                 135master monitor write operation mem[1739660997]=00000057
                 135slave monitor write operation mem[1739660997]= 00000057
UVM_INFO ../slave_agent/slave_monitor.sv(92) @ 135: uvm_test_top.env_h.s_agt[0].s_mon [slave monitor] Printing from slave monitor 
 ----------------------------------------
Name          Type      Size  Value     
----------------------------------------
txn           trans     -     @1040     
  HRESETn     integral  1     'd0       
  HBURST      integral  3     'd0       
  HRESP       integral  1     'd0       
  HADDR       integral  32    'h67b11ec5
  HTRANS      integral  2     'd0       
  HWDATA      integral  32    'h0       
  HLEN        integral  8     'd0       
  HRDATA      integral  32    'd0       
  HSIZE       integral  3     'd0       
  HWRITE      integral  1     1         
  HREADY_OUT  integral  1     'd0       
----------------------------------------

UVM_INFO ../tb/scoreboard.sv(121) @ 135: uvm_test_top.env_h.sbh [SB] Address compared successfully
** Warning: (vsim-3829) Non-existent associative array entry. Returning default value.
   Time: 135 ns  Iteration: 3  Process: /avip_pkg::scoreboard::run_phase/#FORK#90_7fefec1f53a File: ../tb/scoreboard.sv Line: 125
** Warning: (vsim-3829) Non-existent associative array entry. Returning default value.
   Time: 135 ns  Iteration: 3  Process: /avip_pkg::scoreboard::run_phase/#FORK#90_7fefec1f53a File: ../tb/scoreboard.sv Line: 125
UVM_INFO ../tb/scoreboard.sv(127) @ 135: uvm_test_top.env_h.sbh [SB] write data matched successfully
UVM_INFO ../master_agent/master_driver.sv(51) @ 145: uvm_test_top.env_h.m_agt[0].m_drv [MASTER DRV] THIS IS AHB DRIVER 
 ----------------------------------------
Name          Type      Size  Value     
----------------------------------------
req           trans     -     @1036     
  HRESETn     integral  1     'd0       
  HBURST      integral  3     6         
  HRESP       integral  1     'd0       
  HADDR       integral  32    'h67b11ec7
  HTRANS      integral  2     3         
  HWDATA      integral  32    'hd2e749a8
  HLEN        integral  8     'd16      
  HRDATA      integral  32    'd0       
  HSIZE       integral  3     'd0       
  HWRITE      integral  1     1         
  HREADY_OUT  integral  1     'd0       
----------------------------------------

UVM_INFO ../master_agent/master_monitor.sv(99) @ 145: uvm_test_top.env_h.m_agt[0].m_mon [master monitor] Printing from master monitor 
 ----------------------------------------
Name          Type      Size  Value     
----------------------------------------
txn           trans     -     @682      
  HRESETn     integral  1     'd0       
  HBURST      integral  3     6         
  HRESP       integral  1     3         
  HADDR       integral  32    'h67b11ec6
  HTRANS      integral  2     3         
  HWDATA      integral  32    'h0       
  HLEN        integral  8     'd0       
  HRDATA      integral  32    'd0       
  HSIZE       integral  3     'd0       
  HWRITE      integral  1     1         
  HREADY_OUT  integral  1     'd0       
----------------------------------------

                 145master monitor write operation mem[1739660998]=000000dc
                 145slave monitor write operation mem[1739660998]= 000000dc
UVM_INFO ../slave_agent/slave_monitor.sv(92) @ 145: uvm_test_top.env_h.s_agt[0].s_mon [slave monitor] Printing from slave monitor 
 ----------------------------------------
Name          Type      Size  Value     
----------------------------------------
txn           trans     -     @1044     
  HRESETn     integral  1     'd0       
  HBURST      integral  3     'd0       
  HRESP       integral  1     'd0       
  HADDR       integral  32    'h67b11ec6
  HTRANS      integral  2     'd0       
  HWDATA      integral  32    'h0       
  HLEN        integral  8     'd0       
  HRDATA      integral  32    'd0       
  HSIZE       integral  3     'd0       
  HWRITE      integral  1     1         
  HREADY_OUT  integral  1     'd0       
----------------------------------------

UVM_INFO ../tb/scoreboard.sv(121) @ 145: uvm_test_top.env_h.sbh [SB] Address compared successfully
** Warning: (vsim-3829) Non-existent associative array entry. Returning default value.
   Time: 145 ns  Iteration: 3  Process: /avip_pkg::scoreboard::run_phase/#FORK#90_7fefec1f53a File: ../tb/scoreboard.sv Line: 125
** Warning: (vsim-3829) Non-existent associative array entry. Returning default value.
   Time: 145 ns  Iteration: 3  Process: /avip_pkg::scoreboard::run_phase/#FORK#90_7fefec1f53a File: ../tb/scoreboard.sv Line: 125
UVM_INFO ../tb/scoreboard.sv(127) @ 145: uvm_test_top.env_h.sbh [SB] write data matched successfully
UVM_INFO ../master_agent/master_driver.sv(51) @ 155: uvm_test_top.env_h.m_agt[0].m_drv [MASTER DRV] THIS IS AHB DRIVER 
 ----------------------------------------
Name          Type      Size  Value     
----------------------------------------
req           trans     -     @1036     
  HRESETn     integral  1     'd0       
  HBURST      integral  3     6         
  HRESP       integral  1     'd0       
  HADDR       integral  32    'h67b11ec8
  HTRANS      integral  2     3         
  HWDATA      integral  32    'h135734e7
  HLEN        integral  8     'd16      
  HRDATA      integral  32    'd0       
  HSIZE       integral  3     'd0       
  HWRITE      integral  1     1         
  HREADY_OUT  integral  1     'd0       
----------------------------------------

UVM_INFO ../master_agent/master_monitor.sv(99) @ 155: uvm_test_top.env_h.m_agt[0].m_mon [master monitor] Printing from master monitor 
 ----------------------------------------
Name          Type      Size  Value     
----------------------------------------
txn           trans     -     @682      
  HRESETn     integral  1     'd0       
  HBURST      integral  3     6         
  HRESP       integral  1     3         
  HADDR       integral  32    'h67b11ec7
  HTRANS      integral  2     3         
  HWDATA      integral  32    'h0       
  HLEN        integral  8     'd0       
  HRDATA      integral  32    'd0       
  HSIZE       integral  3     'd0       
  HWRITE      integral  1     1         
  HREADY_OUT  integral  1     'd0       
----------------------------------------

                 155master monitor write operation mem[1739660999]=000000d2
                 155slave monitor write operation mem[1739660999]= 000000d2
UVM_INFO ../slave_agent/slave_monitor.sv(92) @ 155: uvm_test_top.env_h.s_agt[0].s_mon [slave monitor] Printing from slave monitor 
 ----------------------------------------
Name          Type      Size  Value     
----------------------------------------
txn           trans     -     @1048     
  HRESETn     integral  1     'd0       
  HBURST      integral  3     'd0       
  HRESP       integral  1     'd0       
  HADDR       integral  32    'h67b11ec7
  HTRANS      integral  2     'd0       
  HWDATA      integral  32    'h0       
  HLEN        integral  8     'd0       
  HRDATA      integral  32    'd0       
  HSIZE       integral  3     'd0       
  HWRITE      integral  1     1         
  HREADY_OUT  integral  1     'd0       
----------------------------------------

UVM_INFO ../tb/scoreboard.sv(121) @ 155: uvm_test_top.env_h.sbh [SB] Address compared successfully
** Warning: (vsim-3829) Non-existent associative array entry. Returning default value.
   Time: 155 ns  Iteration: 3  Process: /avip_pkg::scoreboard::run_phase/#FORK#90_7fefec1f53a File: ../tb/scoreboard.sv Line: 125
** Warning: (vsim-3829) Non-existent associative array entry. Returning default value.
   Time: 155 ns  Iteration: 3  Process: /avip_pkg::scoreboard::run_phase/#FORK#90_7fefec1f53a File: ../tb/scoreboard.sv Line: 125
UVM_INFO ../tb/scoreboard.sv(127) @ 155: uvm_test_top.env_h.sbh [SB] write data matched successfully
aaaaaaaaaaaaaaaaaaaaaaaaaaaaaaaaaaa = 1
UVM_INFO ../master_agent/master_driver.sv(51) @ 205: uvm_test_top.env_h.m_agt[0].m_drv [MASTER DRV] THIS IS AHB DRIVER 
 ----------------------------------------
Name          Type      Size  Value     
----------------------------------------
req           trans     -     @1036     
  HRESETn     integral  1     'd0       
  HBURST      integral  3     6         
  HRESP       integral  1     'd0       
  HADDR       integral  32    'h67b11ec9
  HTRANS      integral  2     3         
  HWDATA      integral  32    'h11608b94
  HLEN        integral  8     'd16      
  HRDATA      integral  32    'd0       
  HSIZE       integral  3     'd0       
  HWRITE      integral  1     1         
  HREADY_OUT  integral  1     'd0       
----------------------------------------

UVM_INFO ../master_agent/master_monitor.sv(99) @ 205: uvm_test_top.env_h.m_agt[0].m_mon [master monitor] Printing from master monitor 
 ----------------------------------------
Name          Type      Size  Value     
----------------------------------------
txn           trans     -     @682      
  HRESETn     integral  1     'd0       
  HBURST      integral  3     6         
  HRESP       integral  1     3         
  HADDR       integral  32    'h67b11ec8
  HTRANS      integral  2     3         
  HWDATA      integral  32    'h0       
  HLEN        integral  8     'd0       
  HRDATA      integral  32    'd0       
  HSIZE       integral  3     'd0       
  HWRITE      integral  1     1         
  HREADY_OUT  integral  1     'd0       
----------------------------------------

                 205master monitor write operation mem[1739661000]=000000e7
                 205slave monitor write operation mem[1739661000]= 000000e7
UVM_INFO ../slave_agent/slave_monitor.sv(92) @ 205: uvm_test_top.env_h.s_agt[0].s_mon [slave monitor] Printing from slave monitor 
 ----------------------------------------
Name          Type      Size  Value     
----------------------------------------
txn           trans     -     @1052     
  HRESETn     integral  1     'd0       
  HBURST      integral  3     'd0       
  HRESP       integral  1     'd0       
  HADDR       integral  32    'h67b11ec8
  HTRANS      integral  2     'd0       
  HWDATA      integral  32    'h0       
  HLEN        integral  8     'd0       
  HRDATA      integral  32    'd0       
  HSIZE       integral  3     'd0       
  HWRITE      integral  1     1         
  HREADY_OUT  integral  1     'd0       
----------------------------------------

UVM_INFO ../tb/scoreboard.sv(121) @ 205: uvm_test_top.env_h.sbh [SB] Address compared successfully
** Warning: (vsim-3829) Non-existent associative array entry. Returning default value.
   Time: 205 ns  Iteration: 3  Process: /avip_pkg::scoreboard::run_phase/#FORK#90_7fefec1f53a File: ../tb/scoreboard.sv Line: 125
** Warning: (vsim-3829) Non-existent associative array entry. Returning default value.
   Time: 205 ns  Iteration: 3  Process: /avip_pkg::scoreboard::run_phase/#FORK#90_7fefec1f53a File: ../tb/scoreboard.sv Line: 125
UVM_INFO ../tb/scoreboard.sv(127) @ 205: uvm_test_top.env_h.sbh [SB] write data matched successfully
UVM_INFO ../master_agent/master_driver.sv(51) @ 215: uvm_test_top.env_h.m_agt[0].m_drv [MASTER DRV] THIS IS AHB DRIVER 
 ----------------------------------------
Name          Type      Size  Value     
----------------------------------------
req           trans     -     @1036     
  HRESETn     integral  1     'd0       
  HBURST      integral  3     6         
  HRESP       integral  1     'd0       
  HADDR       integral  32    'h67b11eca
  HTRANS      integral  2     3         
  HWDATA      integral  32    'h6bcdc063
  HLEN        integral  8     'd16      
  HRDATA      integral  32    'd0       
  HSIZE       integral  3     'd0       
  HWRITE      integral  1     1         
  HREADY_OUT  integral  1     'd0       
----------------------------------------

UVM_INFO ../master_agent/master_monitor.sv(99) @ 215: uvm_test_top.env_h.m_agt[0].m_mon [master monitor] Printing from master monitor 
 ----------------------------------------
Name          Type      Size  Value     
----------------------------------------
txn           trans     -     @682      
  HRESETn     integral  1     'd0       
  HBURST      integral  3     6         
  HRESP       integral  1     3         
  HADDR       integral  32    'h67b11ec9
  HTRANS      integral  2     3         
  HWDATA      integral  32    'h0       
  HLEN        integral  8     'd0       
  HRDATA      integral  32    'd0       
  HSIZE       integral  3     'd0       
  HWRITE      integral  1     1         
  HREADY_OUT  integral  1     'd0       
----------------------------------------

                 215master monitor write operation mem[1739661001]=0000008b
                 215slave monitor write operation mem[1739661001]= 0000008b
UVM_INFO ../slave_agent/slave_monitor.sv(92) @ 215: uvm_test_top.env_h.s_agt[0].s_mon [slave monitor] Printing from slave monitor 
 ----------------------------------------
Name          Type      Size  Value     
----------------------------------------
txn           trans     -     @1056     
  HRESETn     integral  1     'd0       
  HBURST      integral  3     'd0       
  HRESP       integral  1     'd0       
  HADDR       integral  32    'h67b11ec9
  HTRANS      integral  2     'd0       
  HWDATA      integral  32    'h0       
  HLEN        integral  8     'd0       
  HRDATA      integral  32    'd0       
  HSIZE       integral  3     'd0       
  HWRITE      integral  1     1         
  HREADY_OUT  integral  1     'd0       
----------------------------------------

UVM_INFO ../tb/scoreboard.sv(121) @ 215: uvm_test_top.env_h.sbh [SB] Address compared successfully
** Warning: (vsim-3829) Non-existent associative array entry. Returning default value.
   Time: 215 ns  Iteration: 3  Process: /avip_pkg::scoreboard::run_phase/#FORK#90_7fefec1f53a File: ../tb/scoreboard.sv Line: 125
** Warning: (vsim-3829) Non-existent associative array entry. Returning default value.
   Time: 215 ns  Iteration: 3  Process: /avip_pkg::scoreboard::run_phase/#FORK#90_7fefec1f53a File: ../tb/scoreboard.sv Line: 125
UVM_INFO ../tb/scoreboard.sv(127) @ 215: uvm_test_top.env_h.sbh [SB] write data matched successfully
UVM_INFO ../master_agent/master_driver.sv(51) @ 225: uvm_test_top.env_h.m_agt[0].m_drv [MASTER DRV] THIS IS AHB DRIVER 
 ----------------------------------------
Name          Type      Size  Value     
----------------------------------------
req           trans     -     @1036     
  HRESETn     integral  1     'd0       
  HBURST      integral  3     6         
  HRESP       integral  1     'd0       
  HADDR       integral  32    'h67b11ecb
  HTRANS      integral  2     3         
  HWDATA      integral  32    'h92066034
  HLEN        integral  8     'd16      
  HRDATA      integral  32    'd0       
  HSIZE       integral  3     'd0       
  HWRITE      integral  1     1         
  HREADY_OUT  integral  1     'd0       
----------------------------------------

UVM_INFO ../master_agent/master_monitor.sv(99) @ 225: uvm_test_top.env_h.m_agt[0].m_mon [master monitor] Printing from master monitor 
 ----------------------------------------
Name          Type      Size  Value     
----------------------------------------
txn           trans     -     @682      
  HRESETn     integral  1     'd0       
  HBURST      integral  3     6         
  HRESP       integral  1     1         
  HADDR       integral  32    'h67b11eca
  HTRANS      integral  2     3         
  HWDATA      integral  32    'h0       
  HLEN        integral  8     'd0       
  HRDATA      integral  32    'd0       
  HSIZE       integral  3     'd0       
  HWRITE      integral  1     1         
  HREADY_OUT  integral  1     'd0       
----------------------------------------

                 225master monitor write operation mem[1739661002]=000000cd
                 225slave monitor write operation mem[1739661002]= 000000cd
UVM_INFO ../slave_agent/slave_monitor.sv(92) @ 225: uvm_test_top.env_h.s_agt[0].s_mon [slave monitor] Printing from slave monitor 
 ----------------------------------------
Name          Type      Size  Value     
----------------------------------------
txn           trans     -     @1060     
  HRESETn     integral  1     'd0       
  HBURST      integral  3     'd0       
  HRESP       integral  1     'd0       
  HADDR       integral  32    'h67b11eca
  HTRANS      integral  2     'd0       
  HWDATA      integral  32    'h0       
  HLEN        integral  8     'd0       
  HRDATA      integral  32    'd0       
  HSIZE       integral  3     'd0       
  HWRITE      integral  1     1         
  HREADY_OUT  integral  1     'd0       
----------------------------------------

UVM_INFO ../tb/scoreboard.sv(121) @ 225: uvm_test_top.env_h.sbh [SB] Address compared successfully
** Warning: (vsim-3829) Non-existent associative array entry. Returning default value.
   Time: 225 ns  Iteration: 3  Process: /avip_pkg::scoreboard::run_phase/#FORK#90_7fefec1f53a File: ../tb/scoreboard.sv Line: 125
** Warning: (vsim-3829) Non-existent associative array entry. Returning default value.
   Time: 225 ns  Iteration: 3  Process: /avip_pkg::scoreboard::run_phase/#FORK#90_7fefec1f53a File: ../tb/scoreboard.sv Line: 125
UVM_INFO ../tb/scoreboard.sv(127) @ 225: uvm_test_top.env_h.sbh [SB] write data matched successfully
UVM_INFO ../master_agent/master_driver.sv(51) @ 235: uvm_test_top.env_h.m_agt[0].m_drv [MASTER DRV] THIS IS AHB DRIVER 
 ----------------------------------------
Name          Type      Size  Value     
----------------------------------------
req           trans     -     @1036     
  HRESETn     integral  1     'd0       
  HBURST      integral  3     6         
  HRESP       integral  1     'd0       
  HADDR       integral  32    'h67b11ecc
  HTRANS      integral  2     3         
  HWDATA      integral  32    'hb90a0ffe
  HLEN        integral  8     'd16      
  HRDATA      integral  32    'd0       
  HSIZE       integral  3     'd0       
  HWRITE      integral  1     1         
  HREADY_OUT  integral  1     'd0       
----------------------------------------

UVM_INFO ../master_agent/master_monitor.sv(99) @ 235: uvm_test_top.env_h.m_agt[0].m_mon [master monitor] Printing from master monitor 
 ----------------------------------------
Name          Type      Size  Value     
----------------------------------------
txn           trans     -     @682      
  HRESETn     integral  1     'd0       
  HBURST      integral  3     6         
  HRESP       integral  1     1         
  HADDR       integral  32    'h67b11ecb
  HTRANS      integral  2     3         
  HWDATA      integral  32    'h0       
  HLEN        integral  8     'd0       
  HRDATA      integral  32    'd0       
  HSIZE       integral  3     'd0       
  HWRITE      integral  1     1         
  HREADY_OUT  integral  1     'd0       
----------------------------------------

                 235master monitor write operation mem[1739661003]=00000092
                 235slave monitor write operation mem[1739661003]= 00000092
UVM_INFO ../slave_agent/slave_monitor.sv(92) @ 235: uvm_test_top.env_h.s_agt[0].s_mon [slave monitor] Printing from slave monitor 
 ----------------------------------------
Name          Type      Size  Value     
----------------------------------------
txn           trans     -     @1064     
  HRESETn     integral  1     'd0       
  HBURST      integral  3     'd0       
  HRESP       integral  1     'd0       
  HADDR       integral  32    'h67b11ecb
  HTRANS      integral  2     'd0       
  HWDATA      integral  32    'h0       
  HLEN        integral  8     'd0       
  HRDATA      integral  32    'd0       
  HSIZE       integral  3     'd0       
  HWRITE      integral  1     1         
  HREADY_OUT  integral  1     'd0       
----------------------------------------

UVM_INFO ../tb/scoreboard.sv(121) @ 235: uvm_test_top.env_h.sbh [SB] Address compared successfully
** Warning: (vsim-3829) Non-existent associative array entry. Returning default value.
   Time: 235 ns  Iteration: 3  Process: /avip_pkg::scoreboard::run_phase/#FORK#90_7fefec1f53a File: ../tb/scoreboard.sv Line: 125
** Warning: (vsim-3829) Non-existent associative array entry. Returning default value.
   Time: 235 ns  Iteration: 3  Process: /avip_pkg::scoreboard::run_phase/#FORK#90_7fefec1f53a File: ../tb/scoreboard.sv Line: 125
UVM_INFO ../tb/scoreboard.sv(127) @ 235: uvm_test_top.env_h.sbh [SB] write data matched successfully
UVM_INFO ../master_agent/master_driver.sv(51) @ 245: uvm_test_top.env_h.m_agt[0].m_drv [MASTER DRV] THIS IS AHB DRIVER 
 ----------------------------------------
Name          Type      Size  Value     
----------------------------------------
req           trans     -     @1036     
  HRESETn     integral  1     'd0       
  HBURST      integral  3     6         
  HRESP       integral  1     'd0       
  HADDR       integral  32    'h67b11ecd
  HTRANS      integral  2     3         
  HWDATA      integral  32    'h97595eca
  HLEN        integral  8     'd16      
  HRDATA      integral  32    'd0       
  HSIZE       integral  3     'd0       
  HWRITE      integral  1     1         
  HREADY_OUT  integral  1     'd0       
----------------------------------------

UVM_INFO ../master_agent/master_monitor.sv(99) @ 245: uvm_test_top.env_h.m_agt[0].m_mon [master monitor] Printing from master monitor 
 ----------------------------------------
Name          Type      Size  Value     
----------------------------------------
txn           trans     -     @682      
  HRESETn     integral  1     'd0       
  HBURST      integral  3     6         
  HRESP       integral  1     1         
  HADDR       integral  32    'h67b11ecc
  HTRANS      integral  2     3         
  HWDATA      integral  32    'h0       
  HLEN        integral  8     'd0       
  HRDATA      integral  32    'd0       
  HSIZE       integral  3     'd0       
  HWRITE      integral  1     1         
  HREADY_OUT  integral  1     'd0       
----------------------------------------

                 245master monitor write operation mem[1739661004]=000000fe
                 245slave monitor write operation mem[1739661004]= 000000fe
UVM_INFO ../slave_agent/slave_monitor.sv(92) @ 245: uvm_test_top.env_h.s_agt[0].s_mon [slave monitor] Printing from slave monitor 
 ----------------------------------------
Name          Type      Size  Value     
----------------------------------------
txn           trans     -     @1068     
  HRESETn     integral  1     'd0       
  HBURST      integral  3     'd0       
  HRESP       integral  1     'd0       
  HADDR       integral  32    'h67b11ecc
  HTRANS      integral  2     'd0       
  HWDATA      integral  32    'h0       
  HLEN        integral  8     'd0       
  HRDATA      integral  32    'd0       
  HSIZE       integral  3     'd0       
  HWRITE      integral  1     1         
  HREADY_OUT  integral  1     'd0       
----------------------------------------

UVM_INFO ../tb/scoreboard.sv(121) @ 245: uvm_test_top.env_h.sbh [SB] Address compared successfully
** Warning: (vsim-3829) Non-existent associative array entry. Returning default value.
   Time: 245 ns  Iteration: 3  Process: /avip_pkg::scoreboard::run_phase/#FORK#90_7fefec1f53a File: ../tb/scoreboard.sv Line: 125
** Warning: (vsim-3829) Non-existent associative array entry. Returning default value.
   Time: 245 ns  Iteration: 3  Process: /avip_pkg::scoreboard::run_phase/#FORK#90_7fefec1f53a File: ../tb/scoreboard.sv Line: 125
UVM_INFO ../tb/scoreboard.sv(127) @ 245: uvm_test_top.env_h.sbh [SB] write data matched successfully
UVM_INFO ../master_agent/master_driver.sv(51) @ 255: uvm_test_top.env_h.m_agt[0].m_drv [MASTER DRV] THIS IS AHB DRIVER 
 ----------------------------------------
Name          Type      Size  Value     
----------------------------------------
req           trans     -     @1036     
  HRESETn     integral  1     'd0       
  HBURST      integral  3     6         
  HRESP       integral  1     'd0       
  HADDR       integral  32    'h67b11ece
  HTRANS      integral  2     3         
  HWDATA      integral  32    'h8a46e354
  HLEN        integral  8     'd16      
  HRDATA      integral  32    'd0       
  HSIZE       integral  3     'd0       
  HWRITE      integral  1     1         
  HREADY_OUT  integral  1     'd0       
----------------------------------------

UVM_INFO ../master_agent/master_monitor.sv(99) @ 255: uvm_test_top.env_h.m_agt[0].m_mon [master monitor] Printing from master monitor 
 ----------------------------------------
Name          Type      Size  Value     
----------------------------------------
txn           trans     -     @682      
  HRESETn     integral  1     'd0       
  HBURST      integral  3     6         
  HRESP       integral  1     1         
  HADDR       integral  32    'h67b11ecd
  HTRANS      integral  2     3         
  HWDATA      integral  32    'h0       
  HLEN        integral  8     'd0       
  HRDATA      integral  32    'd0       
  HSIZE       integral  3     'd0       
  HWRITE      integral  1     1         
  HREADY_OUT  integral  1     'd0       
----------------------------------------

                 255master monitor write operation mem[1739661005]=0000005e
aaaaaaaaaaaaaaaaaaaaaaaaaaaaaaaaaaa = 2
                 255slave monitor write operation mem[1739661005]= 0000005e
UVM_INFO ../slave_agent/slave_monitor.sv(92) @ 255: uvm_test_top.env_h.s_agt[0].s_mon [slave monitor] Printing from slave monitor 
 ----------------------------------------
Name          Type      Size  Value     
----------------------------------------
txn           trans     -     @1072     
  HRESETn     integral  1     'd0       
  HBURST      integral  3     'd0       
  HRESP       integral  1     'd0       
  HADDR       integral  32    'h67b11ecd
  HTRANS      integral  2     'd0       
  HWDATA      integral  32    'h0       
  HLEN        integral  8     'd0       
  HRDATA      integral  32    'd0       
  HSIZE       integral  3     'd0       
  HWRITE      integral  1     1         
  HREADY_OUT  integral  1     'd0       
----------------------------------------

UVM_INFO ../tb/scoreboard.sv(121) @ 255: uvm_test_top.env_h.sbh [SB] Address compared successfully
** Warning: (vsim-3829) Non-existent associative array entry. Returning default value.
   Time: 255 ns  Iteration: 3  Process: /avip_pkg::scoreboard::run_phase/#FORK#90_7fefec1f53a File: ../tb/scoreboard.sv Line: 125
** Warning: (vsim-3829) Non-existent associative array entry. Returning default value.
   Time: 255 ns  Iteration: 3  Process: /avip_pkg::scoreboard::run_phase/#FORK#90_7fefec1f53a File: ../tb/scoreboard.sv Line: 125
UVM_INFO ../tb/scoreboard.sv(127) @ 255: uvm_test_top.env_h.sbh [SB] write data matched successfully
UVM_INFO ../master_agent/master_driver.sv(51) @ 265: uvm_test_top.env_h.m_agt[0].m_drv [MASTER DRV] THIS IS AHB DRIVER 
 ----------------------------------------
Name          Type      Size  Value     
----------------------------------------
req           trans     -     @1036     
  HRESETn     integral  1     'd0       
  HBURST      integral  3     6         
  HRESP       integral  1     'd0       
  HADDR       integral  32    'h67b11ecf
  HTRANS      integral  2     3         
  HWDATA      integral  32    'h210f8c1e
  HLEN        integral  8     'd16      
  HRDATA      integral  32    'd0       
  HSIZE       integral  3     'd0       
  HWRITE      integral  1     1         
  HREADY_OUT  integral  1     'd0       
----------------------------------------

UVM_INFO ../master_agent/master_monitor.sv(99) @ 265: uvm_test_top.env_h.m_agt[0].m_mon [master monitor] Printing from master monitor 
 ----------------------------------------
Name          Type      Size  Value     
----------------------------------------
txn           trans     -     @682      
  HRESETn     integral  1     'd0       
  HBURST      integral  3     6         
  HRESP       integral  1     1         
  HADDR       integral  32    'h67b11ece
  HTRANS      integral  2     3         
  HWDATA      integral  32    'h0       
  HLEN        integral  8     'd0       
  HRDATA      integral  32    'd0       
  HSIZE       integral  3     'd0       
  HWRITE      integral  1     1         
  HREADY_OUT  integral  1     'd0       
----------------------------------------

                 265master monitor write operation mem[1739661006]=00000046
                 265slave monitor write operation mem[1739661006]= 00000046
UVM_INFO ../slave_agent/slave_monitor.sv(92) @ 265: uvm_test_top.env_h.s_agt[0].s_mon [slave monitor] Printing from slave monitor 
 ----------------------------------------
Name          Type      Size  Value     
----------------------------------------
txn           trans     -     @1076     
  HRESETn     integral  1     'd0       
  HBURST      integral  3     'd0       
  HRESP       integral  1     'd0       
  HADDR       integral  32    'h67b11ece
  HTRANS      integral  2     'd0       
  HWDATA      integral  32    'h0       
  HLEN        integral  8     'd0       
  HRDATA      integral  32    'd0       
  HSIZE       integral  3     'd0       
  HWRITE      integral  1     1         
  HREADY_OUT  integral  1     'd0       
----------------------------------------

UVM_INFO ../tb/scoreboard.sv(121) @ 265: uvm_test_top.env_h.sbh [SB] Address compared successfully
** Warning: (vsim-3829) Non-existent associative array entry. Returning default value.
   Time: 265 ns  Iteration: 3  Process: /avip_pkg::scoreboard::run_phase/#FORK#90_7fefec1f53a File: ../tb/scoreboard.sv Line: 125
** Warning: (vsim-3829) Non-existent associative array entry. Returning default value.
   Time: 265 ns  Iteration: 3  Process: /avip_pkg::scoreboard::run_phase/#FORK#90_7fefec1f53a File: ../tb/scoreboard.sv Line: 125
UVM_INFO ../tb/scoreboard.sv(127) @ 265: uvm_test_top.env_h.sbh [SB] write data matched successfully
UVM_INFO ../master_agent/master_driver.sv(51) @ 275: uvm_test_top.env_h.m_agt[0].m_drv [MASTER DRV] THIS IS AHB DRIVER 
 ----------------------------------------
Name          Type      Size  Value     
----------------------------------------
req           trans     -     @1036     
  HRESETn     integral  1     'd0       
  HBURST      integral  3     6         
  HRESP       integral  1     'd0       
  HADDR       integral  32    'h67b11ec0
  HTRANS      integral  2     3         
  HWDATA      integral  32    'h7d271b1a
  HLEN        integral  8     'd16      
  HRDATA      integral  32    'd0       
  HSIZE       integral  3     'd0       
  HWRITE      integral  1     1         
  HREADY_OUT  integral  1     'd0       
----------------------------------------

UVM_INFO ../master_agent/master_monitor.sv(99) @ 275: uvm_test_top.env_h.m_agt[0].m_mon [master monitor] Printing from master monitor 
 ----------------------------------------
Name          Type      Size  Value     
----------------------------------------
txn           trans     -     @682      
  HRESETn     integral  1     'd0       
  HBURST      integral  3     6         
  HRESP       integral  1     1         
  HADDR       integral  32    'h67b11ecf
  HTRANS      integral  2     3         
  HWDATA      integral  32    'h0       
  HLEN        integral  8     'd0       
  HRDATA      integral  32    'd0       
  HSIZE       integral  3     'd0       
  HWRITE      integral  1     1         
  HREADY_OUT  integral  1     'd0       
----------------------------------------

                 275master monitor write operation mem[1739661007]=00000021
aaaaaaaaaaaaaaaaaaaaaaaaaaaaaaaaaaa = 3
                 275slave monitor write operation mem[1739661007]= 00000021
UVM_INFO ../slave_agent/slave_monitor.sv(92) @ 275: uvm_test_top.env_h.s_agt[0].s_mon [slave monitor] Printing from slave monitor 
 ----------------------------------------
Name          Type      Size  Value     
----------------------------------------
txn           trans     -     @1080     
  HRESETn     integral  1     'd0       
  HBURST      integral  3     'd0       
  HRESP       integral  1     'd0       
  HADDR       integral  32    'h67b11ecf
  HTRANS      integral  2     'd0       
  HWDATA      integral  32    'h0       
  HLEN        integral  8     'd0       
  HRDATA      integral  32    'd0       
  HSIZE       integral  3     'd0       
  HWRITE      integral  1     1         
  HREADY_OUT  integral  1     'd0       
----------------------------------------

UVM_INFO ../tb/scoreboard.sv(121) @ 275: uvm_test_top.env_h.sbh [SB] Address compared successfully
** Warning: (vsim-3829) Non-existent associative array entry. Returning default value.
   Time: 275 ns  Iteration: 3  Process: /avip_pkg::scoreboard::run_phase/#FORK#90_7fefec1f53a File: ../tb/scoreboard.sv Line: 125
** Warning: (vsim-3829) Non-existent associative array entry. Returning default value.
   Time: 275 ns  Iteration: 3  Process: /avip_pkg::scoreboard::run_phase/#FORK#90_7fefec1f53a File: ../tb/scoreboard.sv Line: 125
UVM_INFO ../tb/scoreboard.sv(127) @ 275: uvm_test_top.env_h.sbh [SB] write data matched successfully
UVM_INFO ../master_agent/master_driver.sv(51) @ 285: uvm_test_top.env_h.m_agt[0].m_drv [MASTER DRV] THIS IS AHB DRIVER 
 ----------------------------------------
Name          Type      Size  Value     
----------------------------------------
req           trans     -     @1036     
  HRESETn     integral  1     'd0       
  HBURST      integral  3     6         
  HRESP       integral  1     'd0       
  HADDR       integral  32    'h67b11ec1
  HTRANS      integral  2     3         
  HWDATA      integral  32    'hc7b04a0a
  HLEN        integral  8     'd16      
  HRDATA      integral  32    'd0       
  HSIZE       integral  3     'd0       
  HWRITE      integral  1     1         
  HREADY_OUT  integral  1     'd0       
----------------------------------------

UVM_INFO ../master_agent/master_monitor.sv(99) @ 285: uvm_test_top.env_h.m_agt[0].m_mon [master monitor] Printing from master monitor 
 ----------------------------------------
Name          Type      Size  Value     
----------------------------------------
txn           trans     -     @682      
  HRESETn     integral  1     'd0       
  HBURST      integral  3     6         
  HRESP       integral  1     'd0       
  HADDR       integral  32    'h67b11ec0
  HTRANS      integral  2     3         
  HWDATA      integral  32    'h0       
  HLEN        integral  8     'd0       
  HRDATA      integral  32    'd0       
  HSIZE       integral  3     'd0       
  HWRITE      integral  1     1         
  HREADY_OUT  integral  1     'd0       
----------------------------------------

                 285master monitor write operation mem[1739660992]=0000001a
                 285slave monitor write operation mem[1739660992]= 0000001a
UVM_INFO ../slave_agent/slave_monitor.sv(92) @ 285: uvm_test_top.env_h.s_agt[0].s_mon [slave monitor] Printing from slave monitor 
 ----------------------------------------
Name          Type      Size  Value     
----------------------------------------
txn           trans     -     @1084     
  HRESETn     integral  1     'd0       
  HBURST      integral  3     'd0       
  HRESP       integral  1     'd0       
  HADDR       integral  32    'h67b11ec0
  HTRANS      integral  2     'd0       
  HWDATA      integral  32    'h0       
  HLEN        integral  8     'd0       
  HRDATA      integral  32    'd0       
  HSIZE       integral  3     'd0       
  HWRITE      integral  1     1         
  HREADY_OUT  integral  1     'd0       
----------------------------------------

UVM_INFO ../tb/scoreboard.sv(121) @ 285: uvm_test_top.env_h.sbh [SB] Address compared successfully
** Warning: (vsim-3829) Non-existent associative array entry. Returning default value.
   Time: 285 ns  Iteration: 3  Process: /avip_pkg::scoreboard::run_phase/#FORK#90_7fefec1f53a File: ../tb/scoreboard.sv Line: 125
** Warning: (vsim-3829) Non-existent associative array entry. Returning default value.
   Time: 285 ns  Iteration: 3  Process: /avip_pkg::scoreboard::run_phase/#FORK#90_7fefec1f53a File: ../tb/scoreboard.sv Line: 125
UVM_INFO ../tb/scoreboard.sv(127) @ 285: uvm_test_top.env_h.sbh [SB] write data matched successfully
UVM_INFO ../master_agent/master_driver.sv(51) @ 295: uvm_test_top.env_h.m_agt[0].m_drv [MASTER DRV] THIS IS AHB DRIVER 
 ----------------------------------------
Name          Type      Size  Value     
----------------------------------------
req           trans     -     @1036     
  HRESETn     integral  1     'd0       
  HBURST      integral  3     6         
  HRESP       integral  1     'd0       
  HADDR       integral  32    'h67b11ec2
  HTRANS      integral  2     3         
  HWDATA      integral  32    'h81946374
  HLEN        integral  8     'd16      
  HRDATA      integral  32    'd0       
  HSIZE       integral  3     'd0       
  HWRITE      integral  1     1         
  HREADY_OUT  integral  1     'd0       
----------------------------------------

UVM_INFO ../master_agent/master_monitor.sv(99) @ 295: uvm_test_top.env_h.m_agt[0].m_mon [master monitor] Printing from master monitor 
 ----------------------------------------
Name          Type      Size  Value     
----------------------------------------
txn           trans     -     @682      
  HRESETn     integral  1     'd0       
  HBURST      integral  3     6         
  HRESP       integral  1     'd0       
  HADDR       integral  32    'h67b11ec1
  HTRANS      integral  2     3         
  HWDATA      integral  32    'h0       
  HLEN        integral  8     'd0       
  HRDATA      integral  32    'd0       
  HSIZE       integral  3     'd0       
  HWRITE      integral  1     1         
  HREADY_OUT  integral  1     'd0       
----------------------------------------

                 295master monitor write operation mem[1739660993]=0000004a
                 295slave monitor write operation mem[1739660993]= 0000004a
UVM_INFO ../slave_agent/slave_monitor.sv(92) @ 295: uvm_test_top.env_h.s_agt[0].s_mon [slave monitor] Printing from slave monitor 
 ----------------------------------------
Name          Type      Size  Value     
----------------------------------------
txn           trans     -     @1088     
  HRESETn     integral  1     'd0       
  HBURST      integral  3     'd0       
  HRESP       integral  1     'd0       
  HADDR       integral  32    'h67b11ec1
  HTRANS      integral  2     'd0       
  HWDATA      integral  32    'h0       
  HLEN        integral  8     'd0       
  HRDATA      integral  32    'd0       
  HSIZE       integral  3     'd0       
  HWRITE      integral  1     1         
  HREADY_OUT  integral  1     'd0       
----------------------------------------

UVM_INFO ../tb/scoreboard.sv(121) @ 295: uvm_test_top.env_h.sbh [SB] Address compared successfully
** Warning: (vsim-3829) Non-existent associative array entry. Returning default value.
   Time: 295 ns  Iteration: 3  Process: /avip_pkg::scoreboard::run_phase/#FORK#90_7fefec1f53a File: ../tb/scoreboard.sv Line: 125
** Warning: (vsim-3829) Non-existent associative array entry. Returning default value.
   Time: 295 ns  Iteration: 3  Process: /avip_pkg::scoreboard::run_phase/#FORK#90_7fefec1f53a File: ../tb/scoreboard.sv Line: 125
UVM_INFO ../tb/scoreboard.sv(127) @ 295: uvm_test_top.env_h.sbh [SB] write data matched successfully
aaaaaaaaaaaaaaaaaaaaaaaaaaaaaaaaaaa = 1
UVM_INFO ../master_agent/master_driver.sv(51) @ 365: uvm_test_top.env_h.m_agt[0].m_drv [MASTER DRV] THIS IS AHB DRIVER 
 ----------------------------------------
Name          Type      Size  Value     
----------------------------------------
req           trans     -     @1036     
  HRESETn     integral  1     'd0       
  HBURST      integral  3     6         
  HRESP       integral  1     'd0       
  HADDR       integral  32    'h67b11ec3
  HTRANS      integral  2     3         
  HWDATA      integral  32    'h3f91813b
  HLEN        integral  8     'd16      
  HRDATA      integral  32    'd0       
  HSIZE       integral  3     'd0       
  HWRITE      integral  1     1         
  HREADY_OUT  integral  1     'd0       
----------------------------------------

UVM_INFO ../master_agent/master_monitor.sv(99) @ 365: uvm_test_top.env_h.m_agt[0].m_mon [master monitor] Printing from master monitor 
 ----------------------------------------
Name          Type      Size  Value     
----------------------------------------
txn           trans     -     @682      
  HRESETn     integral  1     'd0       
  HBURST      integral  3     6         
  HRESP       integral  1     3         
  HADDR       integral  32    'h67b11ec2
  HTRANS      integral  2     3         
  HWDATA      integral  32    'h0       
  HLEN        integral  8     'd0       
  HRDATA      integral  32    'd0       
  HSIZE       integral  3     'd0       
  HWRITE      integral  1     1         
  HREADY_OUT  integral  1     'd0       
----------------------------------------

                 365master monitor write operation mem[1739660994]=00000094
                 365slave monitor write operation mem[1739660994]= 00000094
UVM_INFO ../slave_agent/slave_monitor.sv(92) @ 365: uvm_test_top.env_h.s_agt[0].s_mon [slave monitor] Printing from slave monitor 
 ----------------------------------------
Name          Type      Size  Value     
----------------------------------------
txn           trans     -     @1092     
  HRESETn     integral  1     'd0       
  HBURST      integral  3     'd0       
  HRESP       integral  1     'd0       
  HADDR       integral  32    'h67b11ec2
  HTRANS      integral  2     'd0       
  HWDATA      integral  32    'h0       
  HLEN        integral  8     'd0       
  HRDATA      integral  32    'd0       
  HSIZE       integral  3     'd0       
  HWRITE      integral  1     1         
  HREADY_OUT  integral  1     'd0       
----------------------------------------

UVM_INFO ../tb/scoreboard.sv(121) @ 365: uvm_test_top.env_h.sbh [SB] Address compared successfully
** Warning: (vsim-3829) Non-existent associative array entry. Returning default value.
   Time: 365 ns  Iteration: 3  Process: /avip_pkg::scoreboard::run_phase/#FORK#90_7fefec1f53a File: ../tb/scoreboard.sv Line: 125
** Warning: (vsim-3829) Non-existent associative array entry. Returning default value.
   Time: 365 ns  Iteration: 3  Process: /avip_pkg::scoreboard::run_phase/#FORK#90_7fefec1f53a File: ../tb/scoreboard.sv Line: 125
UVM_INFO ../tb/scoreboard.sv(127) @ 365: uvm_test_top.env_h.sbh [SB] write data matched successfully
UVM_INFO ../master_agent/master_driver.sv(51) @ 375: uvm_test_top.env_h.m_agt[0].m_drv [MASTER DRV] THIS IS AHB DRIVER 
 ----------------------------------------
Name          Type      Size  Value     
----------------------------------------
req           trans     -     @1036     
  HRESETn     integral  1     'd0       
  HBURST      integral  3     6         
  HRESP       integral  1     'd0       
  HADDR       integral  32    'h67b11ec4
  HTRANS      integral  2     3         
  HWDATA      integral  32    'hc2035545
  HLEN        integral  8     'd16      
  HRDATA      integral  32    'd0       
  HSIZE       integral  3     'd0       
  HWRITE      integral  1     1         
  HREADY_OUT  integral  1     'd0       
----------------------------------------

UVM_INFO ../master_agent/master_monitor.sv(99) @ 375: uvm_test_top.env_h.m_agt[0].m_mon [master monitor] Printing from master monitor 
 ----------------------------------------
Name          Type      Size  Value     
----------------------------------------
txn           trans     -     @682      
  HRESETn     integral  1     'd0       
  HBURST      integral  3     6         
  HRESP       integral  1     3         
  HADDR       integral  32    'h67b11ec3
  HTRANS      integral  2     3         
  HWDATA      integral  32    'h0       
  HLEN        integral  8     'd0       
  HRDATA      integral  32    'd0       
  HSIZE       integral  3     'd0       
  HWRITE      integral  1     1         
  HREADY_OUT  integral  1     'd0       
----------------------------------------

                 375master monitor write operation mem[1739660995]=0000003f
                 375slave monitor write operation mem[1739660995]= 0000003f
UVM_INFO ../slave_agent/slave_monitor.sv(92) @ 375: uvm_test_top.env_h.s_agt[0].s_mon [slave monitor] Printing from slave monitor 
 ----------------------------------------
Name          Type      Size  Value     
----------------------------------------
txn           trans     -     @1096     
  HRESETn     integral  1     'd0       
  HBURST      integral  3     'd0       
  HRESP       integral  1     'd0       
  HADDR       integral  32    'h67b11ec3
  HTRANS      integral  2     'd0       
  HWDATA      integral  32    'h0       
  HLEN        integral  8     'd0       
  HRDATA      integral  32    'd0       
  HSIZE       integral  3     'd0       
  HWRITE      integral  1     1         
  HREADY_OUT  integral  1     'd0       
----------------------------------------

UVM_INFO ../tb/scoreboard.sv(121) @ 375: uvm_test_top.env_h.sbh [SB] Address compared successfully
** Warning: (vsim-3829) Non-existent associative array entry. Returning default value.
   Time: 375 ns  Iteration: 3  Process: /avip_pkg::scoreboard::run_phase/#FORK#90_7fefec1f53a File: ../tb/scoreboard.sv Line: 125
** Warning: (vsim-3829) Non-existent associative array entry. Returning default value.
   Time: 375 ns  Iteration: 3  Process: /avip_pkg::scoreboard::run_phase/#FORK#90_7fefec1f53a File: ../tb/scoreboard.sv Line: 125
UVM_INFO ../tb/scoreboard.sv(127) @ 375: uvm_test_top.env_h.sbh [SB] write data matched successfully
UVM_INFO ../master_agent/master_seqs.sv(133) @ 375: uvm_test_top.env_h.m_agt[0].m_seqr@@s1 [WRAP SEQUENCE] DATA FROM THE WRAP SEQUENCE ----------------------------------------
Name          Type      Size  Value     
----------------------------------------
req           trans     -     @1104     
  HRESETn     integral  1     'd0       
  HBURST      integral  3     4         
  HRESP       integral  1     'd0       
  HADDR       integral  32    'h344baabc
  HTRANS      integral  2     2         
  HWDATA      integral  32    'ha5eedfb7
  HLEN        integral  8     'd8       
  HRDATA      integral  32    'd0       
  HSIZE       integral  3     'd2       
  HWRITE      integral  1     'd0       
  HREADY_OUT  integral  1     'd0       
----------------------------------------

UVM_INFO ../master_agent/master_driver.sv(51) @ 385: uvm_test_top.env_h.m_agt[0].m_drv [MASTER DRV] THIS IS AHB DRIVER 
 ----------------------------------------
Name          Type      Size  Value     
----------------------------------------
req           trans     -     @1104     
  HRESETn     integral  1     'd0       
  HBURST      integral  3     4         
  HRESP       integral  1     'd0       
  HADDR       integral  32    'h344baabc
  HTRANS      integral  2     2         
  HWDATA      integral  32    'ha5eedfb7
  HLEN        integral  8     'd8       
  HRDATA      integral  32    'd0       
  HSIZE       integral  3     'd2       
  HWRITE      integral  1     'd0       
  HREADY_OUT  integral  1     'd0       
----------------------------------------

UVM_INFO ../master_agent/master_monitor.sv(99) @ 385: uvm_test_top.env_h.m_agt[0].m_mon [master monitor] Printing from master monitor 
 ----------------------------------------
Name          Type      Size  Value     
----------------------------------------
txn           trans     -     @682      
  HRESETn     integral  1     'd0       
  HBURST      integral  3     6         
  HRESP       integral  1     1         
  HADDR       integral  32    'h67b11ec4
  HTRANS      integral  2     3         
  HWDATA      integral  32    'h0       
  HLEN        integral  8     'd0       
  HRDATA      integral  32    'd0       
  HSIZE       integral  3     'd0       
  HWRITE      integral  1     1         
  HREADY_OUT  integral  1     'd0       
----------------------------------------

                 385master monitor write operation mem[1739660996]=00000045
                 385slave monitor write operation mem[1739660996]= 00000045
UVM_INFO ../slave_agent/slave_monitor.sv(92) @ 385: uvm_test_top.env_h.s_agt[0].s_mon [slave monitor] Printing from slave monitor 
 ----------------------------------------
Name          Type      Size  Value     
----------------------------------------
txn           trans     -     @1100     
  HRESETn     integral  1     'd0       
  HBURST      integral  3     'd0       
  HRESP       integral  1     'd0       
  HADDR       integral  32    'h67b11ec4
  HTRANS      integral  2     'd0       
  HWDATA      integral  32    'h0       
  HLEN        integral  8     'd0       
  HRDATA      integral  32    'd0       
  HSIZE       integral  3     'd0       
  HWRITE      integral  1     1         
  HREADY_OUT  integral  1     'd0       
----------------------------------------

UVM_INFO ../tb/scoreboard.sv(121) @ 385: uvm_test_top.env_h.sbh [SB] Address compared successfully
** Warning: (vsim-3829) Non-existent associative array entry. Returning default value.
   Time: 385 ns  Iteration: 3  Process: /avip_pkg::scoreboard::run_phase/#FORK#90_7fefec1f53a File: ../tb/scoreboard.sv Line: 138
** Warning: (vsim-3829) Non-existent associative array entry. Returning default value.
   Time: 385 ns  Iteration: 3  Process: /avip_pkg::scoreboard::run_phase/#FORK#90_7fefec1f53a File: ../tb/scoreboard.sv Line: 138
UVM_INFO ../tb/scoreboard.sv(140) @ 385: uvm_test_top.env_h.sbh [SB] read data matched successfully
UVM_INFO ../master_agent/master_driver.sv(51) @ 395: uvm_test_top.env_h.m_agt[0].m_drv [MASTER DRV] THIS IS AHB DRIVER 
 ----------------------------------------
Name          Type      Size  Value     
----------------------------------------
req           trans     -     @1104     
  HRESETn     integral  1     'd0       
  HBURST      integral  3     4         
  HRESP       integral  1     'd0       
  HADDR       integral  32    'h344baaa0
  HTRANS      integral  2     3         
  HWDATA      integral  32    'h35e0fda9
  HLEN        integral  8     'd8       
  HRDATA      integral  32    'd0       
  HSIZE       integral  3     'd2       
  HWRITE      integral  1     'd0       
  HREADY_OUT  integral  1     'd0       
----------------------------------------

** Warning: (vsim-3829) Non-existent associative array entry. Returning default value.
   Time: 395 ns  Iteration: 2  Process: /uvm_pkg::uvm_task_phase::execute/#FORK#137(#ublk#215181159#137)_7fefec436f2 File: ../master_agent/master_monitor.sv Line: 95
                 395master monitor read operation mem[877374140]=0
UVM_INFO ../master_agent/master_monitor.sv(99) @ 395: uvm_test_top.env_h.m_agt[0].m_mon [master monitor] Printing from master monitor 
 ----------------------------------------
Name          Type      Size  Value     
----------------------------------------
txn           trans     -     @682      
  HRESETn     integral  1     'd0       
  HBURST      integral  3     4         
  HRESP       integral  1     1         
  HADDR       integral  32    'h344baabc
  HTRANS      integral  2     2         
  HWDATA      integral  32    'h0       
  HLEN        integral  8     'd0       
  HRDATA      integral  32    'd0       
  HSIZE       integral  3     'd2       
  HWRITE      integral  1     'd0       
  HREADY_OUT  integral  1     'd0       
----------------------------------------

** Warning: (vsim-3829) Non-existent associative array entry. Returning default value.
   Time: 395 ns  Iteration: 2  Process: /uvm_pkg::uvm_task_phase::execute/#FORK#137(#ublk#215181159#137)_7fefec436f2 File: ../master_agent/master_monitor.sv Line: 103
master monitor read operation mem[877374140]=00000000
** Warning: (vsim-3829) Non-existent associative array entry. Returning default value.
   Time: 395 ns  Iteration: 2  Process: /uvm_pkg::uvm_task_phase::execute/#FORK#137(#ublk#215181159#137)_7fefec1f7ed File: ../slave_agent/slave_monitor.sv Line: 91
                 395slave monitor read operation mem[877374140]= 00000000
UVM_INFO ../slave_agent/slave_monitor.sv(92) @ 395: uvm_test_top.env_h.s_agt[0].s_mon [slave monitor] Printing from slave monitor 
 ----------------------------------------
Name          Type      Size  Value     
----------------------------------------
txn           trans     -     @1108     
  HRESETn     integral  1     'd0       
  HBURST      integral  3     'd0       
  HRESP       integral  1     'd0       
  HADDR       integral  32    'h344baabc
  HTRANS      integral  2     'd0       
  HWDATA      integral  32    'h0       
  HLEN        integral  8     'd0       
  HRDATA      integral  32    'd0       
  HSIZE       integral  3     'd2       
  HWRITE      integral  1     'd0       
  HREADY_OUT  integral  1     'd0       
----------------------------------------

UVM_INFO ../tb/scoreboard.sv(121) @ 395: uvm_test_top.env_h.sbh [SB] Address compared successfully
** Warning: (vsim-3829) Non-existent associative array entry. Returning default value.
   Time: 395 ns  Iteration: 3  Process: /avip_pkg::scoreboard::run_phase/#FORK#90_7fefec1f53a File: ../tb/scoreboard.sv Line: 138
** Warning: (vsim-3829) Non-existent associative array entry. Returning default value.
   Time: 395 ns  Iteration: 3  Process: /avip_pkg::scoreboard::run_phase/#FORK#90_7fefec1f53a File: ../tb/scoreboard.sv Line: 138
UVM_INFO ../tb/scoreboard.sv(140) @ 395: uvm_test_top.env_h.sbh [SB] read data matched successfully
UVM_INFO ../master_agent/master_driver.sv(51) @ 405: uvm_test_top.env_h.m_agt[0].m_drv [MASTER DRV] THIS IS AHB DRIVER 
 ----------------------------------------
Name          Type      Size  Value     
----------------------------------------
req           trans     -     @1104     
  HRESETn     integral  1     'd0       
  HBURST      integral  3     4         
  HRESP       integral  1     'd0       
  HADDR       integral  32    'h344baaa4
  HTRANS      integral  2     3         
  HWDATA      integral  32    'h35ca5bda
  HLEN        integral  8     'd8       
  HRDATA      integral  32    'd0       
  HSIZE       integral  3     'd2       
  HWRITE      integral  1     'd0       
  HREADY_OUT  integral  1     'd0       
----------------------------------------

** Warning: (vsim-3829) Non-existent associative array entry. Returning default value.
   Time: 405 ns  Iteration: 2  Process: /uvm_pkg::uvm_task_phase::execute/#FORK#137(#ublk#215181159#137)_7fefec436f2 File: ../master_agent/master_monitor.sv Line: 95
                 405master monitor read operation mem[877374112]=0
UVM_INFO ../master_agent/master_monitor.sv(99) @ 405: uvm_test_top.env_h.m_agt[0].m_mon [master monitor] Printing from master monitor 
 ----------------------------------------
Name          Type      Size  Value     
----------------------------------------
txn           trans     -     @682      
  HRESETn     integral  1     'd0       
  HBURST      integral  3     4         
  HRESP       integral  1     1         
  HADDR       integral  32    'h344baaa0
  HTRANS      integral  2     3         
  HWDATA      integral  32    'h0       
  HLEN        integral  8     'd0       
  HRDATA      integral  32    'd0       
  HSIZE       integral  3     'd2       
  HWRITE      integral  1     'd0       
  HREADY_OUT  integral  1     'd0       
----------------------------------------

** Warning: (vsim-3829) Non-existent associative array entry. Returning default value.
   Time: 405 ns  Iteration: 2  Process: /uvm_pkg::uvm_task_phase::execute/#FORK#137(#ublk#215181159#137)_7fefec436f2 File: ../master_agent/master_monitor.sv Line: 103
master monitor read operation mem[877374112]=00000000
** Warning: (vsim-3829) Non-existent associative array entry. Returning default value.
   Time: 405 ns  Iteration: 2  Process: /uvm_pkg::uvm_task_phase::execute/#FORK#137(#ublk#215181159#137)_7fefec1f7ed File: ../slave_agent/slave_monitor.sv Line: 91
                 405slave monitor read operation mem[877374112]= 00000000
UVM_INFO ../slave_agent/slave_monitor.sv(92) @ 405: uvm_test_top.env_h.s_agt[0].s_mon [slave monitor] Printing from slave monitor 
 ----------------------------------------
Name          Type      Size  Value     
----------------------------------------
txn           trans     -     @1112     
  HRESETn     integral  1     'd0       
  HBURST      integral  3     'd0       
  HRESP       integral  1     'd0       
  HADDR       integral  32    'h344baaa0
  HTRANS      integral  2     'd0       
  HWDATA      integral  32    'h0       
  HLEN        integral  8     'd0       
  HRDATA      integral  32    'd0       
  HSIZE       integral  3     'd2       
  HWRITE      integral  1     'd0       
  HREADY_OUT  integral  1     'd0       
----------------------------------------

UVM_INFO ../tb/scoreboard.sv(121) @ 405: uvm_test_top.env_h.sbh [SB] Address compared successfully
** Warning: (vsim-3829) Non-existent associative array entry. Returning default value.
   Time: 405 ns  Iteration: 3  Process: /avip_pkg::scoreboard::run_phase/#FORK#90_7fefec1f53a File: ../tb/scoreboard.sv Line: 138
** Warning: (vsim-3829) Non-existent associative array entry. Returning default value.
   Time: 405 ns  Iteration: 3  Process: /avip_pkg::scoreboard::run_phase/#FORK#90_7fefec1f53a File: ../tb/scoreboard.sv Line: 138
UVM_INFO ../tb/scoreboard.sv(140) @ 405: uvm_test_top.env_h.sbh [SB] read data matched successfully
UVM_INFO ../master_agent/master_driver.sv(51) @ 415: uvm_test_top.env_h.m_agt[0].m_drv [MASTER DRV] THIS IS AHB DRIVER 
 ----------------------------------------
Name          Type      Size  Value     
----------------------------------------
req           trans     -     @1104     
  HRESETn     integral  1     'd0       
  HBURST      integral  3     4         
  HRESP       integral  1     'd0       
  HADDR       integral  32    'h344baaa8
  HTRANS      integral  2     3         
  HWDATA      integral  32    'h9ceda5df
  HLEN        integral  8     'd8       
  HRDATA      integral  32    'd0       
  HSIZE       integral  3     'd2       
  HWRITE      integral  1     'd0       
  HREADY_OUT  integral  1     'd0       
----------------------------------------

** Warning: (vsim-3829) Non-existent associative array entry. Returning default value.
   Time: 415 ns  Iteration: 2  Process: /uvm_pkg::uvm_task_phase::execute/#FORK#137(#ublk#215181159#137)_7fefec436f2 File: ../master_agent/master_monitor.sv Line: 95
                 415master monitor read operation mem[877374116]=0
UVM_INFO ../master_agent/master_monitor.sv(99) @ 415: uvm_test_top.env_h.m_agt[0].m_mon [master monitor] Printing from master monitor 
 ----------------------------------------
Name          Type      Size  Value     
----------------------------------------
txn           trans     -     @682      
  HRESETn     integral  1     'd0       
  HBURST      integral  3     4         
  HRESP       integral  1     1         
  HADDR       integral  32    'h344baaa4
  HTRANS      integral  2     3         
  HWDATA      integral  32    'h0       
  HLEN        integral  8     'd0       
  HRDATA      integral  32    'd0       
  HSIZE       integral  3     'd2       
  HWRITE      integral  1     'd0       
  HREADY_OUT  integral  1     'd0       
----------------------------------------

** Warning: (vsim-3829) Non-existent associative array entry. Returning default value.
   Time: 415 ns  Iteration: 2  Process: /uvm_pkg::uvm_task_phase::execute/#FORK#137(#ublk#215181159#137)_7fefec436f2 File: ../master_agent/master_monitor.sv Line: 103
master monitor read operation mem[877374116]=00000000
** Warning: (vsim-3829) Non-existent associative array entry. Returning default value.
   Time: 415 ns  Iteration: 2  Process: /uvm_pkg::uvm_task_phase::execute/#FORK#137(#ublk#215181159#137)_7fefec1f7ed File: ../slave_agent/slave_monitor.sv Line: 91
                 415slave monitor read operation mem[877374116]= 00000000
UVM_INFO ../slave_agent/slave_monitor.sv(92) @ 415: uvm_test_top.env_h.s_agt[0].s_mon [slave monitor] Printing from slave monitor 
 ----------------------------------------
Name          Type      Size  Value     
----------------------------------------
txn           trans     -     @1116     
  HRESETn     integral  1     'd0       
  HBURST      integral  3     'd0       
  HRESP       integral  1     'd0       
  HADDR       integral  32    'h344baaa4
  HTRANS      integral  2     'd0       
  HWDATA      integral  32    'h0       
  HLEN        integral  8     'd0       
  HRDATA      integral  32    'd0       
  HSIZE       integral  3     'd2       
  HWRITE      integral  1     'd0       
  HREADY_OUT  integral  1     'd0       
----------------------------------------

UVM_INFO ../tb/scoreboard.sv(121) @ 415: uvm_test_top.env_h.sbh [SB] Address compared successfully
** Warning: (vsim-3829) Non-existent associative array entry. Returning default value.
   Time: 415 ns  Iteration: 3  Process: /avip_pkg::scoreboard::run_phase/#FORK#90_7fefec1f53a File: ../tb/scoreboard.sv Line: 138
** Warning: (vsim-3829) Non-existent associative array entry. Returning default value.
   Time: 415 ns  Iteration: 3  Process: /avip_pkg::scoreboard::run_phase/#FORK#90_7fefec1f53a File: ../tb/scoreboard.sv Line: 138
UVM_INFO ../tb/scoreboard.sv(140) @ 415: uvm_test_top.env_h.sbh [SB] read data matched successfully
UVM_INFO ../master_agent/master_driver.sv(51) @ 425: uvm_test_top.env_h.m_agt[0].m_drv [MASTER DRV] THIS IS AHB DRIVER 
 ----------------------------------------
Name          Type      Size  Value     
----------------------------------------
req           trans     -     @1104     
  HRESETn     integral  1     'd0       
  HBURST      integral  3     4         
  HRESP       integral  1     'd0       
  HADDR       integral  32    'h344baaac
  HTRANS      integral  2     3         
  HWDATA      integral  32    'hd4944fb2
  HLEN        integral  8     'd8       
  HRDATA      integral  32    'd0       
  HSIZE       integral  3     'd2       
  HWRITE      integral  1     'd0       
  HREADY_OUT  integral  1     'd0       
----------------------------------------

** Warning: (vsim-3829) Non-existent associative array entry. Returning default value.
   Time: 425 ns  Iteration: 2  Process: /uvm_pkg::uvm_task_phase::execute/#FORK#137(#ublk#215181159#137)_7fefec436f2 File: ../master_agent/master_monitor.sv Line: 95
                 425master monitor read operation mem[877374120]=0
UVM_INFO ../master_agent/master_monitor.sv(99) @ 425: uvm_test_top.env_h.m_agt[0].m_mon [master monitor] Printing from master monitor 
 ----------------------------------------
Name          Type      Size  Value     
----------------------------------------
txn           trans     -     @682      
  HRESETn     integral  1     'd0       
  HBURST      integral  3     4         
  HRESP       integral  1     1         
  HADDR       integral  32    'h344baaa8
  HTRANS      integral  2     3         
  HWDATA      integral  32    'h0       
  HLEN        integral  8     'd0       
  HRDATA      integral  32    'd0       
  HSIZE       integral  3     'd2       
  HWRITE      integral  1     'd0       
  HREADY_OUT  integral  1     'd0       
----------------------------------------

** Warning: (vsim-3829) Non-existent associative array entry. Returning default value.
   Time: 425 ns  Iteration: 2  Process: /uvm_pkg::uvm_task_phase::execute/#FORK#137(#ublk#215181159#137)_7fefec436f2 File: ../master_agent/master_monitor.sv Line: 103
master monitor read operation mem[877374120]=00000000
** Warning: (vsim-3829) Non-existent associative array entry. Returning default value.
   Time: 425 ns  Iteration: 2  Process: /uvm_pkg::uvm_task_phase::execute/#FORK#137(#ublk#215181159#137)_7fefec1f7ed File: ../slave_agent/slave_monitor.sv Line: 91
                 425slave monitor read operation mem[877374120]= 00000000
UVM_INFO ../slave_agent/slave_monitor.sv(92) @ 425: uvm_test_top.env_h.s_agt[0].s_mon [slave monitor] Printing from slave monitor 
 ----------------------------------------
Name          Type      Size  Value     
----------------------------------------
txn           trans     -     @1120     
  HRESETn     integral  1     'd0       
  HBURST      integral  3     'd0       
  HRESP       integral  1     'd0       
  HADDR       integral  32    'h344baaa8
  HTRANS      integral  2     'd0       
  HWDATA      integral  32    'h0       
  HLEN        integral  8     'd0       
  HRDATA      integral  32    'd0       
  HSIZE       integral  3     'd2       
  HWRITE      integral  1     'd0       
  HREADY_OUT  integral  1     'd0       
----------------------------------------

UVM_INFO ../tb/scoreboard.sv(121) @ 425: uvm_test_top.env_h.sbh [SB] Address compared successfully
** Warning: (vsim-3829) Non-existent associative array entry. Returning default value.
   Time: 425 ns  Iteration: 3  Process: /avip_pkg::scoreboard::run_phase/#FORK#90_7fefec1f53a File: ../tb/scoreboard.sv Line: 138
** Warning: (vsim-3829) Non-existent associative array entry. Returning default value.
   Time: 425 ns  Iteration: 3  Process: /avip_pkg::scoreboard::run_phase/#FORK#90_7fefec1f53a File: ../tb/scoreboard.sv Line: 138
UVM_INFO ../tb/scoreboard.sv(140) @ 425: uvm_test_top.env_h.sbh [SB] read data matched successfully
UVM_INFO ../master_agent/master_driver.sv(51) @ 435: uvm_test_top.env_h.m_agt[0].m_drv [MASTER DRV] THIS IS AHB DRIVER 
 ----------------------------------------
Name          Type      Size  Value     
----------------------------------------
req           trans     -     @1104     
  HRESETn     integral  1     'd0       
  HBURST      integral  3     4         
  HRESP       integral  1     'd0       
  HADDR       integral  32    'h344baab0
  HTRANS      integral  2     3         
  HWDATA      integral  32    'h4e651197
  HLEN        integral  8     'd8       
  HRDATA      integral  32    'd0       
  HSIZE       integral  3     'd2       
  HWRITE      integral  1     'd0       
  HREADY_OUT  integral  1     'd0       
----------------------------------------

** Warning: (vsim-3829) Non-existent associative array entry. Returning default value.
   Time: 435 ns  Iteration: 2  Process: /uvm_pkg::uvm_task_phase::execute/#FORK#137(#ublk#215181159#137)_7fefec436f2 File: ../master_agent/master_monitor.sv Line: 95
                 435master monitor read operation mem[877374124]=0
UVM_INFO ../master_agent/master_monitor.sv(99) @ 435: uvm_test_top.env_h.m_agt[0].m_mon [master monitor] Printing from master monitor 
 ----------------------------------------
Name          Type      Size  Value     
----------------------------------------
txn           trans     -     @682      
  HRESETn     integral  1     'd0       
