vsim -vopt -voptargs="+acc" -coverage -sva -c -do " log -r /* ;coverage save -onexit mem_cov3;run -all; exit" -wlf wave_file3.wlf -l test3.log -sv_seed random work.top "+UVM_TESTNAME=wrap_seq_test" 
Start time: 13:59:09 on Oct 22,2024
** Note: (vsim-8009) Loading existing optimized design _opt1
//  Questa Sim-64
//  Version 2019.2 linux_x86_64 Apr 16 2019
//
//  Copyright 1991-2019 Mentor Graphics Corporation
//  All Rights Reserved.
//
//  QuestaSim and its associated documentation contain trade
//  secrets and commercial or financial information that are the property of
//  Mentor Graphics Corporation and are privileged, confidential,
//  and exempt from disclosure under the Freedom of Information Act,
//  5 U.S.C. Section 552. Furthermore, this information
//  is prohibited from disclosure under the Trade Secrets Act,
//  18 U.S.C. Section 1905.
//
Loading sv_std.std
Loading work.axi_if(fast)
Loading mtiUvm.uvm_pkg
Loading work.axi_test_pkg(fast)
Loading mtiUvm.questa_uvm_pkg(fast)
Loading work.top(fast)
Loading work.axi_if(fast)
# Loading /home/cad/eda/Questa_2019/questasim/uvm-1.1d/linux_x86_64/uvm_dpi.so
** Warning: (vsim-8634) Code was not compiled with coverage options.
Sv_Seed = 1005456517
 log -r /* 
coverage save -onexit mem_cov3
run -all
----------------------------------------------------------------
UVM-1.1d
(C) 2007-2013 Mentor Graphics Corporation
(C) 2007-2013 Cadence Design Systems, Inc.
(C) 2006-2013 Synopsys, Inc.
(C) 2011-2013 Cypress Semiconductor Corp.
----------------------------------------------------------------

  ***********       IMPORTANT RELEASE NOTES         ************

  You are using a version of the UVM library that has been compiled
  with `UVM_NO_DEPRECATED undefined.
  See http://www.eda.org/svdb/view.php?id=3313 for more details.

  You are using a version of the UVM library that has been compiled
  with `UVM_OBJECT_MUST_HAVE_CONSTRUCTOR undefined.
  See http://www.eda.org/svdb/view.php?id=3770 for more details.

      (Specify +UVM_NO_RELNOTES to turn off this notice)

UVM_INFO verilog_src/questa_uvm_pkg-1.2/src/questa_uvm_pkg.sv(277) @ 0: reporter [Questa UVM] QUESTA_UVM-1.2.3
UVM_INFO verilog_src/questa_uvm_pkg-1.2/src/questa_uvm_pkg.sv(278) @ 0: reporter [Questa UVM]  questa_uvm::init(+struct)
UVM_INFO @ 0: reporter [RNTST] Running test wrap_seq_test...
start of read_awaddr
start of slave_raddr
//////////////////////////////////////////////// write_addr////////////////
 wr_addr=928988966 928988964
//////////////////////////////////////////////// write_addr_AWADDR   ////////////////
 AWADDR=928988966
//////////////////////////////////////////////// read_addr////////////////
 rd_addr=3215839958 3215839960 3215839962 3215839964 3215839966 3215839936 3215839938 3215839940 3215839942 3215839944 3215839946 3215839948 3215839950 3215839952 3215839954 3215839956
//////////////////////////////////////////////// write_addr_ARADDR  ////////////////
 ARADDR=3215839958
start of drive_awaddr
start of drive_raddr
UVM_INFO ../master_agent_top/master_monitor.sv(111) @ 35: uvm_test_top.env_h.mst_agt_top.mst_agt_h[0].mst_mon_h [MST_MONITOR] printing from master monitor collect_awaddr 
 -------------------------------------
Name       Type      Size  Value     
-------------------------------------
xtn        axi_xtn   -     @1099     
  AWID     integral  4     12        
  AWADDR   integral  32    'h375f3f26
  AWLEN    integral  4     'd1       
  AWSIZE   integral  3     'd1       
  AWBURST  integral  2     2         
  WID      integral  4     'd0       
  BID      integral  4     'd0       
  BRESP    integral  2     'd0       
  ARID     integral  4     'd0       
  ARADDR   integral  32    'h0       
  ARLEN    integral  8     'd0       
  ARSIZE   integral  3     'd0       
  ARBURST  integral  2     'd0       
  RID      integral  4     'd0       
-------------------------------------

UVM_INFO ../slave_agent_top/slave_monitor.sv(110) @ 35: uvm_test_top.env_h.slv_agt_top.slv_agt_h[0].slv_mon_h [slv_monitor] printing from slave monitor collect_awaddr 
 -------------------------------------
Name       Type      Size  Value     
-------------------------------------
xtn        axi_xtn   -     @1081     
  AWID     integral  4     12        
  AWADDR   integral  32    'h375f3f26
  AWLEN    integral  4     'd1       
  AWSIZE   integral  3     'd1       
  AWBURST  integral  2     2         
  WID      integral  4     'd0       
  BID      integral  4     'd0       
  BRESP    integral  2     'd0       
  ARID     integral  4     'd0       
  ARADDR   integral  32    'h0       
  ARLEN    integral  8     'd0       
  ARSIZE   integral  3     'd0       
  ARBURST  integral  2     'd0       
  RID      integral  4     'd0       
-------------------------------------

end of drive_awaddr
-----------------------------------------------------------------------------------------------------------
Name                           Type      Size  Value                                                       
-----------------------------------------------------------------------------------------------------------
req                            axi_xtn   -     @1113                                                       
  begin_time                   time      64    0                                                           
  depth                        int       32    'd2                                                         
  parent sequence (name)       string    5     m_seq                                                       
  parent sequence (full name)  string    60    uvm_test_top.env_h.mst_agt_top.mst_agt_h[0].mst_seqr_h.m_seq
  sequencer                    string    54    uvm_test_top.env_h.mst_agt_top.mst_agt_h[0].mst_seqr_h      
  AWID                         integral  4     12                                                          
  AWADDR                       integral  32    'h375f3f26                                                  
  AWLEN                        integral  4     'd1                                                         
  AWSIZE                       integral  3     'd1                                                         
  AWBURST                      integral  2     2                                                           
  WID                          integral  4     12                                                          
  WDATA                        integral  32    'hb425c4b3                                                  
  WSTRB                        integral  4     'b1100                                                      
  WLAST                        integral  1     'dX                                                         
  WDATA                        integral  32    'h8d484a26                                                  
  WSTRB                        integral  4     'b11                                                        
  WLAST                        integral  1     'dX                                                         
  BID                          integral  4     12                                                          
  BRESP                        integral  2     'd0                                                         
  ARID                         integral  4     10                                                          
  ARADDR                       integral  32    'hbfadd2d6                                                  
  ARLEN                        integral  8     'd15                                                        
  ARSIZE                       integral  3     'd1                                                         
  ARBURST                      integral  2     2                                                           
  RID                          integral  4     10                                                          
  RDATA                        integral  32    'h1e2fd41e                                                  
  RRESP                        integral  2     'd0                                                         
  RDATA                        integral  32    'h8fc9845a                                                  
  RRESP                        integral  2     'd0                                                         
  RDATA                        integral  32    'he0cdf6ef                                                  
  RRESP                        integral  2     'd0                                                         
  RDATA                        integral  32    'h4da12d6b                                                  
  RRESP                        integral  2     'd0                                                         
  RDATA                        integral  32    'hcf15dbe                                                   
  RRESP                        integral  2     'd0                                                         
  RDATA                        integral  32    'h7f975aa6                                                  
  RRESP                        integral  2     'd0                                                         
  RDATA                        integral  32    'hd4783dd5                                                  
  RRESP                        integral  2     'd0                                                         
  RDATA                        integral  32    'h7cc8ca9                                                   
  RRESP                        integral  2     'd0                                                         
  RDATA                        integral  32    'h2e976845                                                  
  RRESP                        integral  2     'd0                                                         
  RDATA                        integral  32    'h3e2ba899                                                  
  RRESP                        integral  2     'd0                                                         
  RDATA                        integral  32    'hef7c54e6                                                  
  RRESP                        integral  2     'd0                                                         
  RDATA                        integral  32    'h90307b85                                                  
  RRESP                        integral  2     'd0                                                         
  RDATA                        integral  32    'haf3c0575                                                  
  RRESP                        integral  2     'd0                                                         
  RDATA                        integral  32    'hf2a0fd0c                                                  
  RRESP                        integral  2     'd0                                                         
  RDATA                        integral  32    'h609f1c42                                                  
  RRESP                        integral  2     'd0                                                         
  RDATA                        integral  32    'hb249fcb4                                                  
  RRESP                        integral  2     'd0                                                         
-----------------------------------------------------------------------------------------------------------
start of drive_wdata
//////////////////////////////////////////////// write_addr////////////////
 wr_addr=1570863652 1570863653
//////////////////////////////////////////////// write_addr_AWADDR   ////////////////
 AWADDR=1570863652
//////////////////////////////////////////////// read_addr////////////////
 rd_addr=1666607922 1666607924 1666607926 1666607920
//////////////////////////////////////////////// write_addr_ARADDR  ////////////////
 ARADDR=1666607922
start of drive_awaddr
UVM_INFO ../master_agent_top/master_monitor.sv(111) @ 55: uvm_test_top.env_h.mst_agt_top.mst_agt_h[0].mst_mon_h [MST_MONITOR] printing from master monitor collect_awaddr 
 -------------------------------------
Name       Type      Size  Value     
-------------------------------------
xtn        axi_xtn   -     @1189     
  AWID     integral  4     'd4       
  AWADDR   integral  32    'h5da17a24
  AWLEN    integral  4     'd1       
  AWSIZE   integral  3     'd0       
  AWBURST  integral  2     2         
  WID      integral  4     'd0       
  BID      integral  4     'd0       
  BRESP    integral  2     'd0       
  ARID     integral  4     'd0       
  ARADDR   integral  32    'h0       
  ARLEN    integral  8     'd0       
  ARSIZE   integral  3     'd0       
  ARBURST  integral  2     'd0       
  RID      integral  4     'd0       
-------------------------------------

UVM_INFO ../slave_agent_top/slave_monitor.sv(110) @ 55: uvm_test_top.env_h.slv_agt_top.slv_agt_h[0].slv_mon_h [slv_monitor] printing from slave monitor collect_awaddr 
 -------------------------------------
Name       Type      Size  Value     
-------------------------------------
xtn        axi_xtn   -     @1193     
  AWID     integral  4     'd4       
  AWADDR   integral  32    'h5da17a24
  AWLEN    integral  4     'd1       
  AWSIZE   integral  3     'd0       
  AWBURST  integral  2     2         
  WID      integral  4     'd0       
  BID      integral  4     'd0       
  BRESP    integral  2     'd0       
  ARID     integral  4     'd0       
  ARADDR   integral  32    'h0       
  ARLEN    integral  8     'd0       
  ARSIZE   integral  3     'd0       
  ARBURST  integral  2     'd0       
  RID      integral  4     'd0       
-------------------------------------

inside drive_raddr before wait ARREADY
UVM_INFO ../master_agent_top/master_monitor.sv(188) @ 65: uvm_test_top.env_h.mst_agt_top.mst_agt_h[0].mst_mon_h [MST_MONITOR] printing from master monitor collect_raddr 
 -------------------------------------
Name       Type      Size  Value     
-------------------------------------
xtn3       axi_xtn   -     @1103     
  AWID     integral  4     'd0       
  AWADDR   integral  32    'h0       
  AWLEN    integral  4     'd0       
  AWSIZE   integral  3     'd0       
  AWBURST  integral  2     'd0       
  WID      integral  4     'd0       
  BID      integral  4     'd0       
  BRESP    integral  2     'd0       
  ARID     integral  4     10        
  ARADDR   integral  32    'hbfadd2d6
  ARLEN    integral  8     'd15      
  ARSIZE   integral  3     'd1       
  ARBURST  integral  2     2         
  RID      integral  4     'd0       
-------------------------------------

end of read_awaddr
start of read_awaddr
UVM_INFO ../slave_agent_top/slave_monitor.sv(184) @ 65: uvm_test_top.env_h.slv_agt_top.slv_agt_h[0].slv_mon_h [slv_monitor] printing from slave monitor collect_raddr 
 -------------------------------------
Name       Type      Size  Value     
-------------------------------------
xtn3       axi_xtn   -     @1085     
  AWID     integral  4     'd0       
  AWADDR   integral  32    'h0       
  AWLEN    integral  4     'd0       
  AWSIZE   integral  3     'd0       
  AWBURST  integral  2     'd0       
  WID      integral  4     'd0       
  BID      integral  4     'd0       
  BRESP    integral  2     'd0       
  ARID     integral  4     10        
  ARADDR   integral  32    'hbfadd2d6
  ARLEN    integral  8     'd15      
  ARSIZE   integral  3     'd1       
  ARBURST  integral  2     2         
  RID      integral  4     'd0       
-------------------------------------

start of read_data
aligned:375f3f26
addresses calculated in slave side are '{375f3f26, 375f3f28}
end of drive_raddr
slave driver start of awvalid
WSTRB in slave driver is:12
value inside mem is: 0000b425
start of drive_raddr
start of drive_rdata
end of drive_awaddr
-----------------------------------------------------------------------------------------------------------
Name                           Type      Size  Value                                                       
-----------------------------------------------------------------------------------------------------------
req                            axi_xtn   -     @1198                                                       
  begin_time                   time      64    45                                                          
  depth                        int       32    'd2                                                         
  parent sequence (name)       string    5     m_seq                                                       
  parent sequence (full name)  string    60    uvm_test_top.env_h.mst_agt_top.mst_agt_h[0].mst_seqr_h.m_seq
  sequencer                    string    54    uvm_test_top.env_h.mst_agt_top.mst_agt_h[0].mst_seqr_h      
  AWID                         integral  4     'd4                                                         
  AWADDR                       integral  32    'h5da17a24                                                  
  AWLEN                        integral  4     'd1                                                         
  AWSIZE                       integral  3     'd0                                                         
  AWBURST                      integral  2     2                                                           
  WID                          integral  4     'd4                                                         
  WDATA                        integral  32    'h55e5d4fe                                                  
  WSTRB                        integral  4     'b1                                                         
  WLAST                        integral  1     'dX                                                         
  WDATA                        integral  32    'hd5995d20                                                  
  WSTRB                        integral  4     'b10                                                        
  WLAST                        integral  1     'dX                                                         
  BID                          integral  4     'd4                                                         
  BRESP                        integral  2     'd0                                                         
  ARID                         integral  4     'd6                                                         
  ARADDR                       integral  32    'h63566b32                                                  
  ARLEN                        integral  8     'd3                                                         
  ARSIZE                       integral  3     'd1                                                         
  ARBURST                      integral  2     2                                                           
  RID                          integral  4     'd6                                                         
  RDATA                        integral  32    'h6d77ab0e                                                  
  RRESP                        integral  2     'd0                                                         
  RDATA                        integral  32    'h18d3d9e9                                                  
  RRESP                        integral  2     'd0                                                         
  RDATA                        integral  32    'hc26c1a96                                                  
  RRESP                        integral  2     'd0                                                         
  RDATA                        integral  32    'hb00f5acf                                                  
  RRESP                        integral  2     'd0                                                         
-----------------------------------------------------------------------------------------------------------
//////////////////////////////////////////////// write_addr////////////////
 wr_addr=3812976809 3812976808
//////////////////////////////////////////////// write_addr_AWADDR   ////////////////
 AWADDR=3812976809
//////////////////////////////////////////////// read_addr////////////////
 rd_addr=1784788284 1784788286 1784788272 1784788274 1784788276 1784788278 1784788280 1784788282
//////////////////////////////////////////////// write_addr_ARADDR  ////////////////
 ARADDR=1784788284
start of drive_awaddr
end of slave_raddr
start of slave_raddr
start of slave_rdata
UVM_INFO ../master_agent_top/master_monitor.sv(111) @ 115: uvm_test_top.env_h.mst_agt_top.mst_agt_h[0].mst_mon_h [MST_MONITOR] printing from master monitor collect_awaddr 
 -------------------------------------
Name       Type      Size  Value     
-------------------------------------
xtn        axi_xtn   -     @1210     
  AWID     integral  4     12        
  AWADDR   integral  32    'he34568a9
  AWLEN    integral  4     'd1       
  AWSIZE   integral  3     'd0       
  AWBURST  integral  2     2         
  WID      integral  4     'd0       
  BID      integral  4     'd0       
  BRESP    integral  2     'd0       
  ARID     integral  4     'd0       
  ARADDR   integral  32    'h0       
  ARLEN    integral  8     'd0       
  ARSIZE   integral  3     'd0       
  ARBURST  integral  2     'd0       
  RID      integral  4     'd0       
-------------------------------------

UVM_INFO ../slave_agent_top/slave_monitor.sv(110) @ 115: uvm_test_top.env_h.slv_agt_top.slv_agt_h[0].slv_mon_h [slv_monitor] printing from slave monitor collect_awaddr 
 -------------------------------------
Name       Type      Size  Value     
-------------------------------------
xtn        axi_xtn   -     @1218     
  AWID     integral  4     12        
  AWADDR   integral  32    'he34568a9
  AWLEN    integral  4     'd1       
  AWSIZE   integral  3     'd0       
  AWBURST  integral  2     2         
  WID      integral  4     'd0       
  BID      integral  4     'd0       
  BRESP    integral  2     'd0       
  ARID     integral  4     'd0       
  ARADDR   integral  32    'h0       
  ARLEN    integral  8     'd0       
  ARSIZE   integral  3     'd0       
  ARBURST  integral  2     'd0       
  RID      integral  4     'd0       
-------------------------------------

inside drive_raddr before wait ARREADY
slave driver start of awvalid
WSTRB in slave driver is:3
value inside mem is: 00004a26
end of drive_wdata
UVM_INFO ../master_agent_top/master_monitor.sv(159) @ 135: uvm_test_top.env_h.mst_agt_top.mst_agt_h[0].mst_mon_h [MST_MONITOR] printing from master monitor collect_wdata 
 -------------------------------------
Name       Type      Size  Value     
-------------------------------------
xtn        axi_xtn   -     @1099     
  AWID     integral  4     12        
  AWADDR   integral  32    'h375f3f26
  AWLEN    integral  4     'd1       
  AWSIZE   integral  3     'd1       
  AWBURST  integral  2     2         
  WID      integral  4     12        
  WDATA    integral  32    'hb425    
  WSTRB    integral  4     'b1100    
  WLAST    integral  1     1         
  WDATA    integral  32    'h4a26    
  WSTRB    integral  4     'b11      
  WLAST    integral  1     1         
  BID      integral  4     'd0       
  BRESP    integral  2     'd0       
  ARID     integral  4     'd0       
  ARADDR   integral  32    'h0       
  ARLEN    integral  8     'd0       
  ARSIZE   integral  3     'd0       
  ARBURST  integral  2     'd0       
  RID      integral  4     'd0       
-------------------------------------

end of read_awaddr
start of read_awaddr
UVM_INFO ../slave_agent_top/slave_monitor.sv(157) @ 135: uvm_test_top.env_h.slv_agt_top.slv_agt_h[0].slv_mon_h [slv_monitor] printing from slave monitor collect_wdata 
 -------------------------------------
Name       Type      Size  Value     
-------------------------------------
xtn        axi_xtn   -     @1081     
  AWID     integral  4     12        
  AWADDR   integral  32    'h375f3f26
  AWLEN    integral  4     'd1       
  AWSIZE   integral  3     'd1       
  AWBURST  integral  2     2         
  WID      integral  4     12        
  WDATA    integral  32    'hb425    
  WSTRB    integral  4     'b1100    
  WLAST    integral  1     1         
  WDATA    integral  32    'h4a26    
  WSTRB    integral  4     'b11      
  WLAST    integral  1     1         
  BID      integral  4     'd0       
  BRESP    integral  2     'd0       
  ARID     integral  4     'd0       
  ARADDR   integral  32    'h0       
  ARLEN    integral  8     'd0       
  ARSIZE   integral  3     'd0       
  ARBURST  integral  2     'd0       
  RID      integral  4     'd0       
-------------------------------------

start of drive_wdata
start of drive_bresp
end of drive_awaddr
-----------------------------------------------------------------------------------------------------------
Name                           Type      Size  Value                                                       
-----------------------------------------------------------------------------------------------------------
req                            axi_xtn   -     @1238                                                       
  begin_time                   time      64    95                                                          
  depth                        int       32    'd2                                                         
  parent sequence (name)       string    5     m_seq                                                       
  parent sequence (full name)  string    60    uvm_test_top.env_h.mst_agt_top.mst_agt_h[0].mst_seqr_h.m_seq
  sequencer                    string    54    uvm_test_top.env_h.mst_agt_top.mst_agt_h[0].mst_seqr_h      
  AWID                         integral  4     12                                                          
  AWADDR                       integral  32    'he34568a9                                                  
  AWLEN                        integral  4     'd1                                                         
  AWSIZE                       integral  3     'd0                                                         
  AWBURST                      integral  2     2                                                           
  WID                          integral  4     12                                                          
  WDATA                        integral  32    'h8fec7ec6                                                  
  WSTRB                        integral  4     'b0                                                         
  WLAST                        integral  1     'dX                                                         
  WDATA                        integral  32    'h8e0924df                                                  
  WSTRB                        integral  4     'b1                                                         
  WLAST                        integral  1     'dX                                                         
  BID                          integral  4     12                                                          
  BRESP                        integral  2     'd0                                                         
  ARID                         integral  4     9                                                           
  ARADDR                       integral  32    'h6a61b53c                                                  
  ARLEN                        integral  8     'd7                                                         
  ARSIZE                       integral  3     'd1                                                         
  ARBURST                      integral  2     2                                                           
  RID                          integral  4     9                                                           
  RDATA                        integral  32    'h3d7d885a                                                  
  RRESP                        integral  2     'd0                                                         
  RDATA                        integral  32    'hf1945ec7                                                  
  RRESP                        integral  2     'd0                                                         
  RDATA                        integral  32    'h3f4035ce                                                  
  RRESP                        integral  2     'd0                                                         
  RDATA                        integral  32    'h9b0136a                                                   
  RRESP                        integral  2     'd0                                                         
  RDATA                        integral  32    'h9ecf6207                                                  
  RRESP                        integral  2     'd0                                                         
  RDATA                        integral  32    'he26de570                                                  
  RRESP                        integral  2     'd0                                                         
  RDATA                        integral  32    'h857526ba                                                  
  RRESP                        integral  2     'd0                                                         
  RDATA                        integral  32    'h77fe27ae                                                  
  RRESP                        integral  2     'd0                                                         
-----------------------------------------------------------------------------------------------------------
//////////////////////////////////////////////// write_addr////////////////
 wr_addr=3685152348 3685152349 3685152350 3685152351 3685152336 3685152337 3685152338 3685152339 3685152340 3685152341 3685152342 3685152343 3685152344 3685152345 3685152346 3685152347
//////////////////////////////////////////////// write_addr_AWADDR   ////////////////
 AWADDR=3685152348
//////////////////////////////////////////////// read_addr////////////////
 rd_addr=2269526176 2269526177 2269526178 2269526179 2269526180 2269526181 2269526182 2269526183
//////////////////////////////////////////////// write_addr_ARADDR  ////////////////
 ARADDR=2269526176
start of drive_awaddr
UVM_INFO ../master_agent_top/master_monitor.sv(188) @ 155: uvm_test_top.env_h.mst_agt_top.mst_agt_h[0].mst_mon_h [MST_MONITOR] printing from master monitor collect_raddr 
 -------------------------------------
Name       Type      Size  Value     
-------------------------------------
xtn3       axi_xtn   -     @1222     
  AWID     integral  4     'd0       
  AWADDR   integral  32    'h0       
  AWLEN    integral  4     'd0       
  AWSIZE   integral  3     'd0       
  AWBURST  integral  2     'd0       
  WID      integral  4     'd0       
  BID      integral  4     'd0       
  BRESP    integral  2     'd0       
  ARID     integral  4     'd6       
  ARADDR   integral  32    'h63566b32
  ARLEN    integral  8     'd3       
  ARSIZE   integral  3     'd1       
  ARBURST  integral  2     2         
  RID      integral  4     'd0       
-------------------------------------

UVM_INFO ../slave_agent_top/slave_monitor.sv(184) @ 155: uvm_test_top.env_h.slv_agt_top.slv_agt_h[0].slv_mon_h [slv_monitor] printing from slave monitor collect_raddr 
 -------------------------------------
Name       Type      Size  Value     
-------------------------------------
xtn3       axi_xtn   -     @1230     
  AWID     integral  4     'd0       
  AWADDR   integral  32    'h0       
  AWLEN    integral  4     'd0       
  AWSIZE   integral  3     'd0       
  AWBURST  integral  2     'd0       
  WID      integral  4     'd0       
  BID      integral  4     'd0       
  BRESP    integral  2     'd0       
  ARID     integral  4     'd6       
  ARADDR   integral  32    'h63566b32
  ARLEN    integral  8     'd3       
  ARSIZE   integral  3     'd1       
  ARBURST  integral  2     2         
  RID      integral  4     'd0       
-------------------------------------

UVM_INFO ../master_agent_top/master_monitor.sv(111) @ 175: uvm_test_top.env_h.mst_agt_top.mst_agt_h[0].mst_mon_h [MST_MONITOR] printing from master monitor collect_awaddr 
 -------------------------------------
Name       Type      Size  Value     
-------------------------------------
xtn        axi_xtn   -     @1246     
  AWID     integral  4     'd1       
  AWADDR   integral  32    'hdba6f65c
  AWLEN    integral  4     15        
  AWSIZE   integral  3     'd0       
  AWBURST  integral  2     2         
  WID      integral  4     'd0       
  BID      integral  4     'd0       
  BRESP    integral  2     'd0       
  ARID     integral  4     'd0       
  ARADDR   integral  32    'h0       
  ARLEN    integral  8     'd0       
  ARSIZE   integral  3     'd0       
  ARBURST  integral  2     'd0       
  RID      integral  4     'd0       
-------------------------------------

UVM_INFO ../slave_agent_top/slave_monitor.sv(110) @ 175: uvm_test_top.env_h.slv_agt_top.slv_agt_h[0].slv_mon_h [slv_monitor] printing from slave monitor collect_awaddr 
 -------------------------------------
Name       Type      Size  Value     
-------------------------------------
xtn        axi_xtn   -     @1250     
  AWID     integral  4     'd1       
  AWADDR   integral  32    'hdba6f65c
  AWLEN    integral  4     15        
  AWSIZE   integral  3     'd0       
  AWBURST  integral  2     2         
  WID      integral  4     'd0       
  BID      integral  4     'd0       
  BRESP    integral  2     'd0       
  ARID     integral  4     'd0       
  ARADDR   integral  32    'h0       
  ARLEN    integral  8     'd0       
  ARSIZE   integral  3     'd0       
  ARBURST  integral  2     'd0       
  RID      integral  4     'd0       
-------------------------------------

memory is '{375f3f26:0000b425, 375f3f28:00004a26 }
end of read_data
start of read_data
aligned:e34568a9
addresses calculated in slave side are '{e34568a9, e34568aa}
start of drive_wresp
BID sent is 12
UVM_INFO ../master_agent_top/master_monitor.sv(170) @ 185: uvm_test_top.env_h.mst_agt_top.mst_agt_h[0].mst_mon_h [MST_MONITOR] printing from master monitor collect_bresp 
 --------------------------------
Name       Type      Size  Value
--------------------------------
xtn2       axi_xtn   -     @1262
  AWID     integral  4     'd0  
  AWADDR   integral  32    'h0  
  AWLEN    integral  4     'd0  
  AWSIZE   integral  3     'd0  
  AWBURST  integral  2     'd0  
  WID      integral  4     'd0  
  BID      integral  4     'd0  
  BRESP    integral  2     'd0  
  ARID     integral  4     'd0  
  ARADDR   integral  32    'h0  
  ARLEN    integral  8     'd0  
  ARSIZE   integral  3     'd0  
  ARBURST  integral  2     'd0  
  RID      integral  4     'd0  
--------------------------------

UVM_INFO ../slave_agent_top/slave_monitor.sv(167) @ 185: uvm_test_top.env_h.slv_agt_top.slv_agt_h[0].slv_mon_h [slv_monitor] printing from slave monitor collect_bresp 
 --------------------------------
Name       Type      Size  Value
--------------------------------
xtn2       axi_xtn   -     @1270
  AWID     integral  4     'd0  
  AWADDR   integral  32    'h0  
  AWLEN    integral  4     'd0  
  AWSIZE   integral  3     'd0  
  AWBURST  integral  2     'd0  
  WID      integral  4     'd0  
  BID      integral  4     'd0  
  BRESP    integral  2     'd0  
  ARID     integral  4     'd0  
  ARADDR   integral  32    'h0  
  ARLEN    integral  8     'd0  
  ARSIZE   integral  3     'd0  
  ARBURST  integral  2     'd0  
  RID      integral  4     'd0  
--------------------------------

end of drive_raddr
end of drive_awaddr
-----------------------------------------------------------------------------------------------------------
Name                           Type      Size  Value                                                       
-----------------------------------------------------------------------------------------------------------
req                            axi_xtn   -     @1274                                                       
  begin_time                   time      64    145                                                         
  depth                        int       32    'd2                                                         
  parent sequence (name)       string    5     m_seq                                                       
  parent sequence (full name)  string    60    uvm_test_top.env_h.mst_agt_top.mst_agt_h[0].mst_seqr_h.m_seq
  sequencer                    string    54    uvm_test_top.env_h.mst_agt_top.mst_agt_h[0].mst_seqr_h      
  AWID                         integral  4     'd1                                                         
  AWADDR                       integral  32    'hdba6f65c                                                  
  AWLEN                        integral  4     15                                                          
  AWSIZE                       integral  3     'd0                                                         
  AWBURST                      integral  2     2                                                           
  WID                          integral  4     'd1                                                         
  WDATA                        integral  32    'h6447d8f6                                                  
  WSTRB                        integral  4     'b1                                                         
  WLAST                        integral  1     'dX                                                         
  WDATA                        integral  32    'h95d6bf01                                                  
  WSTRB                        integral  4     'b10                                                        
  WLAST                        integral  1     'dX                                                         
  WDATA                        integral  32    'h6820fed6                                                  
  WSTRB                        integral  4     'b100                                                       
  WLAST                        integral  1     'dX                                                         
  WDATA                        integral  32    'h95334bfa                                                  
  WSTRB                        integral  4     'b1000                                                      
  WLAST                        integral  1     'dX                                                         
  WDATA                        integral  32    'hd3c5ebb0                                                  
  WSTRB                        integral  4     'b1                                                         
  WLAST                        integral  1     'dX                                                         
  WDATA                        integral  32    'h85c15249                                                  
  WSTRB                        integral  4     'b10                                                        
  WLAST                        integral  1     'dX                                                         
  WDATA                        integral  32    'h99ef2233                                                  
  WSTRB                        integral  4     'b100                                                       
  WLAST                        integral  1     'dX                                                         
  WDATA                        integral  32    'hb030f1de                                                  
  WSTRB                        integral  4     'b1000                                                      
  WLAST                        integral  1     'dX                                                         
  WDATA                        integral  32    'h12228127                                                  
  WSTRB                        integral  4     'b1                                                         
  WLAST                        integral  1     'dX                                                         
  WDATA                        integral  32    'h3ee1e7a                                                   
  WSTRB                        integral  4     'b10                                                        
  WLAST                        integral  1     'dX                                                         
  WDATA                        integral  32    'h81512345                                                  
  WSTRB                        integral  4     'b100                                                       
  WLAST                        integral  1     'dX                                                         
  WDATA                        integral  32    'h5bf14075                                                  
  WSTRB                        integral  4     'b1000                                                      
  WLAST                        integral  1     'dX                                                         
  WDATA                        integral  32    'h8cf1d758                                                  
  WSTRB                        integral  4     'b1                                                         
  WLAST                        integral  1     'dX                                                         
  WDATA                        integral  32    'ha6fbeab8                                                  
  WSTRB                        integral  4     'b10                                                        
  WLAST                        integral  1     'dX                                                         
  WDATA                        integral  32    'h79948d14                                                  
  WSTRB                        integral  4     'b100                                                       
  WLAST                        integral  1     'dX                                                         
  WDATA                        integral  32    'he026a668                                                  
  WSTRB                        integral  4     'b1000                                                      
  WLAST                        integral  1     'dX                                                         
  BID                          integral  4     'd1                                                         
  BRESP                        integral  2     'd0                                                         
  ARID                         integral  4     11                                                          
  ARADDR                       integral  32    'h874638a0                                                  
  ARLEN                        integral  8     'd7                                                         
  ARSIZE                       integral  3     'd0                                                         
  ARBURST                      integral  2     2                                                           
  RID                          integral  4     11                                                          
  RDATA                        integral  32    'h4ac90071                                                  
  RRESP                        integral  2     'd0                                                         
  RDATA                        integral  32    'h750b4018                                                  
  RRESP                        integral  2     'd0                                                         
  RDATA                        integral  32    'h99df358e                                                  
  RRESP                        integral  2     'd0                                                         
  RDATA                        integral  32    'h76e89f24                                                  
  RRESP                        integral  2     'd0                                                         
  RDATA                        integral  32    'hd4df639a                                                  
  RRESP                        integral  2     'd0                                                         
  RDATA                        integral  32    'hc7b1b1ad                                                  
  RRESP                        integral  2     'd0                                                         
  RDATA                        integral  32    'h880e0c21                                                  
  RRESP                        integral  2     'd0                                                         
  RDATA                        integral  32    'h484a691a                                                  
  RRESP                        integral  2     'd0                                                         
-----------------------------------------------------------------------------------------------------------
slave driver start of awvalid
WSTRB in slave driver is:1
value inside mem is: 000000fe
end of slave_raddr
start of drive_raddr
start of slave_raddr
//////////////////////////////////////////////// write_addr////////////////
 wr_addr=1601878172 1601878160 1601878164 1601878168
//////////////////////////////////////////////// write_addr_AWADDR   ////////////////
 AWADDR=1601878172
//////////////////////////////////////////////// read_addr////////////////
 rd_addr=2406754640 2406754644 2406754648 2406754652
//////////////////////////////////////////////// write_addr_ARADDR  ////////////////
 ARADDR=2406754640
start of drive_awaddr
UVM_INFO ../master_agent_top/master_monitor.sv(111) @ 195: uvm_test_top.env_h.mst_agt_top.mst_agt_h[0].mst_mon_h [MST_MONITOR] printing from master monitor collect_awaddr 
 -------------------------------------
Name       Type      Size  Value     
-------------------------------------
xtn        axi_xtn   -     @1286     
  AWID     integral  4     9         
  AWADDR   integral  32    'h5f7ab89c
  AWLEN    integral  4     'd3       
  AWSIZE   integral  3     'd2       
  AWBURST  integral  2     2         
  WID      integral  4     'd0       
  BID      integral  4     'd0       
  BRESP    integral  2     'd0       
  ARID     integral  4     'd0       
  ARADDR   integral  32    'h0       
  ARLEN    integral  8     'd0       
  ARSIZE   integral  3     'd0       
  ARBURST  integral  2     'd0       
  RID      integral  4     'd0       
-------------------------------------

UVM_INFO ../slave_agent_top/slave_monitor.sv(110) @ 195: uvm_test_top.env_h.slv_agt_top.slv_agt_h[0].slv_mon_h [slv_monitor] printing from slave monitor collect_awaddr 
 -------------------------------------
Name       Type      Size  Value     
-------------------------------------
xtn        axi_xtn   -     @1290     
  AWID     integral  4     9         
  AWADDR   integral  32    'h5f7ab89c
  AWLEN    integral  4     'd3       
  AWSIZE   integral  3     'd2       
  AWBURST  integral  2     2         
  WID      integral  4     'd0       
  BID      integral  4     'd0       
  BRESP    integral  2     'd0       
  ARID     integral  4     'd0       
  ARADDR   integral  32    'h0       
  ARLEN    integral  8     'd0       
  ARSIZE   integral  3     'd0       
  ARBURST  integral  2     'd0       
  RID      integral  4     'd0       
-------------------------------------

end of drive_wresp
end of drive_awaddr
-----------------------------------------------------------------------------------------------------------
Name                           Type      Size  Value                                                       
-----------------------------------------------------------------------------------------------------------
req                            axi_xtn   -     @1294                                                       
  begin_time                   time      64    185                                                         
  depth                        int       32    'd2                                                         
  parent sequence (name)       string    5     m_seq                                                       
  parent sequence (full name)  string    60    uvm_test_top.env_h.mst_agt_top.mst_agt_h[0].mst_seqr_h.m_seq
  sequencer                    string    54    uvm_test_top.env_h.mst_agt_top.mst_agt_h[0].mst_seqr_h      
  AWID                         integral  4     9                                                           
  AWADDR                       integral  32    'h5f7ab89c                                                  
  AWLEN                        integral  4     'd3                                                         
  AWSIZE                       integral  3     'd2                                                         
  AWBURST                      integral  2     2                                                           
  WID                          integral  4     9                                                           
  WDATA                        integral  32    'ha36654da                                                  
  WSTRB                        integral  4     'b1111                                                      
  WLAST                        integral  1     'dX                                                         
  WDATA                        integral  32    'h4561fb54                                                  
  WSTRB                        integral  4     'b1111                                                      
  WLAST                        integral  1     'dX                                                         
  WDATA                        integral  32    'h2b3a3c03                                                  
  WSTRB                        integral  4     'b1111                                                      
  WLAST                        integral  1     'dX                                                         
  WDATA                        integral  32    'h716609e4                                                  
  WSTRB                        integral  4     'b1111                                                      
  WLAST                        integral  1     'dX                                                         
  BID                          integral  4     9                                                           
  BRESP                        integral  2     'd0                                                         
  ARID                         integral  4     'd6                                                         
  ARADDR                       integral  32    'h8f742950                                                  
  ARLEN                        integral  8     'd3                                                         
  ARSIZE                       integral  3     'd2                                                         
  ARBURST                      integral  2     2                                                           
  RID                          integral  4     'd6                                                         
  RDATA                        integral  32    'ha5f22209                                                  
  RRESP                        integral  2     'd0                                                         
  RDATA                        integral  32    'h64705f35                                                  
  RRESP                        integral  2     'd0                                                         
  RDATA                        integral  32    'h58b2ed62                                                  
  RRESP                        integral  2     'd0                                                         
  RDATA                        integral  32    'h27fcd848                                                  
  RRESP                        integral  2     'd0                                                         
-----------------------------------------------------------------------------------------------------------
end of read_awaddr
start of read_awaddr
//////////////////////////////////////////////// write_addr////////////////
 wr_addr=2478029456 2478029460 2478029464 2478029468
//////////////////////////////////////////////// write_addr_AWADDR   ////////////////
 AWADDR=2478029456
//////////////////////////////////////////////// read_addr////////////////
 rd_addr=1858932164 1858932166
//////////////////////////////////////////////// write_addr_ARADDR  ////////////////
 ARADDR=1858932164
start of drive_awaddr
inside drive_raddr before wait ARREADY
end of drive_bresp
slave driver start of awvalid
WSTRB in slave driver is:2
value inside mem is: 0000005d
UVM_INFO ../master_agent_top/master_monitor.sv(159) @ 245: uvm_test_top.env_h.mst_agt_top.mst_agt_h[0].mst_mon_h [MST_MONITOR] printing from master monitor collect_wdata 
 -------------------------------------
Name       Type      Size  Value     
-------------------------------------
xtn        axi_xtn   -     @1189     
  AWID     integral  4     'd4       
  AWADDR   integral  32    'h5da17a24
  AWLEN    integral  4     'd1       
  AWSIZE   integral  3     'd0       
  AWBURST  integral  2     2         
  WID      integral  4     'd4       
  WDATA    integral  32    'hfe      
  WSTRB    integral  4     'b1       
  WLAST    integral  1     1         
  WDATA    integral  32    'h5d      
  WSTRB    integral  4     'b10      
  WLAST    integral  1     1         
  BID      integral  4     'd0       
  BRESP    integral  2     'd0       
  ARID     integral  4     'd0       
  ARADDR   integral  32    'h0       
  ARLEN    integral  8     'd0       
  ARSIZE   integral  3     'd0       
  ARBURST  integral  2     'd0       
  RID      integral  4     'd0       
-------------------------------------

UVM_INFO ../master_agent_top/master_monitor.sv(188) @ 245: uvm_test_top.env_h.mst_agt_top.mst_agt_h[0].mst_mon_h [MST_MONITOR] printing from master monitor collect_raddr 
 -------------------------------------
Name       Type      Size  Value     
-------------------------------------
xtn3       axi_xtn   -     @1278     
  AWID     integral  4     'd0       
  AWADDR   integral  32    'h0       
  AWLEN    integral  4     'd0       
  AWSIZE   integral  3     'd0       
  AWBURST  integral  2     'd0       
  WID      integral  4     'd0       
  BID      integral  4     'd0       
  BRESP    integral  2     'd0       
  ARID     integral  4     9         
  ARADDR   integral  32    'h6a61b53c
  ARLEN    integral  8     'd7       
  ARSIZE   integral  3     'd1       
  ARBURST  integral  2     2         
  RID      integral  4     'd0       
-------------------------------------

UVM_INFO ../slave_agent_top/slave_monitor.sv(157) @ 245: uvm_test_top.env_h.slv_agt_top.slv_agt_h[0].slv_mon_h [slv_monitor] printing from slave monitor collect_wdata 
 -------------------------------------
Name       Type      Size  Value     
-------------------------------------
xtn        axi_xtn   -     @1193     
  AWID     integral  4     'd4       
  AWADDR   integral  32    'h5da17a24
  AWLEN    integral  4     'd1       
  AWSIZE   integral  3     'd0       
  AWBURST  integral  2     2         
  WID      integral  4     'd4       
  WDATA    integral  32    'hfe      
  WSTRB    integral  4     'b1       
  WLAST    integral  1     1         
  WDATA    integral  32    'h5d      
  WSTRB    integral  4     'b10      
  WLAST    integral  1     1         
  BID      integral  4     'd0       
  BRESP    integral  2     'd0       
  ARID     integral  4     'd0       
  ARADDR   integral  32    'h0       
  ARLEN    integral  8     'd0       
  ARSIZE   integral  3     'd0       
  ARBURST  integral  2     'd0       
  RID      integral  4     'd0       
-------------------------------------

UVM_INFO ../slave_agent_top/slave_monitor.sv(184) @ 245: uvm_test_top.env_h.slv_agt_top.slv_agt_h[0].slv_mon_h [slv_monitor] printing from slave monitor collect_raddr 
 -------------------------------------
Name       Type      Size  Value     
-------------------------------------
xtn3       axi_xtn   -     @1282     
  AWID     integral  4     'd0       
  AWADDR   integral  32    'h0       
  AWLEN    integral  4     'd0       
  AWSIZE   integral  3     'd0       
  AWBURST  integral  2     'd0       
  WID      integral  4     'd0       
  BID      integral  4     'd0       
  BRESP    integral  2     'd0       
  ARID     integral  4     9         
  ARADDR   integral  32    'h6a61b53c
  ARLEN    integral  8     'd7       
  ARSIZE   integral  3     'd1       
  ARBURST  integral  2     2         
  RID      integral  4     'd0       
-------------------------------------

UVM_INFO ../master_agent_top/master_monitor.sv(111) @ 255: uvm_test_top.env_h.mst_agt_top.mst_agt_h[0].mst_mon_h [MST_MONITOR] printing from master monitor collect_awaddr 
 -------------------------------------
Name       Type      Size  Value     
-------------------------------------
xtn        axi_xtn   -     @1302     
  AWID     integral  4     'd6       
  AWADDR   integral  32    'h93b3ba90
  AWLEN    integral  4     'd3       
  AWSIZE   integral  3     'd2       
  AWBURST  integral  2     2         
  WID      integral  4     'd0       
  BID      integral  4     'd0       
  BRESP    integral  2     'd0       
  ARID     integral  4     'd0       
  ARADDR   integral  32    'h0       
  ARLEN    integral  8     'd0       
  ARSIZE   integral  3     'd0       
  ARBURST  integral  2     'd0       
  RID      integral  4     'd0       
-------------------------------------

UVM_INFO ../slave_agent_top/slave_monitor.sv(110) @ 255: uvm_test_top.env_h.slv_agt_top.slv_agt_h[0].slv_mon_h [slv_monitor] printing from slave monitor collect_awaddr 
 -------------------------------------
Name       Type      Size  Value     
-------------------------------------
xtn        axi_xtn   -     @1306     
  AWID     integral  4     'd6       
  AWADDR   integral  32    'h93b3ba90
  AWLEN    integral  4     'd3       
  AWSIZE   integral  3     'd2       
  AWBURST  integral  2     2         
  WID      integral  4     'd0       
  BID      integral  4     'd0       
  BRESP    integral  2     'd0       
  ARID     integral  4     'd0       
  ARADDR   integral  32    'h0       
  ARLEN    integral  8     'd0       
  ARSIZE   integral  3     'd0       
  ARBURST  integral  2     'd0       
  RID      integral  4     'd0       
-------------------------------------

end of slave_raddr
start of slave_raddr
end of drive_wdata
end of drive_raddr
memory is '{e34568a9:000000fe, e34568aa:0000005d }
end of read_data
start of drive_wdata
start of drive_bresp
start of drive_raddr
start of read_data
aligned:dba6f65c
addresses calculated in slave side are '{dba6f65c, dba6f65d, dba6f65e, dba6f65f, dba6f660, dba6f661, dba6f662, dba6f663, dba6f664, dba6f665, dba6f666, dba6f667, dba6f668, dba6f669, dba6f66a, dba6f66b}
start of drive_wresp
BID sent is 12
UVM_INFO ../master_agent_top/master_monitor.sv(170) @ 285: uvm_test_top.env_h.mst_agt_top.mst_agt_h[0].mst_mon_h [MST_MONITOR] printing from master monitor collect_bresp 
 --------------------------------
Name       Type      Size  Value
--------------------------------
xtn2       axi_xtn   -     @1322
  AWID     integral  4     'd0  
  AWADDR   integral  32    'h0  
  AWLEN    integral  4     'd0  
  AWSIZE   integral  3     'd0  
  AWBURST  integral  2     'd0  
  WID      integral  4     'd0  
  BID      integral  4     'd0  
  BRESP    integral  2     'd0  
  ARID     integral  4     'd0  
  ARADDR   integral  32    'h0  
  ARLEN    integral  8     'd0  
  ARSIZE   integral  3     'd0  
  ARBURST  integral  2     'd0  
  RID      integral  4     'd0  
--------------------------------

UVM_INFO ../slave_agent_top/slave_monitor.sv(167) @ 285: uvm_test_top.env_h.slv_agt_top.slv_agt_h[0].slv_mon_h [slv_monitor] printing from slave monitor collect_bresp 
 --------------------------------
Name       Type      Size  Value
--------------------------------
xtn2       axi_xtn   -     @1334
  AWID     integral  4     'd0  
  AWADDR   integral  32    'h0  
  AWLEN    integral  4     'd0  
  AWSIZE   integral  3     'd0  
  AWBURST  integral  2     'd0  
  WID      integral  4     'd0  
  BID      integral  4     'd0  
  BRESP    integral  2     'd0  
  ARID     integral  4     'd0  
  ARADDR   integral  32    'h0  
  ARLEN    integral  8     'd0  
  ARSIZE   integral  3     'd0  
  ARBURST  integral  2     'd0  
  RID      integral  4     'd0  
--------------------------------

end of drive_awaddr
-----------------------------------------------------------------------------------------------------------
Name                           Type      Size  Value                                                       
-----------------------------------------------------------------------------------------------------------
req                            axi_xtn   -     @1314                                                       
  begin_time                   time      64    225                                                         
  depth                        int       32    'd2                                                         
  parent sequence (name)       string    5     m_seq                                                       
  parent sequence (full name)  string    60    uvm_test_top.env_h.mst_agt_top.mst_agt_h[0].mst_seqr_h.m_seq
  sequencer                    string    54    uvm_test_top.env_h.mst_agt_top.mst_agt_h[0].mst_seqr_h      
  AWID                         integral  4     'd6                                                         
  AWADDR                       integral  32    'h93b3ba90                                                  
  AWLEN                        integral  4     'd3                                                         
  AWSIZE                       integral  3     'd2                                                         
  AWBURST                      integral  2     2                                                           
  WID                          integral  4     'd6                                                         
  WDATA                        integral  32    'h5580bd08                                                  
  WSTRB                        integral  4     'b1111                                                      
  WLAST                        integral  1     'dX                                                         
  WDATA                        integral  32    'h8e0d8b39                                                  
  WSTRB                        integral  4     'b1111                                                      
  WLAST                        integral  1     'dX                                                         
  WDATA                        integral  32    'h8b560a8e                                                  
  WSTRB                        integral  4     'b1111                                                      
  WLAST                        integral  1     'dX                                                         
  WDATA                        integral  32    'h6c617612                                                  
  WSTRB                        integral  4     'b1111                                                      
  WLAST                        integral  1     'dX                                                         
  BID                          integral  4     'd6                                                         
  BRESP                        integral  2     'd0                                                         
  ARID                         integral  4     'd5                                                         
  ARADDR                       integral  32    'h6ecd0dc4                                                  
  ARLEN                        integral  8     'd1                                                         
  ARSIZE                       integral  3     'd1                                                         
  ARBURST                      integral  2     2                                                           
  RID                          integral  4     'd5                                                         
  RDATA                        integral  32    'hb7655fff                                                  
  RRESP                        integral  2     'd0                                                         
  RDATA                        integral  32    'hadd1d96b                                                  
  RRESP                        integral  2     'd0                                                         
-----------------------------------------------------------------------------------------------------------
slave driver start of awvalid
WSTRB in slave driver is:0
** Warning: (vsim-3829) Non-existent associative array entry. Returning default value.
   Time: 285 ns  Iteration: 2  Process: /axi_test_pkg::slave_driver::drive/#FORK#72_7fefec4351f File: ../slave_agent_top/slave_driver.sv Line: 177
value inside mem is: 00000000
end of read_awaddr
start of read_awaddr
//////////////////////////////////////////////// write_addr////////////////
 wr_addr=244289353 244289354 244289355 244289356 244289357 244289358 244289359 244289344 244289345 244289346 244289347 244289348 244289349 244289350 244289351 244289352
//////////////////////////////////////////////// write_addr_AWADDR   ////////////////
 AWADDR=244289353
//////////////////////////////////////////////// read_addr////////////////
 rd_addr=3527305173 3527305172
//////////////////////////////////////////////// write_addr_ARADDR  ////////////////
 ARADDR=3527305173
start of drive_awaddr
end of drive_bresp
inside drive_raddr before wait ARREADY
slave driver start of awvalid
WSTRB in slave driver is:1
value inside mem is: 000000df
end of drive_wresp
UVM_INFO ../master_agent_top/master_monitor.sv(159) @ 325: uvm_test_top.env_h.mst_agt_top.mst_agt_h[0].mst_mon_h [MST_MONITOR] printing from master monitor collect_wdata 
 -------------------------------------
Name       Type      Size  Value     
-------------------------------------
xtn        axi_xtn   -     @1210     
  AWID     integral  4     12        
  AWADDR   integral  32    'he34568a9
  AWLEN    integral  4     'd1       
  AWSIZE   integral  3     'd0       
  AWBURST  integral  2     2         
  WID      integral  4     12        
  WDATA    integral  32    'h0       
  WSTRB    integral  4     'b0       
  WLAST    integral  1     1         
  WDATA    integral  32    'hdf      
  WSTRB    integral  4     'b1       
  WLAST    integral  1     1         
  BID      integral  4     'd0       
  BRESP    integral  2     'd0       
  ARID     integral  4     'd0       
  ARADDR   integral  32    'h0       
  ARLEN    integral  8     'd0       
  ARSIZE   integral  3     'd0       
  ARBURST  integral  2     'd0       
  RID      integral  4     'd0       
-------------------------------------

UVM_INFO ../master_agent_top/master_monitor.sv(188) @ 325: uvm_test_top.env_h.mst_agt_top.mst_agt_h[0].mst_mon_h [MST_MONITOR] printing from master monitor collect_raddr 
 -------------------------------------
Name       Type      Size  Value     
-------------------------------------
xtn3       axi_xtn   -     @1326     
  AWID     integral  4     'd0       
  AWADDR   integral  32    'h0       
  AWLEN    integral  4     'd0       
  AWSIZE   integral  3     'd0       
  AWBURST  integral  2     'd0       
  WID      integral  4     'd0       
  BID      integral  4     'd0       
  BRESP    integral  2     'd0       
  ARID     integral  4     11        
  ARADDR   integral  32    'h874638a0
  ARLEN    integral  8     'd7       
  ARSIZE   integral  3     'd0       
  ARBURST  integral  2     2         
  RID      integral  4     'd0       
-------------------------------------

end of slave_raddr
UVM_INFO ../slave_agent_top/slave_monitor.sv(157) @ 325: uvm_test_top.env_h.slv_agt_top.slv_agt_h[0].slv_mon_h [slv_monitor] printing from slave monitor collect_wdata 
 -------------------------------------
Name       Type      Size  Value     
-------------------------------------
xtn        axi_xtn   -     @1218     
  AWID     integral  4     12        
  AWADDR   integral  32    'he34568a9
  AWLEN    integral  4     'd1       
  AWSIZE   integral  3     'd0       
  AWBURST  integral  2     2         
  WID      integral  4     12        
  WDATA    integral  32    'h0       
  WSTRB    integral  4     'b0       
  WLAST    integral  1     1         
  WDATA    integral  32    'hdf      
  WSTRB    integral  4     'b1       
  WLAST    integral  1     1         
  BID      integral  4     'd0       
  BRESP    integral  2     'd0       
  ARID     integral  4     'd0       
  ARADDR   integral  32    'h0       
  ARLEN    integral  8     'd0       
  ARSIZE   integral  3     'd0       
  ARBURST  integral  2     'd0       
  RID      integral  4     'd0       
-------------------------------------

UVM_INFO ../slave_agent_top/slave_monitor.sv(184) @ 325: uvm_test_top.env_h.slv_agt_top.slv_agt_h[0].slv_mon_h [slv_monitor] printing from slave monitor collect_raddr 
 -------------------------------------
Name       Type      Size  Value     
-------------------------------------
xtn3       axi_xtn   -     @1338     
  AWID     integral  4     'd0       
  AWADDR   integral  32    'h0       
  AWLEN    integral  4     'd0       
  AWSIZE   integral  3     'd0       
  AWBURST  integral  2     'd0       
  WID      integral  4     'd0       
  BID      integral  4     'd0       
  BRESP    integral  2     'd0       
  ARID     integral  4     11        
  ARADDR   integral  32    'h874638a0
  ARLEN    integral  8     'd7       
  ARSIZE   integral  3     'd0       
  ARBURST  integral  2     2         
  RID      integral  4     'd0       
-------------------------------------

start of slave_raddr
UVM_INFO ../master_agent_top/master_monitor.sv(111) @ 345: uvm_test_top.env_h.mst_agt_top.mst_agt_h[0].mst_mon_h [MST_MONITOR] printing from master monitor collect_awaddr 
 ------------------------------------
Name       Type      Size  Value    
------------------------------------
xtn        axi_xtn   -     @1346    
  AWID     integral  4     8        
  AWADDR   integral  32    'he8f8f49
  AWLEN    integral  4     15       
  AWSIZE   integral  3     'd0      
  AWBURST  integral  2     2        
  WID      integral  4     'd0      
  BID      integral  4     'd0      
  BRESP    integral  2     'd0      
  ARID     integral  4     'd0      
  ARADDR   integral  32    'h0      
  ARLEN    integral  8     'd0      
  ARSIZE   integral  3     'd0      
  ARBURST  integral  2     'd0      
  RID      integral  4     'd0      
------------------------------------

UVM_INFO ../slave_agent_top/slave_monitor.sv(110) @ 345: uvm_test_top.env_h.slv_agt_top.slv_agt_h[0].slv_mon_h [slv_monitor] printing from slave monitor collect_awaddr 
 ------------------------------------
Name       Type      Size  Value    
------------------------------------
xtn        axi_xtn   -     @1350    
  AWID     integral  4     8        
  AWADDR   integral  32    'he8f8f49
  AWLEN    integral  4     15       
  AWSIZE   integral  3     'd0      
  AWBURST  integral  2     2        
  WID      integral  4     'd0      
  BID      integral  4     'd0      
  BRESP    integral  2     'd0      
  ARID     integral  4     'd0      
  ARADDR   integral  32    'h0      
  ARLEN    integral  8     'd0      
  ARSIZE   integral  3     'd0      
  ARBURST  integral  2     'd0      
  RID      integral  4     'd0      
------------------------------------

end of drive_raddr
start of drive_raddr
end of drive_wdata
start of drive_wdata
start of drive_bresp
slave driver start of awvalid
WSTRB in slave driver is:1
value inside mem is: 000000f6
end of read_awaddr
start of read_awaddr
end of drive_awaddr
-----------------------------------------------------------------------------------------------------------
Name                           Type      Size  Value                                                       
-----------------------------------------------------------------------------------------------------------
req                            axi_xtn   -     @1358                                                       
  begin_time                   time      64    285                                                         
  depth                        int       32    'd2                                                         
  parent sequence (name)       string    5     m_seq                                                       
  parent sequence (full name)  string    60    uvm_test_top.env_h.mst_agt_top.mst_agt_h[0].mst_seqr_h.m_seq
  sequencer                    string    54    uvm_test_top.env_h.mst_agt_top.mst_agt_h[0].mst_seqr_h      
  AWID                         integral  4     8                                                           
  AWADDR                       integral  32    'he8f8f49                                                   
  AWLEN                        integral  4     15                                                          
  AWSIZE                       integral  3     'd0                                                         
  AWBURST                      integral  2     2                                                           
  WID                          integral  4     8                                                           
  WDATA                        integral  32    'hfe192156                                                  
  WSTRB                        integral  4     'b10                                                        
  WLAST                        integral  1     'dX                                                         
  WDATA                        integral  32    'h7ca05ac2                                                  
  WSTRB                        integral  4     'b100                                                       
  WLAST                        integral  1     'dX                                                         
  WDATA                        integral  32    'h146401b3                                                  
  WSTRB                        integral  4     'b1000                                                      
  WLAST                        integral  1     'dX                                                         
  WDATA                        integral  32    'h44365df2                                                  
  WSTRB                        integral  4     'b1                                                         
  WLAST                        integral  1     'dX                                                         
  WDATA                        integral  32    'h70bf5675                                                  
  WSTRB                        integral  4     'b10                                                        
  WLAST                        integral  1     'dX                                                         
  WDATA                        integral  32    'h19b446a8                                                  
  WSTRB                        integral  4     'b100                                                       
  WLAST                        integral  1     'dX                                                         
  WDATA                        integral  32    'h500d6f88                                                  
  WSTRB                        integral  4     'b1000                                                      
  WLAST                        integral  1     'dX                                                         
  WDATA                        integral  32    'h2cbb73e3                                                  
  WSTRB                        integral  4     'b1                                                         
  WLAST                        integral  1     'dX                                                         
  WDATA                        integral  32    'h37cdc9fa                                                  
  WSTRB                        integral  4     'b10                                                        
  WLAST                        integral  1     'dX                                                         
  WDATA                        integral  32    'h2ebe767b                                                  
  WSTRB                        integral  4     'b100                                                       
  WLAST                        integral  1     'dX                                                         
  WDATA                        integral  32    'h7cc06642                                                  
  WSTRB                        integral  4     'b1000                                                      
  WLAST                        integral  1     'dX                                                         
  WDATA                        integral  32    'h8726e62f                                                  
  WSTRB                        integral  4     'b1                                                         
  WLAST                        integral  1     'dX                                                         
  WDATA                        integral  32    'h7e081079                                                  
  WSTRB                        integral  4     'b10                                                        
  WLAST                        integral  1     'dX                                                         
  WDATA                        integral  32    'hab7c2c4e                                                  
  WSTRB                        integral  4     'b100                                                       
  WLAST                        integral  1     'dX                                                         
  WDATA                        integral  32    'h4373f5b9                                                  
  WSTRB                        integral  4     'b1000                                                      
  WLAST                        integral  1     'dX                                                         
  WDATA                        integral  32    'he1233129                                                  
  WSTRB                        integral  4     'b1                                                         
  WLAST                        integral  1     'dX                                                         
  BID                          integral  4     8                                                           
  BRESP                        integral  2     'd0                                                         
  ARID                         integral  4     'd2                                                         
  ARADDR                       integral  32    'hd23e67d5                                                  
  ARLEN                        integral  8     'd1                                                         
  ARSIZE                       integral  3     'd0                                                         
  ARBURST                      integral  2     2                                                           
  RID                          integral  4     'd2                                                         
  RDATA                        integral  32    'h8ec03d27                                                  
  RRESP                        integral  2     'd0                                                         
  RDATA                        integral  32    'h21ab4a45                                                  
  RRESP                        integral  2     'd0                                                         
-----------------------------------------------------------------------------------------------------------
//////////////////////////////////////////////// write_addr////////////////
 wr_addr=46317012 46317008
//////////////////////////////////////////////// write_addr_AWADDR   ////////////////
 AWADDR=46317012
//////////////////////////////////////////////// read_addr////////////////
 rd_addr=10719914 10719916 10719918 10719912
//////////////////////////////////////////////// write_addr_ARADDR  ////////////////
 ARADDR=10719914
start of drive_awaddr
UVM_INFO ../master_agent_top/master_monitor.sv(111) @ 405: uvm_test_top.env_h.mst_agt_top.mst_agt_h[0].mst_mon_h [MST_MONITOR] printing from master monitor collect_awaddr 
 ------------------------------------
Name       Type      Size  Value    
------------------------------------
xtn        axi_xtn   -     @1390    
  AWID     integral  4     'd5      
  AWADDR   integral  32    'h2c2bdd4
  AWLEN    integral  4     'd1      
  AWSIZE   integral  3     'd2      
  AWBURST  integral  2     2        
  WID      integral  4     'd0      
  BID      integral  4     'd0      
  BRESP    integral  2     'd0      
  ARID     integral  4     'd0      
  ARADDR   integral  32    'h0      
  ARLEN    integral  8     'd0      
  ARSIZE   integral  3     'd0      
  ARBURST  integral  2     'd0      
  RID      integral  4     'd0      
------------------------------------

UVM_INFO ../slave_agent_top/slave_monitor.sv(110) @ 405: uvm_test_top.env_h.slv_agt_top.slv_agt_h[0].slv_mon_h [slv_monitor] printing from slave monitor collect_awaddr 
 ------------------------------------
Name       Type      Size  Value    
------------------------------------
xtn        axi_xtn   -     @1394    
  AWID     integral  4     'd5      
  AWADDR   integral  32    'h2c2bdd4
  AWLEN    integral  4     'd1      
  AWSIZE   integral  3     'd2      
  AWBURST  integral  2     2        
  WID      integral  4     'd0      
  BID      integral  4     'd0      
  BRESP    integral  2     'd0      
  ARID     integral  4     'd0      
  ARADDR   integral  32    'h0      
  ARLEN    integral  8     'd0      
  ARSIZE   integral  3     'd0      
  ARBURST  integral  2     'd0      
  RID      integral  4     'd0      
------------------------------------

inside drive_raddr before wait ARREADY
end of drive_awaddr
-----------------------------------------------------------------------------------------------------------
Name                           Type      Size  Value                                                       
-----------------------------------------------------------------------------------------------------------
req                            axi_xtn   -     @1402                                                       
  begin_time                   time      64    395                                                         
  depth                        int       32    'd2                                                         
  parent sequence (name)       string    5     m_seq                                                       
  parent sequence (full name)  string    60    uvm_test_top.env_h.mst_agt_top.mst_agt_h[0].mst_seqr_h.m_seq
  sequencer                    string    54    uvm_test_top.env_h.mst_agt_top.mst_agt_h[0].mst_seqr_h      
  AWID                         integral  4     'd5                                                         
  AWADDR                       integral  32    'h2c2bdd4                                                   
  AWLEN                        integral  4     'd1                                                         
  AWSIZE                       integral  3     'd2                                                         
  AWBURST                      integral  2     2                                                           
  WID                          integral  4     'd5                                                         
  WDATA                        integral  32    'h48954a40                                                  
  WSTRB                        integral  4     'b1111                                                      
  WLAST                        integral  1     'dX                                                         
  WDATA                        integral  32    'h442673e6                                                  
  WSTRB                        integral  4     'b1111                                                      
  WLAST                        integral  1     'dX                                                         
  BID                          integral  4     'd5                                                         
  BRESP                        integral  2     'd0                                                         
  ARID                         integral  4     11                                                          
  ARADDR                       integral  32    'ha392aa                                                    
  ARLEN                        integral  8     'd3                                                         
  ARSIZE                       integral  3     'd1                                                         
  ARBURST                      integral  2     2                                                           
  RID                          integral  4     11                                                          
  RDATA                        integral  32    'hd413e50f                                                  
  RRESP                        integral  2     'd0                                                         
  RDATA                        integral  32    'h4780096c                                                  
  RRESP                        integral  2     'd0                                                         
  RDATA                        integral  32    'hff3f47e                                                   
  RRESP                        integral  2     'd0                                                         
  RDATA                        integral  32    'hd971ca7f                                                  
  RRESP                        integral  2     'd0                                                         
-----------------------------------------------------------------------------------------------------------
UVM_INFO ../master_agent_top/master_monitor.sv(188) @ 425: uvm_test_top.env_h.mst_agt_top.mst_agt_h[0].mst_mon_h [MST_MONITOR] printing from master monitor collect_raddr 
 -------------------------------------
Name       Type      Size  Value     
-------------------------------------
xtn3       axi_xtn   -     @1370     
  AWID     integral  4     'd0       
  AWADDR   integral  32    'h0       
  AWLEN    integral  4     'd0       
  AWSIZE   integral  3     'd0       
  AWBURST  integral  2     'd0       
  WID      integral  4     'd0       
  BID      integral  4     'd0       
  BRESP    integral  2     'd0       
  ARID     integral  4     'd6       
  ARADDR   integral  32    'h8f742950
  ARLEN    integral  8     'd3       
  ARSIZE   integral  3     'd2       
  ARBURST  integral  2     2         
  RID      integral  4     'd0       
-------------------------------------

end of read_awaddr
start of read_awaddr
UVM_INFO ../slave_agent_top/slave_monitor.sv(184) @ 425: uvm_test_top.env_h.slv_agt_top.slv_agt_h[0].slv_mon_h [slv_monitor] printing from slave monitor collect_raddr 
 -------------------------------------
Name       Type      Size  Value     
-------------------------------------
xtn3       axi_xtn   -     @1386     
  AWID     integral  4     'd0       
  AWADDR   integral  32    'h0       
  AWLEN    integral  4     'd0       
  AWSIZE   integral  3     'd0       
  AWBURST  integral  2     'd0       
  WID      integral  4     'd0       
  BID      integral  4     'd0       
  BRESP    integral  2     'd0       
  ARID     integral  4     'd6       
  ARADDR   integral  32    'h8f742950
  ARLEN    integral  8     'd3       
  ARSIZE   integral  3     'd2       
  ARBURST  integral  2     2         
  RID      integral  4     'd0       
-------------------------------------

//////////////////////////////////////////////// write_addr////////////////
 wr_addr=2383665830 2383665832 2383665834 2383665836 2383665838 2383665824 2383665826 2383665828
//////////////////////////////////////////////// write_addr_AWADDR   ////////////////
 AWADDR=2383665830
//////////////////////////////////////////////// read_addr////////////////
 rd_addr=3775291392 3775291396
//////////////////////////////////////////////// write_addr_ARADDR  ////////////////
 ARADDR=3775291392
start of drive_awaddr
slave driver start of awvalid
WSTRB in slave driver is:2
value inside mem is: 000000bf
end of drive_raddr
end of slave_raddr
start of drive_raddr
start of slave_raddr
inside drive_raddr before wait ARREADY
slave driver start of awvalid
WSTRB in slave driver is:4
value inside mem is: 00000020
UVM_INFO ../master_agent_top/master_monitor.sv(111) @ 485: uvm_test_top.env_h.mst_agt_top.mst_agt_h[0].mst_mon_h [MST_MONITOR] printing from master monitor collect_awaddr 
 -------------------------------------
Name       Type      Size  Value     
-------------------------------------
xtn        axi_xtn   -     @1406     
  AWID     integral  4     13        
  AWADDR   integral  32    'h8e13daa6
  AWLEN    integral  4     'd7       
  AWSIZE   integral  3     'd1       
  AWBURST  integral  2     2         
  WID      integral  4     'd0       
  BID      integral  4     'd0       
  BRESP    integral  2     'd0       
  ARID     integral  4     'd0       
  ARADDR   integral  32    'h0       
  ARLEN    integral  8     'd0       
  ARSIZE   integral  3     'd0       
  ARBURST  integral  2     'd0       
  RID      integral  4     'd0       
-------------------------------------

UVM_INFO ../slave_agent_top/slave_monitor.sv(110) @ 485: uvm_test_top.env_h.slv_agt_top.slv_agt_h[0].slv_mon_h [slv_monitor] printing from slave monitor collect_awaddr 
 -------------------------------------
Name       Type      Size  Value     
-------------------------------------
xtn        axi_xtn   -     @1410     
  AWID     integral  4     13        
  AWADDR   integral  32    'h8e13daa6
  AWLEN    integral  4     'd7       
  AWSIZE   integral  3     'd1       
  AWBURST  integral  2     2         
  WID      integral  4     'd0       
  BID      integral  4     'd0       
  BRESP    integral  2     'd0       
  ARID     integral  4     'd0       
  ARADDR   integral  32    'h0       
  ARLEN    integral  8     'd0       
  ARSIZE   integral  3     'd0       
  ARBURST  integral  2     'd0       
  RID      integral  4     'd0       
-------------------------------------

UVM_INFO ../master_agent_top/master_monitor.sv(188) @ 485: uvm_test_top.env_h.mst_agt_top.mst_agt_h[0].mst_mon_h [MST_MONITOR] printing from master monitor collect_raddr 
 -------------------------------------
Name       Type      Size  Value     
-------------------------------------
xtn3       axi_xtn   -     @1422     
  AWID     integral  4     'd0       
  AWADDR   integral  32    'h0       
  AWLEN    integral  4     'd0       
  AWSIZE   integral  3     'd0       
  AWBURST  integral  2     'd0       
  WID      integral  4     'd0       
  BID      integral  4     'd0       
  BRESP    integral  2     'd0       
  ARID     integral  4     'd5       
  ARADDR   integral  32    'h6ecd0dc4
  ARLEN    integral  8     'd1       
  ARSIZE   integral  3     'd1       
  ARBURST  integral  2     2         
  RID      integral  4     'd0       
-------------------------------------

end of slave_raddr
UVM_INFO ../slave_agent_top/slave_monitor.sv(184) @ 485: uvm_test_top.env_h.slv_agt_top.slv_agt_h[0].slv_mon_h [slv_monitor] printing from slave monitor collect_raddr 
 -------------------------------------
Name       Type      Size  Value     
-------------------------------------
xtn3       axi_xtn   -     @1426     
  AWID     integral  4     'd0       
  AWADDR   integral  32    'h0       
  AWLEN    integral  4     'd0       
  AWSIZE   integral  3     'd0       
  AWBURST  integral  2     'd0       
  WID      integral  4     'd0       
  BID      integral  4     'd0       
  BRESP    integral  2     'd0       
  ARID     integral  4     'd5       
  ARADDR   integral  32    'h6ecd0dc4
  ARLEN    integral  8     'd1       
  ARSIZE   integral  3     'd1       
  ARBURST  integral  2     2         
  RID      integral  4     'd0       
-------------------------------------

start of slave_raddr
slave driver start of awvalid
WSTRB in slave driver is:8
value inside mem is: 00000095
end of drive_raddr
end of read_awaddr
start of read_awaddr
start of drive_raddr
end of drive_awaddr
-----------------------------------------------------------------------------------------------------------
Name                           Type      Size  Value                                                       
-----------------------------------------------------------------------------------------------------------
req                            axi_xtn   -     @1418                                                       
  begin_time                   time      64    425                                                         
  depth                        int       32    'd2                                                         
  parent sequence (name)       string    5     m_seq                                                       
  parent sequence (full name)  string    60    uvm_test_top.env_h.mst_agt_top.mst_agt_h[0].mst_seqr_h.m_seq
  sequencer                    string    54    uvm_test_top.env_h.mst_agt_top.mst_agt_h[0].mst_seqr_h      
  AWID                         integral  4     13                                                          
  AWADDR                       integral  32    'h8e13daa6                                                  
  AWLEN                        integral  4     'd7                                                         
  AWSIZE                       integral  3     'd1                                                         
  AWBURST                      integral  2     2                                                           
  WID                          integral  4     13                                                          
  WDATA                        integral  32    'h65c3607e                                                  
  WSTRB                        integral  4     'b0                                                         
  WLAST                        integral  1     'dX                                                         
  WDATA                        integral  32    'h689eeb05                                                  
  WSTRB                        integral  4     'b11                                                        
  WLAST                        integral  1     'dX                                                         
  WDATA                        integral  32    'hfa94df08                                                  
  WSTRB                        integral  4     'b1100                                                      
  WLAST                        integral  1     'dX                                                         
  WDATA                        integral  32    'h563f512f                                                  
  WSTRB                        integral  4     'b11                                                        
  WLAST                        integral  1     'dX                                                         
  WDATA                        integral  32    'h1666973e                                                  
  WSTRB                        integral  4     'b1100                                                      
  WLAST                        integral  1     'dX                                                         
  WDATA                        integral  32    'h162894d9                                                  
  WSTRB                        integral  4     'b11                                                        
  WLAST                        integral  1     'dX                                                         
  WDATA                        integral  32    'h5c097203                                                  
  WSTRB                        integral  4     'b1100                                                      
  WLAST                        integral  1     'dX                                                         
  WDATA                        integral  32    'h4e9a9f80                                                  
  WSTRB                        integral  4     'b11                                                        
  WLAST                        integral  1     'dX                                                         
  BID                          integral  4     13                                                          
  BRESP                        integral  2     'd0                                                         
  ARID                         integral  4     10                                                          
  ARADDR                       integral  32    'he1066000                                                  
  ARLEN                        integral  8     'd1                                                         
  ARSIZE                       integral  3     'd2                                                         
  ARBURST                      integral  2     2                                                           
  RID                          integral  4     10                                                          
  RDATA                        integral  32    'h77279fd                                                   
  RRESP                        integral  2     'd0                                                         
  RDATA                        integral  32    'h474abc25                                                  
  RRESP                        integral  2     'd0                                                         
-----------------------------------------------------------------------------------------------------------
//////////////////////////////////////////////// write_addr////////////////
 wr_addr=2570962924 2570962928 2570962932 2570962936 2570962940 2570962912 2570962916 2570962920
//////////////////////////////////////////////// write_addr_AWADDR   ////////////////
 AWADDR=2570962924
//////////////////////////////////////////////// read_addr////////////////
 rd_addr=2579286488 2579286492
//////////////////////////////////////////////// write_addr_ARADDR  ////////////////
 ARADDR=2579286488
start of drive_awaddr
UVM_INFO ../master_agent_top/master_monitor.sv(111) @ 525: uvm_test_top.env_h.mst_agt_top.mst_agt_h[0].mst_mon_h [MST_MONITOR] printing from master monitor collect_awaddr 
