vsim -vopt -voptargs="+acc" -coverage -sva -c -do " log -r /* ;coverage save -onexit mem_cov2;run -all; exit" -wlf wave_file2.wlf -l test2.log -sv_seed 3126729340 work.top "+UVM_OBJECTION_TRACE" "+UVM_TESTNAME=incr_seq_test" 
Start time: 14:30:57 on Jun 25,2024
** Note: (vsim-8009) Loading existing optimized design _opt2
//  Questa Sim-64
//  Version 2019.2 linux_x86_64 Apr 16 2019
//
//  Copyright 1991-2019 Mentor Graphics Corporation
//  All Rights Reserved.
//
//  QuestaSim and its associated documentation contain trade
//  secrets and commercial or financial information that are the property of
//  Mentor Graphics Corporation and are privileged, confidential,
//  and exempt from disclosure under the Freedom of Information Act,
//  5 U.S.C. Section 552. Furthermore, this information
//  is prohibited from disclosure under the Trade Secrets Act,
//  18 U.S.C. Section 1905.
//
Loading sv_std.std
Loading work.axi_if(fast)
Loading mtiUvm.uvm_pkg
Loading work.axi_test_pkg(fast)
Loading mtiUvm.questa_uvm_pkg(fast)
Loading work.top(fast)
Loading work.axi_if(fast)
# Loading /home/cad/eda/Questa_2019/questasim/uvm-1.1d/linux_x86_64/uvm_dpi.so
** Warning: (vsim-8634) Code was not compiled with coverage options.
 log -r /* 
coverage save -onexit mem_cov2
run -all
----------------------------------------------------------------
UVM-1.1d
(C) 2007-2013 Mentor Graphics Corporation
(C) 2007-2013 Cadence Design Systems, Inc.
(C) 2006-2013 Synopsys, Inc.
(C) 2011-2013 Cypress Semiconductor Corp.
----------------------------------------------------------------

  ***********       IMPORTANT RELEASE NOTES         ************

  You are using a version of the UVM library that has been compiled
  with `UVM_NO_DEPRECATED undefined.
  See http://www.eda.org/svdb/view.php?id=3313 for more details.

  You are using a version of the UVM library that has been compiled
  with `UVM_OBJECT_MUST_HAVE_CONSTRUCTOR undefined.
  See http://www.eda.org/svdb/view.php?id=3770 for more details.

      (Specify +UVM_NO_RELNOTES to turn off this notice)

UVM_INFO verilog_src/questa_uvm_pkg-1.2/src/questa_uvm_pkg.sv(277) @ 0: reporter [Questa UVM] QUESTA_UVM-1.2.3
UVM_INFO verilog_src/questa_uvm_pkg-1.2/src/questa_uvm_pkg.sv(278) @ 0: reporter [Questa UVM]  questa_uvm::init(+struct)
UVM_INFO @ 0: reporter [RNTST] Running test incr_seq_test...
UVM_INFO @ 0: run [OBJTN_TRC] Object uvm_test_top raised 1 objection(s): count=1  total=1
UVM_INFO @ 0: run [OBJTN_TRC] Object uvm_top added 1 objection(s) to its total (raised from source object uvm_test_top): count=0  total=1
start of read_awaddr
start of slave_raddr
//////////////////////////////////////////////// write_addr////////////////
 wr_addr=4117109163 4117109164 4117109166 4117109168 4117109170
//////////////////////////////////////////////// write_addr_AWADDR   ////////////////
 AWADDR=4117109163
//////////////////////////////////////////////// read_addr////////////////
 rd_addr=3738749415 3738749416 3738749417 3738749418 3738749419 3738749420 3738749421 3738749422 3738749423
//////////////////////////////////////////////// write_addr_ARADDR  ////////////////
 ARADDR=3738749415
start of drive_awaddr
start of drive_raddr
UVM_INFO ../master_agent_top/master_monitor.sv(111) @ 25: uvm_test_top.env_h.mst_agt_top.mst_agt_h[0].mst_mon_h [MST_MONITOR] printing from master monitor collect_awaddr 
 -------------------------------------
Name       Type      Size  Value     
-------------------------------------
xtn        axi_xtn   -     @1099     
  AWID     integral  4     11        
  AWADDR   integral  32    'hf56619ab
  AWLEN    integral  4     'd4       
  AWSIZE   integral  3     'd1       
  AWBURST  integral  2     'd1       
  WID      integral  4     'd0       
  BID      integral  4     'd0       
  BRESP    integral  2     'd0       
  ARID     integral  4     'd0       
  ARADDR   integral  32    'h0       
  ARLEN    integral  8     'd0       
  ARSIZE   integral  3     'd0       
  ARBURST  integral  2     'd0       
  RID      integral  4     'd0       
-------------------------------------

UVM_INFO ../slave_agent_top/slave_monitor.sv(110) @ 25: uvm_test_top.env_h.slv_agt_top.slv_agt_h[0].slv_mon_h [slv_monitor] printing from slave monitor collect_awaddr 
 -------------------------------------
Name       Type      Size  Value     
-------------------------------------
xtn        axi_xtn   -     @1081     
  AWID     integral  4     11        
  AWADDR   integral  32    'hf56619ab
  AWLEN    integral  4     'd4       
  AWSIZE   integral  3     'd1       
  AWBURST  integral  2     'd1       
  WID      integral  4     'd0       
  BID      integral  4     'd0       
  BRESP    integral  2     'd0       
  ARID     integral  4     'd0       
  ARADDR   integral  32    'h0       
  ARLEN    integral  8     'd0       
  ARSIZE   integral  3     'd0       
  ARBURST  integral  2     'd0       
  RID      integral  4     'd0       
-------------------------------------

end of read_awaddr
start of read_awaddr
start of read_data
aligned:f56619aa
addresses calculated in slave side are '{f56619ab, f56619ac, f56619ae, f56619b0, f56619b2}
inside drive_raddr before wait ARREADY
end of drive_awaddr
-----------------------------------------------------------------------------------------------------------
Name                           Type      Size  Value                                                       
-----------------------------------------------------------------------------------------------------------
req                            axi_xtn   -     @1113                                                       
  begin_time                   time      64    0                                                           
  depth                        int       32    'd2                                                         
  parent sequence (name)       string    5     m_seq                                                       
  parent sequence (full name)  string    60    uvm_test_top.env_h.mst_agt_top.mst_agt_h[0].mst_seqr_h.m_seq
  sequencer                    string    54    uvm_test_top.env_h.mst_agt_top.mst_agt_h[0].mst_seqr_h      
  AWID                         integral  4     11                                                          
  AWADDR                       integral  32    'hf56619ab                                                  
  AWLEN                        integral  4     'd4                                                         
  AWSIZE                       integral  3     'd1                                                         
  AWBURST                      integral  2     'd1                                                         
  WID                          integral  4     11                                                          
  WDATA                        integral  32    'h41429d4b                                                  
  WSTRB                        integral  4     'b0                                                         
  WLAST                        integral  1     'dX                                                         
  WDATA                        integral  32    'ha624c4ad                                                  
  WSTRB                        integral  4     'b11                                                        
  WLAST                        integral  1     'dX                                                         
  WDATA                        integral  32    'h533c249e                                                  
  WSTRB                        integral  4     'b1100                                                      
  WLAST                        integral  1     'dX                                                         
  WDATA                        integral  32    'h1925fdb1                                                  
  WSTRB                        integral  4     'b11                                                        
  WLAST                        integral  1     'dX                                                         
  WDATA                        integral  32    'hb9408b22                                                  
  WSTRB                        integral  4     'b1100                                                      
  WLAST                        integral  1     'dX                                                         
  BID                          integral  4     11                                                          
  BRESP                        integral  2     'd0                                                         
  ARID                         integral  4     'd0                                                         
  ARADDR                       integral  32    'hded8c9e7                                                  
  ARLEN                        integral  8     'd8                                                         
  ARSIZE                       integral  3     'd0                                                         
  ARBURST                      integral  2     'd1                                                         
  RID                          integral  4     'd0                                                         
  RDATA                        integral  32    'he22d4440                                                  
  RRESP                        integral  2     'd0                                                         
  RDATA                        integral  32    'h431801d9                                                  
  RRESP                        integral  2     'd0                                                         
  RDATA                        integral  32    'hb6433b92                                                  
  RRESP                        integral  2     'd0                                                         
  RDATA                        integral  32    'ha6675233                                                  
  RRESP                        integral  2     'd0                                                         
  RDATA                        integral  32    'h5d6146a1                                                  
  RRESP                        integral  2     'd0                                                         
  RDATA                        integral  32    'h648a1fa8                                                  
  RRESP                        integral  2     'd0                                                         
  RDATA                        integral  32    'he72ba557                                                  
  RRESP                        integral  2     'd0                                                         
  RDATA                        integral  32    'hc33209ee                                                  
  RRESP                        integral  2     'd0                                                         
  RDATA                        integral  32    'h3f88fdb8                                                  
  RRESP                        integral  2     'd0                                                         
-----------------------------------------------------------------------------------------------------------
start of drive_wdata
//////////////////////////////////////////////// write_addr////////////////
 wr_addr=2577077133 2577077134 2577077136 2577077138 2577077140 2577077142 2577077144 2577077146
//////////////////////////////////////////////// write_addr_AWADDR   ////////////////
 AWADDR=2577077133
//////////////////////////////////////////////// read_addr////////////////
 rd_addr=1934909616 1934909617 1934909618
//////////////////////////////////////////////// write_addr_ARADDR  ////////////////
 ARADDR=1934909616
start of drive_awaddr
slave driver start of awvalid
WSTRB in slave driver is:0
** Warning: (vsim-3829) Non-existent associative array entry. Returning default value.
   Time: 65 ns  Iteration: 2  Process: /axi_test_pkg::slave_driver::drive/#FORK#72_7fefec43701 File: ../slave_agent_top/slave_driver.sv Line: 177
value inside mem is: 00000000
UVM_INFO ../master_agent_top/master_monitor.sv(188) @ 65: uvm_test_top.env_h.mst_agt_top.mst_agt_h[0].mst_mon_h [MST_MONITOR] printing from master monitor collect_raddr 
 -------------------------------------
Name       Type      Size  Value     
-------------------------------------
xtn3       axi_xtn   -     @1103     
  AWID     integral  4     'd0       
  AWADDR   integral  32    'h0       
  AWLEN    integral  4     'd0       
  AWSIZE   integral  3     'd0       
  AWBURST  integral  2     'd0       
  WID      integral  4     'd0       
  BID      integral  4     'd0       
  BRESP    integral  2     'd0       
  ARID     integral  4     'd0       
  ARADDR   integral  32    'hded8c9e7
  ARLEN    integral  8     'd8       
  ARSIZE   integral  3     'd0       
  ARBURST  integral  2     'd1       
  RID      integral  4     'd0       
-------------------------------------

UVM_INFO ../slave_agent_top/slave_monitor.sv(184) @ 65: uvm_test_top.env_h.slv_agt_top.slv_agt_h[0].slv_mon_h [slv_monitor] printing from slave monitor collect_raddr 
 -------------------------------------
Name       Type      Size  Value     
-------------------------------------
xtn3       axi_xtn   -     @1085     
  AWID     integral  4     'd0       
  AWADDR   integral  32    'h0       
  AWLEN    integral  4     'd0       
  AWSIZE   integral  3     'd0       
  AWBURST  integral  2     'd0       
  WID      integral  4     'd0       
  BID      integral  4     'd0       
  BRESP    integral  2     'd0       
  ARID     integral  4     'd0       
  ARADDR   integral  32    'hded8c9e7
  ARLEN    integral  8     'd8       
  ARSIZE   integral  3     'd0       
  ARBURST  integral  2     'd1       
  RID      integral  4     'd0       
-------------------------------------

end of drive_raddr
start of drive_raddr
start of drive_rdata
end of slave_raddr
start of slave_raddr
start of slave_rdata
UVM_INFO ../master_agent_top/master_monitor.sv(111) @ 105: uvm_test_top.env_h.mst_agt_top.mst_agt_h[0].mst_mon_h [MST_MONITOR] printing from master monitor collect_awaddr 
 -------------------------------------
Name       Type      Size  Value     
-------------------------------------
xtn        axi_xtn   -     @1189     
  AWID     integral  4     'd5       
  AWADDR   integral  32    'h999b138d
  AWLEN    integral  4     'd7       
  AWSIZE   integral  3     'd1       
  AWBURST  integral  2     'd1       
  WID      integral  4     'd0       
  BID      integral  4     'd0       
  BRESP    integral  2     'd0       
  ARID     integral  4     'd0       
  ARADDR   integral  32    'h0       
  ARLEN    integral  8     'd0       
  ARSIZE   integral  3     'd0       
  ARBURST  integral  2     'd0       
  RID      integral  4     'd0       
-------------------------------------

UVM_INFO ../slave_agent_top/slave_monitor.sv(110) @ 105: uvm_test_top.env_h.slv_agt_top.slv_agt_h[0].slv_mon_h [slv_monitor] printing from slave monitor collect_awaddr 
 -------------------------------------
Name       Type      Size  Value     
-------------------------------------
xtn        axi_xtn   -     @1193     
  AWID     integral  4     'd5       
  AWADDR   integral  32    'h999b138d
  AWLEN    integral  4     'd7       
  AWSIZE   integral  3     'd1       
  AWBURST  integral  2     'd1       
  WID      integral  4     'd0       
  BID      integral  4     'd0       
  BRESP    integral  2     'd0       
  ARID     integral  4     'd0       
  ARADDR   integral  32    'h0       
  ARLEN    integral  8     'd0       
  ARSIZE   integral  3     'd0       
  ARBURST  integral  2     'd0       
  RID      integral  4     'd0       
-------------------------------------

slave driver start of awvalid
WSTRB in slave driver is:3
value inside mem is: 0000c4ad
end of drive_awaddr
-----------------------------------------------------------------------------------------------------------
Name                           Type      Size  Value                                                       
-----------------------------------------------------------------------------------------------------------
req                            axi_xtn   -     @1210                                                       
  begin_time                   time      64    55                                                          
  depth                        int       32    'd2                                                         
  parent sequence (name)       string    5     m_seq                                                       
  parent sequence (full name)  string    60    uvm_test_top.env_h.mst_agt_top.mst_agt_h[0].mst_seqr_h.m_seq
  sequencer                    string    54    uvm_test_top.env_h.mst_agt_top.mst_agt_h[0].mst_seqr_h      
  AWID                         integral  4     'd5                                                         
  AWADDR                       integral  32    'h999b138d                                                  
  AWLEN                        integral  4     'd7                                                         
  AWSIZE                       integral  3     'd1                                                         
  AWBURST                      integral  2     'd1                                                         
  WID                          integral  4     'd5                                                         
  WDATA                        integral  32    'hdd88bc7c                                                  
  WSTRB                        integral  4     'b0                                                         
  WLAST                        integral  1     'dX                                                         
  WDATA                        integral  32    'h7ea7c825                                                  
  WSTRB                        integral  4     'b1100                                                      
  WLAST                        integral  1     'dX                                                         
  WDATA                        integral  32    'h89eb1a1                                                   
  WSTRB                        integral  4     'b11                                                        
  WLAST                        integral  1     'dX                                                         
  WDATA                        integral  32    'h433175fe                                                  
  WSTRB                        integral  4     'b1100                                                      
  WLAST                        integral  1     'dX                                                         
  WDATA                        integral  32    'h4582e7cf                                                  
  WSTRB                        integral  4     'b11                                                        
  WLAST                        integral  1     'dX                                                         
  WDATA                        integral  32    'heb213aea                                                  
  WSTRB                        integral  4     'b1100                                                      
  WLAST                        integral  1     'dX                                                         
  WDATA                        integral  32    'h6f5e0ed7                                                  
  WSTRB                        integral  4     'b11                                                        
  WLAST                        integral  1     'dX                                                         
  WDATA                        integral  32    'h771a35f                                                   
  WSTRB                        integral  4     'b1100                                                      
  WLAST                        integral  1     'dX                                                         
  BID                          integral  4     'd5                                                         
  BRESP                        integral  2     'd0                                                         
  ARID                         integral  4     'd7                                                         
  ARADDR                       integral  32    'h735460b0                                                  
  ARLEN                        integral  8     'd2                                                         
  ARSIZE                       integral  3     'd0                                                         
  ARBURST                      integral  2     'd1                                                         
  RID                          integral  4     'd7                                                         
  RDATA                        integral  32    'hed709170                                                  
  RRESP                        integral  2     'd0                                                         
  RDATA                        integral  32    'h2b9aa290                                                  
  RRESP                        integral  2     'd0                                                         
  RDATA                        integral  32    'h2722a3ad                                                  
  RRESP                        integral  2     'd0                                                         
-----------------------------------------------------------------------------------------------------------
end of read_awaddr
start of read_awaddr
//////////////////////////////////////////////// write_addr////////////////
 wr_addr=3289600756 3289600758 3289600760 3289600762 3289600764 3289600766 3289600768 3289600770 3289600772 3289600774 3289600776 3289600778
//////////////////////////////////////////////// write_addr_AWADDR   ////////////////
 AWADDR=3289600756
//////////////////////////////////////////////// read_addr////////////////
 rd_addr=3366952371 3366952372 3366952373 3366952374 3366952375 3366952376 3366952377 3366952378 3366952379 3366952380
//////////////////////////////////////////////// write_addr_ARADDR  ////////////////
 ARADDR=3366952371
start of drive_awaddr
inside drive_raddr before wait ARREADY
UVM_INFO ../master_agent_top/master_monitor.sv(111) @ 135: uvm_test_top.env_h.mst_agt_top.mst_agt_h[0].mst_mon_h [MST_MONITOR] printing from master monitor collect_awaddr 
 -------------------------------------
Name       Type      Size  Value     
-------------------------------------
xtn        axi_xtn   -     @1234     
  AWID     integral  4     'd1       
  AWADDR   integral  32    'hc41352f4
  AWLEN    integral  4     11        
  AWSIZE   integral  3     'd1       
  AWBURST  integral  2     'd1       
  WID      integral  4     'd0       
  BID      integral  4     'd0       
  BRESP    integral  2     'd0       
  ARID     integral  4     'd0       
  ARADDR   integral  32    'h0       
  ARLEN    integral  8     'd0       
  ARSIZE   integral  3     'd0       
  ARBURST  integral  2     'd0       
  RID      integral  4     'd0       
-------------------------------------

UVM_INFO ../slave_agent_top/slave_monitor.sv(110) @ 135: uvm_test_top.env_h.slv_agt_top.slv_agt_h[0].slv_mon_h [slv_monitor] printing from slave monitor collect_awaddr 
 -------------------------------------
Name       Type      Size  Value     
-------------------------------------
xtn        axi_xtn   -     @1242     
  AWID     integral  4     'd1       
  AWADDR   integral  32    'hc41352f4
  AWLEN    integral  4     11        
  AWSIZE   integral  3     'd1       
  AWBURST  integral  2     'd1       
  WID      integral  4     'd0       
  BID      integral  4     'd0       
  BRESP    integral  2     'd0       
  ARID     integral  4     'd0       
  ARADDR   integral  32    'h0       
  ARLEN    integral  8     'd0       
  ARSIZE   integral  3     'd0       
  ARBURST  integral  2     'd0       
  RID      integral  4     'd0       
-------------------------------------

end of drive_awaddr
-----------------------------------------------------------------------------------------------------------
Name                           Type      Size  Value                                                       
-----------------------------------------------------------------------------------------------------------
req                            axi_xtn   -     @1246                                                       
  begin_time                   time      64    115                                                         
  depth                        int       32    'd2                                                         
  parent sequence (name)       string    5     m_seq                                                       
  parent sequence (full name)  string    60    uvm_test_top.env_h.mst_agt_top.mst_agt_h[0].mst_seqr_h.m_seq
  sequencer                    string    54    uvm_test_top.env_h.mst_agt_top.mst_agt_h[0].mst_seqr_h      
  AWID                         integral  4     'd1                                                         
  AWADDR                       integral  32    'hc41352f4                                                  
  AWLEN                        integral  4     11                                                          
  AWSIZE                       integral  3     'd1                                                         
  AWBURST                      integral  2     'd1                                                         
  WID                          integral  4     'd1                                                         
  WDATA                        integral  32    'h23b5f42c                                                  
  WSTRB                        integral  4     'b11                                                        
  WLAST                        integral  1     'dX                                                         
  WDATA                        integral  32    'h8ce02dae                                                  
  WSTRB                        integral  4     'b1100                                                      
  WLAST                        integral  1     'dX                                                         
  WDATA                        integral  32    'h3be2ad92                                                  
  WSTRB                        integral  4     'b11                                                        
  WLAST                        integral  1     'dX                                                         
  WDATA                        integral  32    'hcca86523                                                  
  WSTRB                        integral  4     'b1100                                                      
  WLAST                        integral  1     'dX                                                         
  WDATA                        integral  32    'he1c36056                                                  
  WSTRB                        integral  4     'b11                                                        
  WLAST                        integral  1     'dX                                                         
  WDATA                        integral  32    'hebf960f0                                                  
  WSTRB                        integral  4     'b1100                                                      
  WLAST                        integral  1     'dX                                                         
  WDATA                        integral  32    'hb86a7694                                                  
  WSTRB                        integral  4     'b11                                                        
  WLAST                        integral  1     'dX                                                         
  WDATA                        integral  32    'h70e83076                                                  
  WSTRB                        integral  4     'b1100                                                      
  WLAST                        integral  1     'dX                                                         
  WDATA                        integral  32    'h7434bae5                                                  
  WSTRB                        integral  4     'b11                                                        
  WLAST                        integral  1     'dX                                                         
  WDATA                        integral  32    'h7bfbb7d9                                                  
  WSTRB                        integral  4     'b1100                                                      
  WLAST                        integral  1     'dX                                                         
  WDATA                        integral  32    'hf3b35ad0                                                  
  WSTRB                        integral  4     'b11                                                        
  WLAST                        integral  1     'dX                                                         
  WDATA                        integral  32    'hdaf4deab                                                  
  WSTRB                        integral  4     'b1100                                                      
  WLAST                        integral  1     'dX                                                         
  BID                          integral  4     'd1                                                         
  BRESP                        integral  2     'd0                                                         
  ARID                         integral  4     10                                                          
  ARADDR                       integral  32    'hc8af9db3                                                  
  ARLEN                        integral  8     'd9                                                         
  ARSIZE                       integral  3     'd0                                                         
  ARBURST                      integral  2     'd1                                                         
  RID                          integral  4     10                                                          
  RDATA                        integral  32    'h5236475e                                                  
  RRESP                        integral  2     'd0                                                         
  RDATA                        integral  32    'hb4f9d6e6                                                  
  RRESP                        integral  2     'd0                                                         
  RDATA                        integral  32    'h98f1060c                                                  
  RRESP                        integral  2     'd0                                                         
  RDATA                        integral  32    'h4a8de14b                                                  
  RRESP                        integral  2     'd0                                                         
  RDATA                        integral  32    'hd013dcf4                                                  
  RRESP                        integral  2     'd0                                                         
  RDATA                        integral  32    'h4fa5e51c                                                  
  RRESP                        integral  2     'd0                                                         
  RDATA                        integral  32    'h4f7144d7                                                  
  RRESP                        integral  2     'd0                                                         
  RDATA                        integral  32    'h6ff0fb58                                                  
  RRESP                        integral  2     'd0                                                         
  RDATA                        integral  32    'h1c6b7384                                                  
  RRESP                        integral  2     'd0                                                         
  RDATA                        integral  32    'h883c5f6b                                                  
  RRESP                        integral  2     'd0                                                         
-----------------------------------------------------------------------------------------------------------
//////////////////////////////////////////////// write_addr////////////////
 wr_addr=2034335748 2034335749 2034335750 2034335751
//////////////////////////////////////////////// write_addr_AWADDR   ////////////////
 AWADDR=2034335748
//////////////////////////////////////////////// read_addr////////////////
 rd_addr=492015266 492015268 492015272 492015276 492015280 492015284
//////////////////////////////////////////////// write_addr_ARADDR  ////////////////
 ARADDR=492015266
start of drive_awaddr
UVM_INFO ../master_agent_top/master_monitor.sv(111) @ 155: uvm_test_top.env_h.mst_agt_top.mst_agt_h[0].mst_mon_h [MST_MONITOR] printing from master monitor collect_awaddr 
 -------------------------------------
Name       Type      Size  Value     
-------------------------------------
xtn        axi_xtn   -     @1250     
  AWID     integral  4     'd0       
  AWADDR   integral  32    'h79418004
  AWLEN    integral  4     'd3       
  AWSIZE   integral  3     'd0       
  AWBURST  integral  2     'd1       
  WID      integral  4     'd0       
  BID      integral  4     'd0       
  BRESP    integral  2     'd0       
  ARID     integral  4     'd0       
  ARADDR   integral  32    'h0       
  ARLEN    integral  8     'd0       
  ARSIZE   integral  3     'd0       
  ARBURST  integral  2     'd0       
  RID      integral  4     'd0       
-------------------------------------

UVM_INFO ../slave_agent_top/slave_monitor.sv(110) @ 155: uvm_test_top.env_h.slv_agt_top.slv_agt_h[0].slv_mon_h [slv_monitor] printing from slave monitor collect_awaddr 
 -------------------------------------
Name       Type      Size  Value     
-------------------------------------
xtn        axi_xtn   -     @1254     
  AWID     integral  4     'd0       
  AWADDR   integral  32    'h79418004
  AWLEN    integral  4     'd3       
  AWSIZE   integral  3     'd0       
  AWBURST  integral  2     'd1       
  WID      integral  4     'd0       
  BID      integral  4     'd0       
  BRESP    integral  2     'd0       
  ARID     integral  4     'd0       
  ARADDR   integral  32    'h0       
  ARLEN    integral  8     'd0       
  ARSIZE   integral  3     'd0       
  ARBURST  integral  2     'd0       
  RID      integral  4     'd0       
-------------------------------------

UVM_INFO ../master_agent_top/master_monitor.sv(188) @ 155: uvm_test_top.env_h.mst_agt_top.mst_agt_h[0].mst_mon_h [MST_MONITOR] printing from master monitor collect_raddr 
 -------------------------------------
Name       Type      Size  Value     
-------------------------------------
xtn3       axi_xtn   -     @1214     
  AWID     integral  4     'd0       
  AWADDR   integral  32    'h0       
  AWLEN    integral  4     'd0       
  AWSIZE   integral  3     'd0       
  AWBURST  integral  2     'd0       
  WID      integral  4     'd0       
  BID      integral  4     'd0       
  BRESP    integral  2     'd0       
  ARID     integral  4     'd7       
  ARADDR   integral  32    'h735460b0
  ARLEN    integral  8     'd2       
  ARSIZE   integral  3     'd0       
  ARBURST  integral  2     'd1       
  RID      integral  4     'd0       
-------------------------------------

slave driver start of awvalid
WSTRB in slave driver is:12
value inside mem is: 0000533c
UVM_INFO ../slave_agent_top/slave_monitor.sv(184) @ 155: uvm_test_top.env_h.slv_agt_top.slv_agt_h[0].slv_mon_h [slv_monitor] printing from slave monitor collect_raddr 
 -------------------------------------
Name       Type      Size  Value     
-------------------------------------
xtn3       axi_xtn   -     @1222     
  AWID     integral  4     'd0       
  AWADDR   integral  32    'h0       
  AWLEN    integral  4     'd0       
  AWSIZE   integral  3     'd0       
  AWBURST  integral  2     'd0       
  WID      integral  4     'd0       
  BID      integral  4     'd0       
  BRESP    integral  2     'd0       
  ARID     integral  4     'd7       
  ARADDR   integral  32    'h735460b0
  ARLEN    integral  8     'd2       
  ARSIZE   integral  3     'd0       
  ARBURST  integral  2     'd1       
  RID      integral  4     'd0       
-------------------------------------

end of drive_awaddr
-----------------------------------------------------------------------------------------------------------
Name                           Type      Size  Value                                                       
-----------------------------------------------------------------------------------------------------------
req                            axi_xtn   -     @1258                                                       
  begin_time                   time      64    145                                                         
  depth                        int       32    'd2                                                         
  parent sequence (name)       string    5     m_seq                                                       
  parent sequence (full name)  string    60    uvm_test_top.env_h.mst_agt_top.mst_agt_h[0].mst_seqr_h.m_seq
  sequencer                    string    54    uvm_test_top.env_h.mst_agt_top.mst_agt_h[0].mst_seqr_h      
  AWID                         integral  4     'd0                                                         
  AWADDR                       integral  32    'h79418004                                                  
  AWLEN                        integral  4     'd3                                                         
  AWSIZE                       integral  3     'd0                                                         
  AWBURST                      integral  2     'd1                                                         
  WID                          integral  4     'd0                                                         
  WDATA                        integral  32    'h39c37c3c                                                  
  WSTRB                        integral  4     'b1                                                         
  WLAST                        integral  1     'dX                                                         
  WDATA                        integral  32    'hdbfb1122                                                  
  WSTRB                        integral  4     'b10                                                        
  WLAST                        integral  1     'dX                                                         
  WDATA                        integral  32    'hf4cefe9b                                                  
  WSTRB                        integral  4     'b100                                                       
  WLAST                        integral  1     'dX                                                         
  WDATA                        integral  32    'hfc2c1f45                                                  
  WSTRB                        integral  4     'b1000                                                      
  WLAST                        integral  1     'dX                                                         
  BID                          integral  4     'd0                                                         
  BRESP                        integral  2     'd0                                                         
  ARID                         integral  4     'd3                                                         
  ARADDR                       integral  32    'h1d538ea2                                                  
  ARLEN                        integral  8     'd5                                                         
  ARSIZE                       integral  3     'd2                                                         
  ARBURST                      integral  2     'd1                                                         
  RID                          integral  4     'd3                                                         
  RDATA                        integral  32    'h487ea04f                                                  
  RRESP                        integral  2     'd0                                                         
  RDATA                        integral  32    'h6d4f21d4                                                  
  RRESP                        integral  2     'd0                                                         
  RDATA                        integral  32    'h498b0145                                                  
  RRESP                        integral  2     'd0                                                         
  RDATA                        integral  32    'h73b9666e                                                  
  RRESP                        integral  2     'd0                                                         
  RDATA                        integral  32    'h2c261db6                                                  
  RRESP                        integral  2     'd0                                                         
  RDATA                        integral  32    'h734ddaa8                                                  
  RRESP                        integral  2     'd0                                                         
-----------------------------------------------------------------------------------------------------------
end of slave_raddr
start of slave_raddr
//////////////////////////////////////////////// write_addr////////////////
 wr_addr=87996490 87996491 87996492 87996493 87996494 87996495 87996496 87996497 87996498
//////////////////////////////////////////////// write_addr_AWADDR   ////////////////
 AWADDR=87996490
//////////////////////////////////////////////// read_addr////////////////
 rd_addr=1876580801 1876580802 1876580804 1876580806 1876580808 1876580810 1876580812 1876580814 1876580816 1876580818 1876580820 1876580822 1876580824
//////////////////////////////////////////////// write_addr_ARADDR  ////////////////
 ARADDR=1876580801
start of drive_awaddr
UVM_INFO ../master_agent_top/master_monitor.sv(111) @ 185: uvm_test_top.env_h.mst_agt_top.mst_agt_h[0].mst_mon_h [MST_MONITOR] printing from master monitor collect_awaddr 
 ------------------------------------
Name       Type      Size  Value    
------------------------------------
xtn        axi_xtn   -     @1270    
  AWID     integral  4     'd2      
  AWADDR   integral  32    'h53eb84a
  AWLEN    integral  4     8        
  AWSIZE   integral  3     'd0      
  AWBURST  integral  2     'd1      
  WID      integral  4     'd0      
  BID      integral  4     'd0      
  BRESP    integral  2     'd0      
  ARID     integral  4     'd0      
  ARADDR   integral  32    'h0      
  ARLEN    integral  8     'd0      
  ARSIZE   integral  3     'd0      
  ARBURST  integral  2     'd0      
  RID      integral  4     'd0      
------------------------------------

UVM_INFO ../slave_agent_top/slave_monitor.sv(110) @ 185: uvm_test_top.env_h.slv_agt_top.slv_agt_h[0].slv_mon_h [slv_monitor] printing from slave monitor collect_awaddr 
 ------------------------------------
Name       Type      Size  Value    
------------------------------------
xtn        axi_xtn   -     @1274    
  AWID     integral  4     'd2      
  AWADDR   integral  32    'h53eb84a
  AWLEN    integral  4     8        
  AWSIZE   integral  3     'd0      
  AWBURST  integral  2     'd1      
  WID      integral  4     'd0      
  BID      integral  4     'd0      
  BRESP    integral  2     'd0      
  ARID     integral  4     'd0      
  ARADDR   integral  32    'h0      
  ARLEN    integral  8     'd0      
  ARSIZE   integral  3     'd0      
  ARBURST  integral  2     'd0      
  RID      integral  4     'd0      
------------------------------------

slave driver start of awvalid
WSTRB in slave driver is:3
value inside mem is: 0000fdb1
end of drive_raddr
end of read_awaddr
start of read_awaddr
start of drive_raddr
slave driver start of awvalid
WSTRB in slave driver is:12
value inside mem is: 0000b940
inside drive_raddr before wait ARREADY
end of drive_raddr
end of drive_awaddr
-----------------------------------------------------------------------------------------------------------
Name                           Type      Size  Value                                                       
-----------------------------------------------------------------------------------------------------------
req                            axi_xtn   -     @1278                                                       
  begin_time                   time      64    175                                                         
  depth                        int       32    'd2                                                         
  parent sequence (name)       string    5     m_seq                                                       
  parent sequence (full name)  string    60    uvm_test_top.env_h.mst_agt_top.mst_agt_h[0].mst_seqr_h.m_seq
  sequencer                    string    54    uvm_test_top.env_h.mst_agt_top.mst_agt_h[0].mst_seqr_h      
  AWID                         integral  4     'd2                                                         
  AWADDR                       integral  32    'h53eb84a                                                   
  AWLEN                        integral  4     8                                                           
  AWSIZE                       integral  3     'd0                                                         
  AWBURST                      integral  2     'd1                                                         
  WID                          integral  4     'd2                                                         
  WDATA                        integral  32    'h349ed0f                                                   
  WSTRB                        integral  4     'b100                                                       
  WLAST                        integral  1     'dX                                                         
  WDATA                        integral  32    'h4818a08d                                                  
  WSTRB                        integral  4     'b1000                                                      
  WLAST                        integral  1     'dX                                                         
  WDATA                        integral  32    'h732c2d70                                                  
  WSTRB                        integral  4     'b1                                                         
  WLAST                        integral  1     'dX                                                         
  WDATA                        integral  32    'hf5817bc                                                   
  WSTRB                        integral  4     'b10                                                        
  WLAST                        integral  1     'dX                                                         
  WDATA                        integral  32    'h48417d49                                                  
  WSTRB                        integral  4     'b100                                                       
  WLAST                        integral  1     'dX                                                         
  WDATA                        integral  32    'hfb76abb4                                                  
  WSTRB                        integral  4     'b1000                                                      
  WLAST                        integral  1     'dX                                                         
  WDATA                        integral  32    'hc6c976e8                                                  
  WSTRB                        integral  4     'b1                                                         
  WLAST                        integral  1     'dX                                                         
  WDATA                        integral  32    'h8b227b1d                                                  
  WSTRB                        integral  4     'b10                                                        
  WLAST                        integral  1     'dX                                                         
  WDATA                        integral  32    'ha93fcd02                                                  
  WSTRB                        integral  4     'b100                                                       
  WLAST                        integral  1     'dX                                                         
  BID                          integral  4     'd2                                                         
  BRESP                        integral  2     'd0                                                         
  ARID                         integral  4     14                                                          
  ARADDR                       integral  32    'h6fda59c1                                                  
  ARLEN                        integral  8     'd12                                                        
  ARSIZE                       integral  3     'd1                                                         
  ARBURST                      integral  2     'd1                                                         
  RID                          integral  4     14                                                          
  RDATA                        integral  32    'heb4ac338                                                  
  RRESP                        integral  2     'd0                                                         
  RDATA                        integral  32    'hc8a05962                                                  
  RRESP                        integral  2     'd0                                                         
  RDATA                        integral  32    'h65c74fac                                                  
  RRESP                        integral  2     'd0                                                         
  RDATA                        integral  32    'h13be4be0                                                  
  RRESP                        integral  2     'd0                                                         
  RDATA                        integral  32    'h33e510da                                                  
  RRESP                        integral  2     'd0                                                         
  RDATA                        integral  32    'h3932b23f                                                  
  RRESP                        integral  2     'd0                                                         
  RDATA                        integral  32    'hfee3aa10                                                  
  RRESP                        integral  2     'd0                                                         
  RDATA                        integral  32    'h77a08077                                                  
  RRESP                        integral  2     'd0                                                         
  RDATA                        integral  32    'ha61fa86f                                                  
  RRESP                        integral  2     'd0                                                         
  RDATA                        integral  32    'h54b8b36c                                                  
  RRESP                        integral  2     'd0                                                         
  RDATA                        integral  32    'hc0ee5e5e                                                  
  RRESP                        integral  2     'd0                                                         
  RDATA                        integral  32    'hbc78dc66                                                  
  RRESP                        integral  2     'd0                                                         
  RDATA                        integral  32    'h47b14983                                                  
  RRESP                        integral  2     'd0                                                         
-----------------------------------------------------------------------------------------------------------
UVM_INFO ../master_agent_top/master_monitor.sv(188) @ 235: uvm_test_top.env_h.mst_agt_top.mst_agt_h[0].mst_mon_h [MST_MONITOR] printing from master monitor collect_raddr 
 -------------------------------------
Name       Type      Size  Value     
-------------------------------------
xtn3       axi_xtn   -     @1262     
  AWID     integral  4     'd0       
  AWADDR   integral  32    'h0       
  AWLEN    integral  4     'd0       
  AWSIZE   integral  3     'd0       
  AWBURST  integral  2     'd0       
  WID      integral  4     'd0       
  BID      integral  4     'd0       
  BRESP    integral  2     'd0       
  ARID     integral  4     10        
  ARADDR   integral  32    'hc8af9db3
  ARLEN    integral  8     'd9       
  ARSIZE   integral  3     'd0       
  ARBURST  integral  2     'd1       
  RID      integral  4     'd0       
-------------------------------------

UVM_INFO ../master_agent_top/master_monitor.sv(159) @ 235: uvm_test_top.env_h.mst_agt_top.mst_agt_h[0].mst_mon_h [MST_MONITOR] printing from master monitor collect_wdata 
 -------------------------------------
Name       Type      Size  Value     
-------------------------------------
xtn        axi_xtn   -     @1099     
  AWID     integral  4     11        
  AWADDR   integral  32    'hf56619ab
  AWLEN    integral  4     'd4       
  AWSIZE   integral  3     'd1       
  AWBURST  integral  2     'd1       
  WID      integral  4     11        
  WDATA    integral  32    'h0       
  WSTRB    integral  4     'b0       
  WLAST    integral  1     1         
  WDATA    integral  32    'hc4ad    
  WSTRB    integral  4     'b11      
  WLAST    integral  1     1         
  WDATA    integral  32    'h533c    
  WSTRB    integral  4     'b1100    
  WLAST    integral  1     1         
  WDATA    integral  32    'hfdb1    
  WSTRB    integral  4     'b11      
  WLAST    integral  1     1         
  WDATA    integral  32    'hb940    
  WSTRB    integral  4     'b1100    
  WLAST    integral  1     1         
  BID      integral  4     'd0       
  BRESP    integral  2     'd0       
  ARID     integral  4     'd0       
  ARADDR   integral  32    'h0       
  ARLEN    integral  8     'd0       
  ARSIZE   integral  3     'd0       
  ARBURST  integral  2     'd0       
  RID      integral  4     'd0       
-------------------------------------

memory is '{f56619ac:0000c4ad, f56619ae:0000533c, f56619b0:0000fdb1, f56619b2:0000b940 }
end of read_data
UVM_INFO ../slave_agent_top/slave_monitor.sv(184) @ 235: uvm_test_top.env_h.slv_agt_top.slv_agt_h[0].slv_mon_h [slv_monitor] printing from slave monitor collect_raddr 
 -------------------------------------
Name       Type      Size  Value     
-------------------------------------
xtn3       axi_xtn   -     @1266     
  AWID     integral  4     'd0       
  AWADDR   integral  32    'h0       
  AWLEN    integral  4     'd0       
  AWSIZE   integral  3     'd0       
  AWBURST  integral  2     'd0       
  WID      integral  4     'd0       
  BID      integral  4     'd0       
  BRESP    integral  2     'd0       
  ARID     integral  4     10        
  ARADDR   integral  32    'hc8af9db3
  ARLEN    integral  8     'd9       
  ARSIZE   integral  3     'd0       
  ARBURST  integral  2     'd1       
  RID      integral  4     'd0       
-------------------------------------

UVM_INFO ../slave_agent_top/slave_monitor.sv(157) @ 235: uvm_test_top.env_h.slv_agt_top.slv_agt_h[0].slv_mon_h [slv_monitor] printing from slave monitor collect_wdata 
 -------------------------------------
Name       Type      Size  Value     
-------------------------------------
xtn        axi_xtn   -     @1081     
  AWID     integral  4     11        
  AWADDR   integral  32    'hf56619ab
  AWLEN    integral  4     'd4       
  AWSIZE   integral  3     'd1       
  AWBURST  integral  2     'd1       
  WID      integral  4     11        
  WDATA    integral  32    'h0       
  WSTRB    integral  4     'b0       
  WLAST    integral  1     1         
  WDATA    integral  32    'hc4ad    
  WSTRB    integral  4     'b11      
  WLAST    integral  1     1         
  WDATA    integral  32    'h533c    
  WSTRB    integral  4     'b1100    
  WLAST    integral  1     1         
  WDATA    integral  32    'hfdb1    
  WSTRB    integral  4     'b11      
  WLAST    integral  1     1         
  WDATA    integral  32    'hb940    
  WSTRB    integral  4     'b1100    
  WLAST    integral  1     1         
  BID      integral  4     'd0       
  BRESP    integral  2     'd0       
  ARID     integral  4     'd0       
  ARADDR   integral  32    'h0       
  ARLEN    integral  8     'd0       
  ARSIZE   integral  3     'd0       
  ARBURST  integral  2     'd0       
  RID      integral  4     'd0       
-------------------------------------

start of drive_raddr
start of read_data
aligned:999b138c
addresses calculated in slave side are '{999b138d, 999b138e, 999b1390, 999b1392, 999b1394, 999b1396, 999b1398, 999b139a}
start of drive_wresp
BID sent is 11
//////////////////////////////////////////////// write_addr////////////////
 wr_addr=1312789957 1312789958 1312789959 1312789960 1312789961 1312789962 1312789963 1312789964 1312789965 1312789966 1312789967
//////////////////////////////////////////////// write_addr_AWADDR   ////////////////
 AWADDR=1312789957
//////////////////////////////////////////////// read_addr////////////////
 rd_addr=3037813217 3037813218 3037813220 3037813222 3037813224 3037813226 3037813228 3037813230 3037813232 3037813234 3037813236 3037813238 3037813240 3037813242 3037813244
//////////////////////////////////////////////// write_addr_ARADDR  ////////////////
 ARADDR=3037813217
start of drive_awaddr
UVM_INFO ../master_agent_top/master_monitor.sv(111) @ 245: uvm_test_top.env_h.mst_agt_top.mst_agt_h[0].mst_mon_h [MST_MONITOR] printing from master monitor collect_awaddr 
 -------------------------------------
Name       Type      Size  Value     
-------------------------------------
xtn        axi_xtn   -     @1290     
  AWID     integral  4     13        
  AWADDR   integral  32    'h4e3f95c5
  AWLEN    integral  4     10        
  AWSIZE   integral  3     'd0       
  AWBURST  integral  2     'd1       
  WID      integral  4     'd0       
  BID      integral  4     'd0       
  BRESP    integral  2     'd0       
  ARID     integral  4     'd0       
  ARADDR   integral  32    'h0       
  ARLEN    integral  8     'd0       
  ARSIZE   integral  3     'd0       
  ARBURST  integral  2     'd0       
  RID      integral  4     'd0       
-------------------------------------

UVM_INFO ../slave_agent_top/slave_monitor.sv(110) @ 245: uvm_test_top.env_h.slv_agt_top.slv_agt_h[0].slv_mon_h [slv_monitor] printing from slave monitor collect_awaddr 
 -------------------------------------
Name       Type      Size  Value     
-------------------------------------
xtn        axi_xtn   -     @1294     
  AWID     integral  4     13        
  AWADDR   integral  32    'h4e3f95c5
  AWLEN    integral  4     10        
  AWSIZE   integral  3     'd0       
  AWBURST  integral  2     'd1       
  WID      integral  4     'd0       
  BID      integral  4     'd0       
  BRESP    integral  2     'd0       
  ARID     integral  4     'd0       
  ARADDR   integral  32    'h0       
  ARLEN    integral  8     'd0       
  ARSIZE   integral  3     'd0       
  ARBURST  integral  2     'd0       
  RID      integral  4     'd0       
-------------------------------------

end of drive_wdata
inside drive_raddr before wait ARREADY
end of read_awaddr
start of read_awaddr
end of slave_raddr
start of drive_wdata
start of drive_bresp
start of slave_raddr
UVM_INFO ../master_agent_top/master_monitor.sv(170) @ 265: uvm_test_top.env_h.mst_agt_top.mst_agt_h[0].mst_mon_h [MST_MONITOR] printing from master monitor collect_bresp 
 --------------------------------
Name       Type      Size  Value
--------------------------------
xtn2       axi_xtn   -     @1310
  AWID     integral  4     'd0  
  AWADDR   integral  32    'h0  
  AWLEN    integral  4     'd0  
  AWSIZE   integral  3     'd0  
  AWBURST  integral  2     'd0  
  WID      integral  4     'd0  
  BID      integral  4     'd0  
  BRESP    integral  2     'd0  
  ARID     integral  4     'd0  
  ARADDR   integral  32    'h0  
  ARLEN    integral  8     'd0  
  ARSIZE   integral  3     'd0  
  ARBURST  integral  2     'd0  
  RID      integral  4     'd0  
--------------------------------

UVM_INFO ../slave_agent_top/slave_monitor.sv(167) @ 265: uvm_test_top.env_h.slv_agt_top.slv_agt_h[0].slv_mon_h [slv_monitor] printing from slave monitor collect_bresp 
 --------------------------------
Name       Type      Size  Value
--------------------------------
xtn2       axi_xtn   -     @1322
  AWID     integral  4     'd0  
  AWADDR   integral  32    'h0  
  AWLEN    integral  4     'd0  
  AWSIZE   integral  3     'd0  
  AWBURST  integral  2     'd0  
  WID      integral  4     'd0  
  BID      integral  4     'd0  
  BRESP    integral  2     'd0  
  ARID     integral  4     'd0  
  ARADDR   integral  32    'h0  
  ARLEN    integral  8     'd0  
  ARSIZE   integral  3     'd0  
  ARBURST  integral  2     'd0  
  RID      integral  4     'd0  
--------------------------------

slave driver start of awvalid
WSTRB in slave driver is:0
** Warning: (vsim-3829) Non-existent associative array entry. Returning default value.
   Time: 265 ns  Iteration: 2  Process: /axi_test_pkg::slave_driver::drive/#FORK#72_7fefec4380f File: ../slave_agent_top/slave_driver.sv Line: 177
value inside mem is: 00000000
end of drive_awaddr
-----------------------------------------------------------------------------------------------------------
Name                           Type      Size  Value                                                       
-----------------------------------------------------------------------------------------------------------
req                            axi_xtn   -     @1298                                                       
  begin_time                   time      64    235                                                         
  depth                        int       32    'd2                                                         
  parent sequence (name)       string    5     m_seq                                                       
  parent sequence (full name)  string    60    uvm_test_top.env_h.mst_agt_top.mst_agt_h[0].mst_seqr_h.m_seq
  sequencer                    string    54    uvm_test_top.env_h.mst_agt_top.mst_agt_h[0].mst_seqr_h      
  AWID                         integral  4     13                                                          
  AWADDR                       integral  32    'h4e3f95c5                                                  
  AWLEN                        integral  4     10                                                          
  AWSIZE                       integral  3     'd0                                                         
  AWBURST                      integral  2     'd1                                                         
  WID                          integral  4     13                                                          
  WDATA                        integral  32    'h5ae56ad9                                                  
  WSTRB                        integral  4     'b10                                                        
  WLAST                        integral  1     'dX                                                         
  WDATA                        integral  32    'h86b4c4b0                                                  
  WSTRB                        integral  4     'b100                                                       
  WLAST                        integral  1     'dX                                                         
  WDATA                        integral  32    'he1c5d488                                                  
  WSTRB                        integral  4     'b1000                                                      
  WLAST                        integral  1     'dX                                                         
  WDATA                        integral  32    'h22272a43                                                  
  WSTRB                        integral  4     'b1                                                         
  WLAST                        integral  1     'dX                                                         
  WDATA                        integral  32    'hbadd80e2                                                  
  WSTRB                        integral  4     'b10                                                        
  WLAST                        integral  1     'dX                                                         
  WDATA                        integral  32    'h6b075917                                                  
  WSTRB                        integral  4     'b100                                                       
  WLAST                        integral  1     'dX                                                         
  WDATA                        integral  32    'h711ba84a                                                  
  WSTRB                        integral  4     'b1000                                                      
  WLAST                        integral  1     'dX                                                         
  WDATA                        integral  32    'h182c34e6                                                  
  WSTRB                        integral  4     'b1                                                         
  WLAST                        integral  1     'dX                                                         
  WDATA                        integral  32    'hca029338                                                  
  WSTRB                        integral  4     'b10                                                        
  WLAST                        integral  1     'dX                                                         
  WDATA                        integral  32    'ha3626bf                                                   
  WSTRB                        integral  4     'b100                                                       
  WLAST                        integral  1     'dX                                                         
  WDATA                        integral  32    'h37740408                                                  
  WSTRB                        integral  4     'b1000                                                      
  WLAST                        integral  1     'dX                                                         
  BID                          integral  4     13                                                          
  BRESP                        integral  2     'd0                                                         
  ARID                         integral  4     'd1                                                         
  ARADDR                       integral  32    'hb51159e1                                                  
  ARLEN                        integral  8     'd14                                                        
  ARSIZE                       integral  3     'd1                                                         
  ARBURST                      integral  2     'd1                                                         
  RID                          integral  4     'd1                                                         
  RDATA                        integral  32    'h10ddb007                                                  
  RRESP                        integral  2     'd0                                                         
  RDATA                        integral  32    'hdfd0fed3                                                  
  RRESP                        integral  2     'd0                                                         
  RDATA                        integral  32    'h265b9c6d                                                  
  RRESP                        integral  2     'd0                                                         
  RDATA                        integral  32    'h8e44de8f                                                  
  RRESP                        integral  2     'd0                                                         
  RDATA                        integral  32    'h6c91abc2                                                  
  RRESP                        integral  2     'd0                                                         
  RDATA                        integral  32    'h4d3755ae                                                  
  RRESP                        integral  2     'd0                                                         
  RDATA                        integral  32    'hb6fea75f                                                  
  RRESP                        integral  2     'd0                                                         
  RDATA                        integral  32    'h80081692                                                  
  RRESP                        integral  2     'd0                                                         
  RDATA                        integral  32    'ha4f4fc2b                                                  
  RRESP                        integral  2     'd0                                                         
  RDATA                        integral  32    'h2de85b69                                                  
  RRESP                        integral  2     'd0                                                         
  RDATA                        integral  32    'hd87db74a                                                  
  RRESP                        integral  2     'd0                                                         
  RDATA                        integral  32    'h3fab4a11                                                  
  RRESP                        integral  2     'd0                                                         
  RDATA                        integral  32    'h5807480f                                                  
  RRESP                        integral  2     'd0                                                         
  RDATA                        integral  32    'h73fad4a9                                                  
  RRESP                        integral  2     'd0                                                         
  RDATA                        integral  32    'hcbde9276                                                  
  RRESP                        integral  2     'd0                                                         
-----------------------------------------------------------------------------------------------------------
UVM_INFO ../master_agent_top/master_monitor.sv(188) @ 265: uvm_test_top.env_h.mst_agt_top.mst_agt_h[0].mst_mon_h [MST_MONITOR] printing from master monitor collect_raddr 
 -------------------------------------
Name       Type      Size  Value     
-------------------------------------
xtn3       axi_xtn   -     @1302     
  AWID     integral  4     'd0       
  AWADDR   integral  32    'h0       
  AWLEN    integral  4     'd0       
  AWSIZE   integral  3     'd0       
  AWBURST  integral  2     'd0       
  WID      integral  4     'd0       
  BID      integral  4     'd0       
  BRESP    integral  2     'd0       
  ARID     integral  4     'd3       
  ARADDR   integral  32    'h1d538ea2
  ARLEN    integral  8     'd5       
  ARSIZE   integral  3     'd2       
  ARBURST  integral  2     'd1       
  RID      integral  4     'd0       
-------------------------------------

UVM_INFO ../slave_agent_top/slave_monitor.sv(184) @ 265: uvm_test_top.env_h.slv_agt_top.slv_agt_h[0].slv_mon_h [slv_monitor] printing from slave monitor collect_raddr 
 -------------------------------------
Name       Type      Size  Value     
-------------------------------------
xtn3       axi_xtn   -     @1314     
  AWID     integral  4     'd0       
  AWADDR   integral  32    'h0       
  AWLEN    integral  4     'd0       
  AWSIZE   integral  3     'd0       
  AWBURST  integral  2     'd0       
  WID      integral  4     'd0       
  BID      integral  4     'd0       
  BRESP    integral  2     'd0       
  ARID     integral  4     'd3       
  ARADDR   integral  32    'h1d538ea2
  ARLEN    integral  8     'd5       
  ARSIZE   integral  3     'd2       
  ARBURST  integral  2     'd1       
  RID      integral  4     'd0       
-------------------------------------

//////////////////////////////////////////////// write_addr////////////////
 wr_addr=450070583 450070584 450070585
//////////////////////////////////////////////// write_addr_AWADDR   ////////////////
 AWADDR=450070583
//////////////////////////////////////////////// read_addr////////////////
 rd_addr=4128033429 4128033432 4128033436 4128033440 4128033444 4128033448 4128033452 4128033456 4128033460 4128033464 4128033468 4128033472 4128033476 4128033480
//////////////////////////////////////////////// write_addr_ARADDR  ////////////////
 ARADDR=4128033429
start of drive_awaddr
UVM_INFO ../master_agent_top/master_monitor.sv(111) @ 305: uvm_test_top.env_h.mst_agt_top.mst_agt_h[0].mst_mon_h [MST_MONITOR] printing from master monitor collect_awaddr 
 -------------------------------------
Name       Type      Size  Value     
-------------------------------------
xtn        axi_xtn   -     @1326     
  AWID     integral  4     15        
  AWADDR   integral  32    'h1ad38837
  AWLEN    integral  4     'd2       
  AWSIZE   integral  3     'd0       
  AWBURST  integral  2     'd1       
  WID      integral  4     'd0       
  BID      integral  4     'd0       
  BRESP    integral  2     'd0       
  ARID     integral  4     'd0       
  ARADDR   integral  32    'h0       
  ARLEN    integral  8     'd0       
  ARSIZE   integral  3     'd0       
  ARBURST  integral  2     'd0       
  RID      integral  4     'd0       
-------------------------------------

UVM_INFO ../slave_agent_top/slave_monitor.sv(110) @ 305: uvm_test_top.env_h.slv_agt_top.slv_agt_h[0].slv_mon_h [slv_monitor] printing from slave monitor collect_awaddr 
 -------------------------------------
Name       Type      Size  Value     
-------------------------------------
xtn        axi_xtn   -     @1334     
  AWID     integral  4     15        
  AWADDR   integral  32    'h1ad38837
  AWLEN    integral  4     'd2       
  AWSIZE   integral  3     'd0       
  AWBURST  integral  2     'd1       
  WID      integral  4     'd0       
  BID      integral  4     'd0       
  BRESP    integral  2     'd0       
  ARID     integral  4     'd0       
  ARADDR   integral  32    'h0       
  ARLEN    integral  8     'd0       
  ARSIZE   integral  3     'd0       
  ARBURST  integral  2     'd0       
  RID      integral  4     'd0       
-------------------------------------

end of drive_raddr
start of drive_raddr
end of drive_bresp
end of read_awaddr
start of read_awaddr
end of drive_wresp
inside drive_raddr before wait ARREADY
slave driver start of awvalid
WSTRB in slave driver is:12
value inside mem is: 00007ea7
UVM_INFO ../master_agent_top/master_monitor.sv(188) @ 335: uvm_test_top.env_h.mst_agt_top.mst_agt_h[0].mst_mon_h [MST_MONITOR] printing from master monitor collect_raddr 
 -------------------------------------
Name       Type      Size  Value     
-------------------------------------
xtn3       axi_xtn   -     @1346     
  AWID     integral  4     'd0       
  AWADDR   integral  32    'h0       
  AWLEN    integral  4     'd0       
  AWSIZE   integral  3     'd0       
  AWBURST  integral  2     'd0       
  WID      integral  4     'd0       
  BID      integral  4     'd0       
  BRESP    integral  2     'd0       
  ARID     integral  4     14        
  ARADDR   integral  32    'h6fda59c1
  ARLEN    integral  8     'd12      
  ARSIZE   integral  3     'd1       
  ARBURST  integral  2     'd1       
  RID      integral  4     'd0       
-------------------------------------

UVM_INFO ../slave_agent_top/slave_monitor.sv(184) @ 335: uvm_test_top.env_h.slv_agt_top.slv_agt_h[0].slv_mon_h [slv_monitor] printing from slave monitor collect_raddr 
 -------------------------------------
Name       Type      Size  Value     
-------------------------------------
xtn3       axi_xtn   -     @1350     
  AWID     integral  4     'd0       
  AWADDR   integral  32    'h0       
  AWLEN    integral  4     'd0       
  AWSIZE   integral  3     'd0       
  AWBURST  integral  2     'd0       
  WID      integral  4     'd0       
  BID      integral  4     'd0       
  BRESP    integral  2     'd0       
  ARID     integral  4     14        
  ARADDR   integral  32    'h6fda59c1
  ARLEN    integral  8     'd12      
  ARSIZE   integral  3     'd1       
  ARBURST  integral  2     'd1       
  RID      integral  4     'd0       
-------------------------------------

end of drive_awaddr
-----------------------------------------------------------------------------------------------------------
Name                           Type      Size  Value                                                       
-----------------------------------------------------------------------------------------------------------
req                            axi_xtn   -     @1342                                                       
  begin_time                   time      64    265                                                         
  depth                        int       32    'd2                                                         
  parent sequence (name)       string    5     m_seq                                                       
  parent sequence (full name)  string    60    uvm_test_top.env_h.mst_agt_top.mst_agt_h[0].mst_seqr_h.m_seq
  sequencer                    string    54    uvm_test_top.env_h.mst_agt_top.mst_agt_h[0].mst_seqr_h      
  AWID                         integral  4     15                                                          
  AWADDR                       integral  32    'h1ad38837                                                  
  AWLEN                        integral  4     'd2                                                         
  AWSIZE                       integral  3     'd0                                                         
  AWBURST                      integral  2     'd1                                                         
  WID                          integral  4     15                                                          
  WDATA                        integral  32    'h50014d7f                                                  
  WSTRB                        integral  4     'b1000                                                      
  WLAST                        integral  1     'dX                                                         
  WDATA                        integral  32    'h7e72048f                                                  
  WSTRB                        integral  4     'b1                                                         
  WLAST                        integral  1     'dX                                                         
  WDATA                        integral  32    'hd1656b5a                                                  
  WSTRB                        integral  4     'b10                                                        
  WLAST                        integral  1     'dX                                                         
  BID                          integral  4     15                                                          
  BRESP                        integral  2     'd0                                                         
  ARID                         integral  4     8                                                           
  ARADDR                       integral  32    'hf60cca95                                                  
  ARLEN                        integral  8     'd13                                                        
  ARSIZE                       integral  3     'd2                                                         
  ARBURST                      integral  2     'd1                                                         
  RID                          integral  4     8                                                           
  RDATA                        integral  32    'h1febcd9d                                                  
  RRESP                        integral  2     'd0                                                         
  RDATA                        integral  32    'hf07b72d5                                                  
  RRESP                        integral  2     'd0                                                         
  RDATA                        integral  32    'h75c9a708                                                  
  RRESP                        integral  2     'd0                                                         
  RDATA                        integral  32    'h25847be0                                                  
  RRESP                        integral  2     'd0                                                         
  RDATA                        integral  32    'h817ee0db                                                  
  RRESP                        integral  2     'd0                                                         
  RDATA                        integral  32    'hba41677e                                                  
  RRESP                        integral  2     'd0                                                         
  RDATA                        integral  32    'h4fc4e6c7                                                  
  RRESP                        integral  2     'd0                                                         
  RDATA                        integral  32    'h5d78069e                                                  
  RRESP                        integral  2     'd0                                                         
  RDATA                        integral  32    'hc1b5f272                                                  
  RRESP                        integral  2     'd0                                                         
  RDATA                        integral  32    'h282c8c16                                                  
  RRESP                        integral  2     'd0                                                         
  RDATA                        integral  32    'h85a16616                                                  
  RRESP                        integral  2     'd0                                                         
  RDATA                        integral  32    'h5b4b5ed4                                                  
  RRESP                        integral  2     'd0                                                         
  RDATA                        integral  32    'hbc5b6c2                                                   
  RRESP                        integral  2     'd0                                                         
  RDATA                        integral  32    'hf74d9d9e                                                  
  RRESP                        integral  2     'd0                                                         
-----------------------------------------------------------------------------------------------------------
//////////////////////////////////////////////// write_addr////////////////
 wr_addr=1373941268 1373941270 1373941272 1373941274 1373941276 1373941278 1373941280 1373941282 1373941284 1373941286 1373941288 1373941290 1373941292 1373941294 1373941296 1373941298
//////////////////////////////////////////////// write_addr_AWADDR   ////////////////
 AWADDR=1373941268
//////////////////////////////////////////////// read_addr////////////////
 rd_addr=695916726 695916728 695916732 695916736
//////////////////////////////////////////////// write_addr_ARADDR  ////////////////
 ARADDR=695916726
start of drive_awaddr
UVM_INFO ../master_agent_top/master_monitor.sv(111) @ 365: uvm_test_top.env_h.mst_agt_top.mst_agt_h[0].mst_mon_h [MST_MONITOR] printing from master monitor collect_awaddr 
 -------------------------------------
Name       Type      Size  Value     
-------------------------------------
xtn        axi_xtn   -     @1354     
  AWID     integral  4     'd0       
  AWADDR   integral  32    'h51e4ae14
  AWLEN    integral  4     15        
  AWSIZE   integral  3     'd1       
  AWBURST  integral  2     'd1       
  WID      integral  4     'd0       
  BID      integral  4     'd0       
  BRESP    integral  2     'd0       
  ARID     integral  4     'd0       
  ARADDR   integral  32    'h0       
  ARLEN    integral  8     'd0       
  ARSIZE   integral  3     'd0       
  ARBURST  integral  2     'd0       
  RID      integral  4     'd0       
-------------------------------------

UVM_INFO ../slave_agent_top/slave_monitor.sv(110) @ 365: uvm_test_top.env_h.slv_agt_top.slv_agt_h[0].slv_mon_h [slv_monitor] printing from slave monitor collect_awaddr 
 -------------------------------------
Name       Type      Size  Value     
-------------------------------------
xtn        axi_xtn   -     @1362     
  AWID     integral  4     'd0       
  AWADDR   integral  32    'h51e4ae14
  AWLEN    integral  4     15        
  AWSIZE   integral  3     'd1       
  AWBURST  integral  2     'd1       
  WID      integral  4     'd0       
  BID      integral  4     'd0       
  BRESP    integral  2     'd0       
  ARID     integral  4     'd0       
  ARADDR   integral  32    'h0       
  ARLEN    integral  8     'd0       
  ARSIZE   integral  3     'd0       
  ARBURST  integral  2     'd0       
  RID      integral  4     'd0       
-------------------------------------

slave driver start of awvalid
WSTRB in slave driver is:3
value inside mem is: 0000b1a1
end of drive_raddr
end of drive_awaddr
-----------------------------------------------------------------------------------------------------------
Name                           Type      Size  Value                                                       
-----------------------------------------------------------------------------------------------------------
req                            axi_xtn   -     @1374                                                       
  begin_time                   time      64    355                                                         
  depth                        int       32    'd2                                                         
  parent sequence (name)       string    5     m_seq                                                       
  parent sequence (full name)  string    60    uvm_test_top.env_h.mst_agt_top.mst_agt_h[0].mst_seqr_h.m_seq
  sequencer                    string    54    uvm_test_top.env_h.mst_agt_top.mst_agt_h[0].mst_seqr_h      
  AWID                         integral  4     'd0                                                         
  AWADDR                       integral  32    'h51e4ae14                                                  
  AWLEN                        integral  4     15                                                          
  AWSIZE                       integral  3     'd1                                                         
  AWBURST                      integral  2     'd1                                                         
  WID                          integral  4     'd0                                                         
  WDATA                        integral  32    'hfda49b87                                                  
  WSTRB                        integral  4     'b11                                                        
  WLAST                        integral  1     'dX                                                         
  WDATA                        integral  32    'h74c158d6                                                  
  WSTRB                        integral  4     'b1100                                                      
  WLAST                        integral  1     'dX                                                         
  WDATA                        integral  32    'h9cf9ce62                                                  
  WSTRB                        integral  4     'b11                                                        
  WLAST                        integral  1     'dX                                                         
  WDATA                        integral  32    'hb2aa93b8                                                  
  WSTRB                        integral  4     'b1100                                                      
  WLAST                        integral  1     'dX                                                         
  WDATA                        integral  32    'h89ef0d92                                                  
  WSTRB                        integral  4     'b11                                                        
  WLAST                        integral  1     'dX                                                         
  WDATA                        integral  32    'h239e479d                                                  
  WSTRB                        integral  4     'b1100                                                      
  WLAST                        integral  1     'dX                                                         
  WDATA                        integral  32    'h6a1ac98a                                                  
  WSTRB                        integral  4     'b11                                                        
  WLAST                        integral  1     'dX                                                         
  WDATA                        integral  32    'h1d876577                                                  
  WSTRB                        integral  4     'b1100                                                      
  WLAST                        integral  1     'dX                                                         
  WDATA                        integral  32    'h15d0633d                                                  
  WSTRB                        integral  4     'b11                                                        
  WLAST                        integral  1     'dX                                                         
  WDATA                        integral  32    'hc84f3480                                                  
  WSTRB                        integral  4     'b1100                                                      
  WLAST                        integral  1     'dX                                                         
  WDATA                        integral  32    'h4fb685d2                                                  
  WSTRB                        integral  4     'b11                                                        
  WLAST                        integral  1     'dX                                                         
  WDATA                        integral  32    'h78212349                                                  
  WSTRB                        integral  4     'b1100                                                      
  WLAST                        integral  1     'dX                                                         
  WDATA                        integral  32    'h16c94ae8                                                  
  WSTRB                        integral  4     'b11                                                        
  WLAST                        integral  1     'dX                                                         
  WDATA                        integral  32    'h400ce14d                                                  
  WSTRB                        integral  4     'b1100                                                      
  WLAST                        integral  1     'dX                                                         
  WDATA                        integral  32    'h17fccd82                                                  
  WSTRB                        integral  4     'b11                                                        
  WLAST                        integral  1     'dX                                                         
  WDATA                        integral  32    'hcd7be92                                                   
  WSTRB                        integral  4     'b1100                                                      
  WLAST                        integral  1     'dX                                                         
  BID                          integral  4     'd0                                                         
  BRESP                        integral  2     'd0                                                         
  ARID                         integral  4     12                                                          
  ARADDR                       integral  32    'h297ad8b6                                                  
  ARLEN                        integral  8     'd3                                                         
  ARSIZE                       integral  3     'd2                                                         
  ARBURST                      integral  2     'd1                                                         
  RID                          integral  4     12                                                          
  RDATA                        integral  32    'h9ec16be2                                                  
  RRESP                        integral  2     'd0                                                         
  RDATA                        integral  32    'h496d1a5e                                                  
  RRESP                        integral  2     'd0                                                         
  RDATA                        integral  32    'h8e7fae32                                                  
  RRESP                        integral  2     'd0                                                         
  RDATA                        integral  32    'h2a57499c                                                  
  RRESP                        integral  2     'd0                                                         
-----------------------------------------------------------------------------------------------------------
end of slave_raddr
start of drive_raddr
start of slave_raddr
//////////////////////////////////////////////// write_addr////////////////
 wr_addr=869892306 869892308 869892312 869892316 869892320 869892324 869892328 869892332 869892336 869892340
//////////////////////////////////////////////// write_addr_AWADDR   ////////////////
 AWADDR=869892306
//////////////////////////////////////////////// read_addr////////////////
 rd_addr=4138671227 4138671228 4138671230
//////////////////////////////////////////////// write_addr_ARADDR  ////////////////
 ARADDR=4138671227
start of drive_awaddr
UVM_INFO ../master_agent_top/master_monitor.sv(111) @ 385: uvm_test_top.env_h.mst_agt_top.mst_agt_h[0].mst_mon_h [MST_MONITOR] printing from master monitor collect_awaddr 
 -------------------------------------
Name       Type      Size  Value     
-------------------------------------
xtn        axi_xtn   -     @1378     
  AWID     integral  4     'd4       
  AWADDR   integral  32    'h33d980d2
  AWLEN    integral  4     9         
  AWSIZE   integral  3     'd2       
  AWBURST  integral  2     'd1       
  WID      integral  4     'd0       
  BID      integral  4     'd0       
  BRESP    integral  2     'd0       
  ARID     integral  4     'd0       
  ARADDR   integral  32    'h0       
  ARLEN    integral  8     'd0       
  ARSIZE   integral  3     'd0       
  ARBURST  integral  2     'd0       
  RID      integral  4     'd0       
-------------------------------------

UVM_INFO ../slave_agent_top/slave_monitor.sv(110) @ 385: uvm_test_top.env_h.slv_agt_top.slv_agt_h[0].slv_mon_h [slv_monitor] printing from slave monitor collect_awaddr 
 -------------------------------------
Name       Type      Size  Value     
-------------------------------------
xtn        axi_xtn   -     @1382     
  AWID     integral  4     'd4       
  AWADDR   integral  32    'h33d980d2
  AWLEN    integral  4     9         
  AWSIZE   integral  3     'd2       
  AWBURST  integral  2     'd1       
  WID      integral  4     'd0       
  BID      integral  4     'd0       
  BRESP    integral  2     'd0       
  ARID     integral  4     'd0       
  ARADDR   integral  32    'h0       
  ARLEN    integral  8     'd0       
  ARSIZE   integral  3     'd0       
  ARBURST  integral  2     'd0       
  RID      integral  4     'd0       
-------------------------------------

inside drive_raddr before wait ARREADY
end of read_awaddr
start of read_awaddr
end of drive_awaddr
-----------------------------------------------------------------------------------------------------------
Name                           Type      Size  Value                                                       
-----------------------------------------------------------------------------------------------------------
req                            axi_xtn   -     @1386                                                       
  begin_time                   time      64    375                                                         
  depth                        int       32    'd2                                                         
  parent sequence (name)       string    5     m_seq                                                       
  parent sequence (full name)  string    60    uvm_test_top.env_h.mst_agt_top.mst_agt_h[0].mst_seqr_h.m_seq
  sequencer                    string    54    uvm_test_top.env_h.mst_agt_top.mst_agt_h[0].mst_seqr_h      
