vsim -vopt -voptargs="+acc" -coverage -sva -c -do " log -r /* ;coverage save -onexit mem_cov4;run -all; exit" -wlf wave_file4.wlf -l test4.log -sv_seed random work.top "+UVM_TESTNAME=random_seq_test" 
Start time: 14:31:05 on Jun 25,2024
** Note: (vsim-8009) Loading existing optimized design _opt2
//  Questa Sim-64
//  Version 2019.2 linux_x86_64 Apr 16 2019
//
//  Copyright 1991-2019 Mentor Graphics Corporation
//  All Rights Reserved.
//
//  QuestaSim and its associated documentation contain trade
//  secrets and commercial or financial information that are the property of
//  Mentor Graphics Corporation and are privileged, confidential,
//  and exempt from disclosure under the Freedom of Information Act,
//  5 U.S.C. Section 552. Furthermore, this information
//  is prohibited from disclosure under the Trade Secrets Act,
//  18 U.S.C. Section 1905.
//
Loading sv_std.std
Loading work.axi_if(fast)
Loading mtiUvm.uvm_pkg
Loading work.axi_test_pkg(fast)
Loading mtiUvm.questa_uvm_pkg(fast)
Loading work.top(fast)
Loading work.axi_if(fast)
# Loading /home/cad/eda/Questa_2019/questasim/uvm-1.1d/linux_x86_64/uvm_dpi.so
** Warning: (vsim-8634) Code was not compiled with coverage options.
Sv_Seed = 4226951752
 log -r /* 
coverage save -onexit mem_cov4
run -all
----------------------------------------------------------------
UVM-1.1d
(C) 2007-2013 Mentor Graphics Corporation
(C) 2007-2013 Cadence Design Systems, Inc.
(C) 2006-2013 Synopsys, Inc.
(C) 2011-2013 Cypress Semiconductor Corp.
----------------------------------------------------------------

  ***********       IMPORTANT RELEASE NOTES         ************

  You are using a version of the UVM library that has been compiled
  with `UVM_NO_DEPRECATED undefined.
  See http://www.eda.org/svdb/view.php?id=3313 for more details.

  You are using a version of the UVM library that has been compiled
  with `UVM_OBJECT_MUST_HAVE_CONSTRUCTOR undefined.
  See http://www.eda.org/svdb/view.php?id=3770 for more details.

      (Specify +UVM_NO_RELNOTES to turn off this notice)

UVM_INFO verilog_src/questa_uvm_pkg-1.2/src/questa_uvm_pkg.sv(277) @ 0: reporter [Questa UVM] QUESTA_UVM-1.2.3
UVM_INFO verilog_src/questa_uvm_pkg-1.2/src/questa_uvm_pkg.sv(278) @ 0: reporter [Questa UVM]  questa_uvm::init(+struct)
UVM_INFO @ 0: reporter [RNTST] Running test random_seq_test...
start of read_awaddr
start of slave_raddr
//////////////////////////////////////////////// write_addr////////////////
 wr_addr=3028773233 3028773234 3028773235 3028773236 3028773237 3028773238 3028773239 3028773232
//////////////////////////////////////////////// write_addr_AWADDR   ////////////////
 AWADDR=3028773233
//////////////////////////////////////////////// read_addr////////////////
 rd_addr=504568776 504568776
//////////////////////////////////////////////// write_addr_ARADDR  ////////////////
 ARADDR=504568776
start of drive_awaddr
start of drive_raddr
inside drive_raddr before wait ARREADY
UVM_INFO ../master_agent_top/master_monitor.sv(111) @ 45: uvm_test_top.env_h.mst_agt_top.mst_agt_h[0].mst_mon_h [MST_MONITOR] printing from master monitor collect_awaddr 
 -------------------------------------
Name       Type      Size  Value     
-------------------------------------
xtn        axi_xtn   -     @1099     
  AWID     integral  4     'd7       
  AWADDR   integral  32    'hb4876971
  AWLEN    integral  4     'd7       
  AWSIZE   integral  3     'd0       
  AWBURST  integral  2     2         
  WID      integral  4     'd0       
  BID      integral  4     'd0       
  BRESP    integral  2     'd0       
  ARID     integral  4     'd0       
  ARADDR   integral  32    'h0       
  ARLEN    integral  8     'd0       
  ARSIZE   integral  3     'd0       
  ARBURST  integral  2     'd0       
  RID      integral  4     'd0       
-------------------------------------

UVM_INFO ../slave_agent_top/slave_monitor.sv(110) @ 45: uvm_test_top.env_h.slv_agt_top.slv_agt_h[0].slv_mon_h [slv_monitor] printing from slave monitor collect_awaddr 
 -------------------------------------
Name       Type      Size  Value     
-------------------------------------
xtn        axi_xtn   -     @1081     
  AWID     integral  4     'd7       
  AWADDR   integral  32    'hb4876971
  AWLEN    integral  4     'd7       
  AWSIZE   integral  3     'd0       
  AWBURST  integral  2     2         
  WID      integral  4     'd0       
  BID      integral  4     'd0       
  BRESP    integral  2     'd0       
  ARID     integral  4     'd0       
  ARADDR   integral  32    'h0       
  ARLEN    integral  8     'd0       
  ARSIZE   integral  3     'd0       
  ARBURST  integral  2     'd0       
  RID      integral  4     'd0       
-------------------------------------

UVM_INFO ../master_agent_top/master_monitor.sv(188) @ 45: uvm_test_top.env_h.mst_agt_top.mst_agt_h[0].mst_mon_h [MST_MONITOR] printing from master monitor collect_raddr 
 -------------------------------------
Name       Type      Size  Value     
-------------------------------------
xtn3       axi_xtn   -     @1103     
  AWID     integral  4     'd0       
  AWADDR   integral  32    'h0       
  AWLEN    integral  4     'd0       
  AWSIZE   integral  3     'd0       
  AWBURST  integral  2     'd0       
  WID      integral  4     'd0       
  BID      integral  4     'd0       
  BRESP    integral  2     'd0       
  ARID     integral  4     'd1       
  ARADDR   integral  32    'h1e131bc8
  ARLEN    integral  8     'd1       
  ARSIZE   integral  3     'd0       
  ARBURST  integral  2     'd0       
  RID      integral  4     'd0       
-------------------------------------

UVM_INFO ../slave_agent_top/slave_monitor.sv(184) @ 45: uvm_test_top.env_h.slv_agt_top.slv_agt_h[0].slv_mon_h [slv_monitor] printing from slave monitor collect_raddr 
 -------------------------------------
Name       Type      Size  Value     
-------------------------------------
xtn3       axi_xtn   -     @1085     
  AWID     integral  4     'd0       
  AWADDR   integral  32    'h0       
  AWLEN    integral  4     'd0       
  AWSIZE   integral  3     'd0       
  AWBURST  integral  2     'd0       
  WID      integral  4     'd0       
  BID      integral  4     'd0       
  BRESP    integral  2     'd0       
  ARID     integral  4     'd1       
  ARADDR   integral  32    'h1e131bc8
  ARLEN    integral  8     'd1       
  ARSIZE   integral  3     'd0       
  ARBURST  integral  2     'd0       
  RID      integral  4     'd0       
-------------------------------------

end of slave_raddr
start of slave_raddr
start of slave_rdata
end of drive_raddr
-----------------------------------------------------------------------------------------------------------
Name                           Type      Size  Value                                                       
-----------------------------------------------------------------------------------------------------------
req                            axi_xtn   -     @1113                                                       
  begin_time                   time      64    0                                                           
  depth                        int       32    'd2                                                         
  parent sequence (name)       string    5     m_seq                                                       
  parent sequence (full name)  string    60    uvm_test_top.env_h.mst_agt_top.mst_agt_h[0].mst_seqr_h.m_seq
  sequencer                    string    54    uvm_test_top.env_h.mst_agt_top.mst_agt_h[0].mst_seqr_h      
  AWID                         integral  4     'd7                                                         
  AWADDR                       integral  32    'hb4876971                                                  
  AWLEN                        integral  4     'd7                                                         
  AWSIZE                       integral  3     'd0                                                         
  AWBURST                      integral  2     2                                                           
  WID                          integral  4     'd7                                                         
  WDATA                        integral  32    'h3be03de8                                                  
  WSTRB                        integral  4     'b0                                                         
  WLAST                        integral  1     'dX                                                         
  WDATA                        integral  32    'hd9262f85                                                  
  WSTRB                        integral  4     'b100                                                       
  WLAST                        integral  1     'dX                                                         
  WDATA                        integral  32    'hbc110345                                                  
  WSTRB                        integral  4     'b1000                                                      
  WLAST                        integral  1     'dX                                                         
  WDATA                        integral  32    'h667f00fb                                                  
  WSTRB                        integral  4     'b1                                                         
  WLAST                        integral  1     'dX                                                         
  WDATA                        integral  32    'h220b305d                                                  
  WSTRB                        integral  4     'b10                                                        
  WLAST                        integral  1     'dX                                                         
  WDATA                        integral  32    'h9b379284                                                  
  WSTRB                        integral  4     'b100                                                       
  WLAST                        integral  1     'dX                                                         
  WDATA                        integral  32    'h2d505069                                                  
  WSTRB                        integral  4     'b1000                                                      
  WLAST                        integral  1     'dX                                                         
  WDATA                        integral  32    'h591b8c1                                                   
  WSTRB                        integral  4     'b1                                                         
  WLAST                        integral  1     'dX                                                         
  BID                          integral  4     'd7                                                         
  BRESP                        integral  2     'd0                                                         
  ARID                         integral  4     'd1                                                         
  ARADDR                       integral  32    'h1e131bc8                                                  
  ARLEN                        integral  8     'd1                                                         
  ARSIZE                       integral  3     'd0                                                         
  ARBURST                      integral  2     'd0                                                         
  RID                          integral  4     'd1                                                         
  RDATA                        integral  32    'h234172ee                                                  
  RRESP                        integral  2     'd0                                                         
  RDATA                        integral  32    'h71fee3f                                                   
  RRESP                        integral  2     'd0                                                         
-----------------------------------------------------------------------------------------------------------
start of drive_rdata
//////////////////////////////////////////////// write_addr////////////////
 wr_addr=1071226996 1071226996 1071226996 1071226996 1071226996 1071226996 1071226996 1071226996 1071226996 1071226996 1071226996 1071226996 1071226996 1071226996 1071226996 1071226996
//////////////////////////////////////////////// write_addr_AWADDR   ////////////////
 AWADDR=1071226996
//////////////////////////////////////////////// read_addr////////////////
 rd_addr=2076343352 2076343352
//////////////////////////////////////////////// write_addr_ARADDR  ////////////////
 ARADDR=2076343352
start of drive_raddr
end of drive_awaddr
end of read_awaddr
start of drive_wdata
start of drive_awaddr
start of read_awaddr
start of read_data
aligned:b4876971
addresses calculated in slave side are '{b4876971, b4876972, b4876973, b4876974, b4876975, b4876976, b4876977, b4876978}
slave driver start of awvalid
WSTRB in slave driver is:0
** Warning: (vsim-3829) Non-existent associative array entry. Returning default value.
   Time: 95 ns  Iteration: 2  Process: /axi_test_pkg::slave_driver::drive/#FORK#72_7fefec43701 File: ../slave_agent_top/slave_driver.sv Line: 177
value inside mem is: 00000000
inside drive_raddr before wait ARREADY
UVM_INFO ../master_agent_top/master_monitor.sv(188) @ 115: uvm_test_top.env_h.mst_agt_top.mst_agt_h[0].mst_mon_h [MST_MONITOR] printing from master monitor collect_raddr 
 -------------------------------------
Name       Type      Size  Value     
-------------------------------------
xtn3       axi_xtn   -     @1189     
  AWID     integral  4     'd0       
  AWADDR   integral  32    'h0       
  AWLEN    integral  4     'd0       
  AWSIZE   integral  3     'd0       
  AWBURST  integral  2     'd0       
  WID      integral  4     'd0       
  BID      integral  4     'd0       
  BRESP    integral  2     'd0       
  ARID     integral  4     14        
  ARADDR   integral  32    'h7bc27c38
  ARLEN    integral  8     'd1       
  ARSIZE   integral  3     'd0       
  ARBURST  integral  2     'd0       
  RID      integral  4     'd0       
-------------------------------------

UVM_INFO ../slave_agent_top/slave_monitor.sv(184) @ 115: uvm_test_top.env_h.slv_agt_top.slv_agt_h[0].slv_mon_h [slv_monitor] printing from slave monitor collect_raddr 
 -------------------------------------
Name       Type      Size  Value     
-------------------------------------
xtn3       axi_xtn   -     @1193     
  AWID     integral  4     'd0       
  AWADDR   integral  32    'h0       
  AWLEN    integral  4     'd0       
  AWSIZE   integral  3     'd0       
  AWBURST  integral  2     'd0       
  WID      integral  4     'd0       
  BID      integral  4     'd0       
  BRESP    integral  2     'd0       
  ARID     integral  4     14        
  ARADDR   integral  32    'h7bc27c38
  ARLEN    integral  8     'd1       
  ARSIZE   integral  3     'd0       
  ARBURST  integral  2     'd0       
  RID      integral  4     'd0       
-------------------------------------

UVM_INFO ../master_agent_top/master_monitor.sv(111) @ 125: uvm_test_top.env_h.mst_agt_top.mst_agt_h[0].mst_mon_h [MST_MONITOR] printing from master monitor collect_awaddr 
 -------------------------------------
Name       Type      Size  Value     
-------------------------------------
xtn        axi_xtn   -     @1217     
  AWID     integral  4     'd5       
  AWADDR   integral  32    'h3fd9a074
  AWLEN    integral  4     15        
  AWSIZE   integral  3     'd1       
  AWBURST  integral  2     'd0       
  WID      integral  4     'd0       
  BID      integral  4     'd0       
  BRESP    integral  2     'd0       
  ARID     integral  4     'd0       
  ARADDR   integral  32    'h0       
  ARLEN    integral  8     'd0       
  ARSIZE   integral  3     'd0       
  ARBURST  integral  2     'd0       
  RID      integral  4     'd0       
-------------------------------------

UVM_INFO ../slave_agent_top/slave_monitor.sv(110) @ 125: uvm_test_top.env_h.slv_agt_top.slv_agt_h[0].slv_mon_h [slv_monitor] printing from slave monitor collect_awaddr 
 -------------------------------------
Name       Type      Size  Value     
-------------------------------------
xtn        axi_xtn   -     @1225     
  AWID     integral  4     'd5       
  AWADDR   integral  32    'h3fd9a074
  AWLEN    integral  4     15        
  AWSIZE   integral  3     'd1       
  AWBURST  integral  2     'd0       
  WID      integral  4     'd0       
  BID      integral  4     'd0       
  BRESP    integral  2     'd0       
  ARID     integral  4     'd0       
  ARADDR   integral  32    'h0       
  ARLEN    integral  8     'd0       
  ARSIZE   integral  3     'd0       
  ARBURST  integral  2     'd0       
  RID      integral  4     'd0       
-------------------------------------

end of drive_raddr
-----------------------------------------------------------------------------------------------------------
Name                           Type      Size  Value                                                       
-----------------------------------------------------------------------------------------------------------
req                            axi_xtn   -     @1230                                                       
  begin_time                   time      64    75                                                          
  depth                        int       32    'd2                                                         
  parent sequence (name)       string    5     m_seq                                                       
  parent sequence (full name)  string    60    uvm_test_top.env_h.mst_agt_top.mst_agt_h[0].mst_seqr_h.m_seq
  sequencer                    string    54    uvm_test_top.env_h.mst_agt_top.mst_agt_h[0].mst_seqr_h      
  AWID                         integral  4     'd5                                                         
  AWADDR                       integral  32    'h3fd9a074                                                  
  AWLEN                        integral  4     15                                                          
  AWSIZE                       integral  3     'd1                                                         
  AWBURST                      integral  2     'd0                                                         
  WID                          integral  4     'd5                                                         
  WDATA                        integral  32    'h7fb7a3e6                                                  
  WSTRB                        integral  4     'b11                                                        
  WLAST                        integral  1     'dX                                                         
  WDATA                        integral  32    'h247ab1cb                                                  
  WSTRB                        integral  4     'b11                                                        
  WLAST                        integral  1     'dX                                                         
  WDATA                        integral  32    'hc5deae9b                                                  
  WSTRB                        integral  4     'b11                                                        
  WLAST                        integral  1     'dX                                                         
  WDATA                        integral  32    'h190a90e2                                                  
  WSTRB                        integral  4     'b11                                                        
  WLAST                        integral  1     'dX                                                         
  WDATA                        integral  32    'h7c743bb6                                                  
  WSTRB                        integral  4     'b11                                                        
  WLAST                        integral  1     'dX                                                         
  WDATA                        integral  32    'hb899e148                                                  
  WSTRB                        integral  4     'b11                                                        
  WLAST                        integral  1     'dX                                                         
  WDATA                        integral  32    'h6bff10f5                                                  
  WSTRB                        integral  4     'b11                                                        
  WLAST                        integral  1     'dX                                                         
  WDATA                        integral  32    'h65910a31                                                  
  WSTRB                        integral  4     'b11                                                        
  WLAST                        integral  1     'dX                                                         
  WDATA                        integral  32    'h575828ef                                                  
  WSTRB                        integral  4     'b11                                                        
  WLAST                        integral  1     'dX                                                         
  WDATA                        integral  32    'h4998f684                                                  
  WSTRB                        integral  4     'b11                                                        
  WLAST                        integral  1     'dX                                                         
  WDATA                        integral  32    'hb6e32129                                                  
  WSTRB                        integral  4     'b11                                                        
  WLAST                        integral  1     'dX                                                         
  WDATA                        integral  32    'hb8effde1                                                  
  WSTRB                        integral  4     'b11                                                        
  WLAST                        integral  1     'dX                                                         
  WDATA                        integral  32    'h3bde3cd4                                                  
  WSTRB                        integral  4     'b11                                                        
  WLAST                        integral  1     'dX                                                         
  WDATA                        integral  32    'h718ea3c5                                                  
  WSTRB                        integral  4     'b11                                                        
  WLAST                        integral  1     'dX                                                         
  WDATA                        integral  32    'hbdbf0ea0                                                  
  WSTRB                        integral  4     'b11                                                        
  WLAST                        integral  1     'dX                                                         
  WDATA                        integral  32    'h18a7d4cc                                                  
  WSTRB                        integral  4     'b11                                                        
  WLAST                        integral  1     'dX                                                         
  BID                          integral  4     'd5                                                         
  BRESP                        integral  2     'd0                                                         
  ARID                         integral  4     14                                                          
  ARADDR                       integral  32    'h7bc27c38                                                  
  ARLEN                        integral  8     'd1                                                         
  ARSIZE                       integral  3     'd0                                                         
  ARBURST                      integral  2     'd0                                                         
  RID                          integral  4     14                                                          
  RDATA                        integral  32    'h7fb2d884                                                  
  RRESP                        integral  2     'd0                                                         
  RDATA                        integral  32    'he4c47bdb                                                  
  RRESP                        integral  2     'd0                                                         
-----------------------------------------------------------------------------------------------------------
//////////////////////////////////////////////// write_addr////////////////
 wr_addr=3677074580 3677074580 3677074580 3677074580 3677074580 3677074580 3677074580 3677074580 3677074580 3677074580 3677074580
//////////////////////////////////////////////// write_addr_AWADDR   ////////////////
 AWADDR=3677074580
//////////////////////////////////////////////// read_addr////////////////
 rd_addr=1503005880 1503005881
//////////////////////////////////////////////// write_addr_ARADDR  ////////////////
 ARADDR=1503005880
start of drive_raddr
UVM_INFO ../master_agent_top/master_monitor.sv(254) @ 145: uvm_test_top.env_h.mst_agt_top.mst_agt_h[0].mst_mon_h [MST_MONITOR] printing from master monitor monitor_rdata 
 -------------------------------------
Name       Type      Size  Value     
-------------------------------------
xtn3       axi_xtn   -     @1103     
  AWID     integral  4     'd0       
  AWADDR   integral  32    'h0       
  AWLEN    integral  4     'd0       
  AWSIZE   integral  3     'd0       
  AWBURST  integral  2     'd0       
  WID      integral  4     'd0       
  BID      integral  4     'd0       
  BRESP    integral  2     'd0       
  ARID     integral  4     'd1       
  ARADDR   integral  32    'h1e131bc8
  ARLEN    integral  8     'd1       
  ARSIZE   integral  3     'd0       
  ARBURST  integral  2     'd0       
  RID      integral  4     'd1       
  RDATA    integral  32    'h17      
  RRESP    integral  2     'd0       
  RDATA    integral  32    'h16      
  RRESP    integral  2     'd0       
-------------------------------------

UVM_INFO ../slave_agent_top/slave_monitor.sv(249) @ 145: uvm_test_top.env_h.slv_agt_top.slv_agt_h[0].slv_mon_h [slv_monitor] printing from slave monitor monitor_rdata 
 -------------------------------------
Name       Type      Size  Value     
-------------------------------------
xtn3       axi_xtn   -     @1085     
  AWID     integral  4     'd0       
  AWADDR   integral  32    'h0       
  AWLEN    integral  4     'd0       
  AWSIZE   integral  3     'd0       
  AWBURST  integral  2     'd0       
  WID      integral  4     'd0       
  BID      integral  4     'd0       
  BRESP    integral  2     'd0       
  ARID     integral  4     'd1       
  ARADDR   integral  32    'h1e131bc8
  ARLEN    integral  8     'd1       
  ARSIZE   integral  3     'd0       
  ARBURST  integral  2     'd0       
  RID      integral  4     'd1       
  RDATA    integral  32    'h17      
  RRESP    integral  2     'd0       
  RDATA    integral  32    'h16      
  RRESP    integral  2     'd0       
-------------------------------------

slave driver start of awvalid
WSTRB in slave driver is:4
value inside mem is: 00000026
end of slave_raddr
start of slave_raddr
master received address:'{1e131bc8, 1e131bc8}
memory received in master driver is '{1e131bc8:00000016 }
end of drive_rdata
start of drive_rdata
inside drive_raddr before wait ARREADY
end of drive_awaddr
end of slave_rdata
end of read_awaddr
start of drive_awaddr
start of slave_rdata
start of read_awaddr
slave driver start of awvalid
WSTRB in slave driver is:8
value inside mem is: 000000bc
UVM_INFO ../master_agent_top/master_monitor.sv(111) @ 205: uvm_test_top.env_h.mst_agt_top.mst_agt_h[0].mst_mon_h [MST_MONITOR] printing from master monitor collect_awaddr 
 -------------------------------------
Name       Type      Size  Value     
-------------------------------------
xtn        axi_xtn   -     @1246     
  AWID     integral  4     'd6       
  AWADDR   integral  32    'hdb2bb494
  AWLEN    integral  4     10        
  AWSIZE   integral  3     'd2       
  AWBURST  integral  2     'd0       
  WID      integral  4     'd0       
  BID      integral  4     'd0       
  BRESP    integral  2     'd0       
  ARID     integral  4     'd0       
  ARADDR   integral  32    'h0       
  ARLEN    integral  8     'd0       
  ARSIZE   integral  3     'd0       
  ARBURST  integral  2     'd0       
  RID      integral  4     'd0       
-------------------------------------

UVM_INFO ../slave_agent_top/slave_monitor.sv(110) @ 205: uvm_test_top.env_h.slv_agt_top.slv_agt_h[0].slv_mon_h [slv_monitor] printing from slave monitor collect_awaddr 
 -------------------------------------
Name       Type      Size  Value     
-------------------------------------
xtn        axi_xtn   -     @1250     
  AWID     integral  4     'd6       
  AWADDR   integral  32    'hdb2bb494
  AWLEN    integral  4     10        
  AWSIZE   integral  3     'd2       
  AWBURST  integral  2     'd0       
  WID      integral  4     'd0       
  BID      integral  4     'd0       
  BRESP    integral  2     'd0       
  ARID     integral  4     'd0       
  ARADDR   integral  32    'h0       
  ARLEN    integral  8     'd0       
  ARSIZE   integral  3     'd0       
  ARBURST  integral  2     'd0       
  RID      integral  4     'd0       
-------------------------------------

end of slave_raddr
start of slave_raddr
UVM_INFO ../master_agent_top/master_monitor.sv(188) @ 215: uvm_test_top.env_h.mst_agt_top.mst_agt_h[0].mst_mon_h [MST_MONITOR] printing from master monitor collect_raddr 
 -------------------------------------
Name       Type      Size  Value     
-------------------------------------
xtn3       axi_xtn   -     @1234     
  AWID     integral  4     'd0       
  AWADDR   integral  32    'h0       
  AWLEN    integral  4     'd0       
  AWSIZE   integral  3     'd0       
  AWBURST  integral  2     'd0       
  WID      integral  4     'd0       
  BID      integral  4     'd0       
  BRESP    integral  2     'd0       
  ARID     integral  4     'd6       
  ARADDR   integral  32    'h59960cb8
  ARLEN    integral  8     'd1       
  ARSIZE   integral  3     'd0       
  ARBURST  integral  2     2         
  RID      integral  4     'd0       
-------------------------------------

end of read_awaddr
UVM_INFO ../slave_agent_top/slave_monitor.sv(184) @ 215: uvm_test_top.env_h.slv_agt_top.slv_agt_h[0].slv_mon_h [slv_monitor] printing from slave monitor collect_raddr 
 -------------------------------------
Name       Type      Size  Value     
-------------------------------------
xtn3       axi_xtn   -     @1238     
  AWID     integral  4     'd0       
  AWADDR   integral  32    'h0       
  AWLEN    integral  4     'd0       
  AWSIZE   integral  3     'd0       
  AWBURST  integral  2     'd0       
  WID      integral  4     'd0       
  BID      integral  4     'd0       
  BRESP    integral  2     'd0       
  ARID     integral  4     'd6       
  ARADDR   integral  32    'h59960cb8
  ARLEN    integral  8     'd1       
  ARSIZE   integral  3     'd0       
  ARBURST  integral  2     2         
  RID      integral  4     'd0       
-------------------------------------

start of read_awaddr
slave driver start of awvalid
WSTRB in slave driver is:1
value inside mem is: 000000fb
end of drive_raddr
-----------------------------------------------------------------------------------------------------------
Name                           Type      Size  Value                                                       
-----------------------------------------------------------------------------------------------------------
req                            axi_xtn   -     @1242                                                       
  begin_time                   time      64    125                                                         
  depth                        int       32    'd2                                                         
  parent sequence (name)       string    5     m_seq                                                       
  parent sequence (full name)  string    60    uvm_test_top.env_h.mst_agt_top.mst_agt_h[0].mst_seqr_h.m_seq
  sequencer                    string    54    uvm_test_top.env_h.mst_agt_top.mst_agt_h[0].mst_seqr_h      
  AWID                         integral  4     'd6                                                         
  AWADDR                       integral  32    'hdb2bb494                                                  
  AWLEN                        integral  4     10                                                          
  AWSIZE                       integral  3     'd2                                                         
  AWBURST                      integral  2     'd0                                                         
  WID                          integral  4     'd6                                                         
  WDATA                        integral  32    'hc7e0424c                                                  
  WSTRB                        integral  4     'b1111                                                      
  WLAST                        integral  1     'dX                                                         
  WDATA                        integral  32    'ha557ba15                                                  
  WSTRB                        integral  4     'b1111                                                      
  WLAST                        integral  1     'dX                                                         
  WDATA                        integral  32    'h1e3fcfd9                                                  
  WSTRB                        integral  4     'b1111                                                      
  WLAST                        integral  1     'dX                                                         
  WDATA                        integral  32    'hf50760d9                                                  
  WSTRB                        integral  4     'b1111                                                      
  WLAST                        integral  1     'dX                                                         
  WDATA                        integral  32    'hb15eef94                                                  
  WSTRB                        integral  4     'b1111                                                      
  WLAST                        integral  1     'dX                                                         
  WDATA                        integral  32    'h85520c4                                                   
  WSTRB                        integral  4     'b1111                                                      
  WLAST                        integral  1     'dX                                                         
  WDATA                        integral  32    'h30d94ce                                                   
  WSTRB                        integral  4     'b1111                                                      
  WLAST                        integral  1     'dX                                                         
  WDATA                        integral  32    'ha384dc54                                                  
  WSTRB                        integral  4     'b1111                                                      
  WLAST                        integral  1     'dX                                                         
  WDATA                        integral  32    'hf9067911                                                  
  WSTRB                        integral  4     'b1111                                                      
  WLAST                        integral  1     'dX                                                         
  WDATA                        integral  32    'h319d1e3b                                                  
  WSTRB                        integral  4     'b1111                                                      
  WLAST                        integral  1     'dX                                                         
  WDATA                        integral  32    'hfc404591                                                  
  WSTRB                        integral  4     'b1111                                                      
  WLAST                        integral  1     'dX                                                         
  BID                          integral  4     'd6                                                         
  BRESP                        integral  2     'd0                                                         
  ARID                         integral  4     'd6                                                         
  ARADDR                       integral  32    'h59960cb8                                                  
  ARLEN                        integral  8     'd1                                                         
  ARSIZE                       integral  3     'd0                                                         
  ARBURST                      integral  2     2                                                           
  RID                          integral  4     'd6                                                         
  RDATA                        integral  32    'h57319c84                                                  
  RRESP                        integral  2     'd0                                                         
  RDATA                        integral  32    'hc9520bdd                                                  
  RRESP                        integral  2     'd0                                                         
-----------------------------------------------------------------------------------------------------------
//////////////////////////////////////////////// write_addr////////////////
 wr_addr=4022960224 4022960228 4022960232 4022960236 4022960240 4022960244 4022960248 4022960252
//////////////////////////////////////////////// write_addr_AWADDR   ////////////////
 AWADDR=4022960224
//////////////////////////////////////////////// read_addr////////////////
 rd_addr=1219763084 1219763086
//////////////////////////////////////////////// write_addr_ARADDR  ////////////////
 ARADDR=1219763084
start of drive_raddr
end of drive_awaddr
UVM_INFO ../master_agent_top/master_monitor.sv(254) @ 255: uvm_test_top.env_h.mst_agt_top.mst_agt_h[0].mst_mon_h [MST_MONITOR] printing from master monitor monitor_rdata 
 -------------------------------------
Name       Type      Size  Value     
-------------------------------------
xtn3       axi_xtn   -     @1189     
  AWID     integral  4     'd0       
  AWADDR   integral  32    'h0       
  AWLEN    integral  4     'd0       
  AWSIZE   integral  3     'd0       
  AWBURST  integral  2     'd0       
  WID      integral  4     'd0       
  BID      integral  4     'd0       
  BRESP    integral  2     'd0       
  ARID     integral  4     14        
  ARADDR   integral  32    'h7bc27c38
  ARLEN    integral  8     'd1       
  ARSIZE   integral  3     'd0       
  ARBURST  integral  2     'd0       
  RID      integral  4     14        
  RDATA    integral  32    'h17      
  RRESP    integral  2     'd0       
  RDATA    integral  32    'h60      
  RRESP    integral  2     'd0       
-------------------------------------

UVM_INFO ../slave_agent_top/slave_monitor.sv(249) @ 255: uvm_test_top.env_h.slv_agt_top.slv_agt_h[0].slv_mon_h [slv_monitor] printing from slave monitor monitor_rdata 
 -------------------------------------
Name       Type      Size  Value     
-------------------------------------
xtn3       axi_xtn   -     @1193     
  AWID     integral  4     'd0       
  AWADDR   integral  32    'h0       
  AWLEN    integral  4     'd0       
  AWSIZE   integral  3     'd0       
  AWBURST  integral  2     'd0       
  WID      integral  4     'd0       
  BID      integral  4     'd0       
  BRESP    integral  2     'd0       
  ARID     integral  4     14        
  ARADDR   integral  32    'h7bc27c38
  ARLEN    integral  8     'd1       
  ARSIZE   integral  3     'd0       
  ARBURST  integral  2     'd0       
  RID      integral  4     14        
  RDATA    integral  32    'h17      
  RRESP    integral  2     'd0       
  RDATA    integral  32    'h60      
  RRESP    integral  2     'd0       
-------------------------------------

start of drive_awaddr
inside drive_raddr before wait ARREADY
end of slave_rdata
start of slave_rdata
UVM_INFO ../master_agent_top/master_monitor.sv(111) @ 275: uvm_test_top.env_h.mst_agt_top.mst_agt_h[0].mst_mon_h [MST_MONITOR] printing from master monitor collect_awaddr 
 -------------------------------------
Name       Type      Size  Value     
-------------------------------------
xtn        axi_xtn   -     @1286     
  AWID     integral  4     'd3       
  AWADDR   integral  32    'hefc98060
  AWLEN    integral  4     'd7       
  AWSIZE   integral  3     'd2       
  AWBURST  integral  2     2         
  WID      integral  4     'd0       
  BID      integral  4     'd0       
  BRESP    integral  2     'd0       
  ARID     integral  4     'd0       
  ARADDR   integral  32    'h0       
  ARLEN    integral  8     'd0       
  ARSIZE   integral  3     'd0       
  ARBURST  integral  2     'd0       
  RID      integral  4     'd0       
-------------------------------------

UVM_INFO ../slave_agent_top/slave_monitor.sv(110) @ 275: uvm_test_top.env_h.slv_agt_top.slv_agt_h[0].slv_mon_h [slv_monitor] printing from slave monitor collect_awaddr 
 -------------------------------------
Name       Type      Size  Value     
-------------------------------------
xtn        axi_xtn   -     @1290     
  AWID     integral  4     'd3       
  AWADDR   integral  32    'hefc98060
  AWLEN    integral  4     'd7       
  AWSIZE   integral  3     'd2       
  AWBURST  integral  2     2         
  WID      integral  4     'd0       
  BID      integral  4     'd0       
  BRESP    integral  2     'd0       
  ARID     integral  4     'd0       
  ARADDR   integral  32    'h0       
  ARLEN    integral  8     'd0       
  ARSIZE   integral  3     'd0       
  ARBURST  integral  2     'd0       
  RID      integral  4     'd0       
-------------------------------------

UVM_INFO ../master_agent_top/master_monitor.sv(188) @ 275: uvm_test_top.env_h.mst_agt_top.mst_agt_h[0].mst_mon_h [MST_MONITOR] printing from master monitor collect_raddr 
 -------------------------------------
Name       Type      Size  Value     
-------------------------------------
xtn3       axi_xtn   -     @1278     
  AWID     integral  4     'd0       
  AWADDR   integral  32    'h0       
  AWLEN    integral  4     'd0       
  AWSIZE   integral  3     'd0       
  AWBURST  integral  2     'd0       
  WID      integral  4     'd0       
  BID      integral  4     'd0       
  BRESP    integral  2     'd0       
  ARID     integral  4     9         
  ARADDR   integral  32    'h48b41b8c
  ARLEN    integral  8     'd1       
  ARSIZE   integral  3     'd1       
  ARBURST  integral  2     'd1       
  RID      integral  4     'd0       
-------------------------------------

UVM_INFO ../slave_agent_top/slave_monitor.sv(184) @ 275: uvm_test_top.env_h.slv_agt_top.slv_agt_h[0].slv_mon_h [slv_monitor] printing from slave monitor collect_raddr 
 -------------------------------------
Name       Type      Size  Value     
-------------------------------------
xtn3       axi_xtn   -     @1282     
  AWID     integral  4     'd0       
  AWADDR   integral  32    'h0       
  AWLEN    integral  4     'd0       
  AWSIZE   integral  3     'd0       
  AWBURST  integral  2     'd0       
  WID      integral  4     'd0       
  BID      integral  4     'd0       
  BRESP    integral  2     'd0       
  ARID     integral  4     9         
  ARADDR   integral  32    'h48b41b8c
  ARLEN    integral  8     'd1       
  ARSIZE   integral  3     'd1       
  ARBURST  integral  2     'd1       
  RID      integral  4     'd0       
-------------------------------------

master received address:'{7bc27c38, 7bc27c38}
memory received in master driver is '{7bc27c38:00000060 }
end of drive_rdata
start of drive_rdata
end of drive_awaddr
-----------------------------------------------------------------------------------------------------------
Name                           Type      Size  Value                                                       
-----------------------------------------------------------------------------------------------------------
req                            axi_xtn   -     @1294                                                       
  begin_time                   time      64    245                                                         
  depth                        int       32    'd2                                                         
  parent sequence (name)       string    5     m_seq                                                       
  parent sequence (full name)  string    60    uvm_test_top.env_h.mst_agt_top.mst_agt_h[0].mst_seqr_h.m_seq
  sequencer                    string    54    uvm_test_top.env_h.mst_agt_top.mst_agt_h[0].mst_seqr_h      
  AWID                         integral  4     'd3                                                         
  AWADDR                       integral  32    'hefc98060                                                  
  AWLEN                        integral  4     'd7                                                         
  AWSIZE                       integral  3     'd2                                                         
  AWBURST                      integral  2     2                                                           
  WID                          integral  4     'd3                                                         
  WDATA                        integral  32    'hf5deb76f                                                  
  WSTRB                        integral  4     'b1111                                                      
  WLAST                        integral  1     'dX                                                         
  WDATA                        integral  32    'hc3db54ca                                                  
  WSTRB                        integral  4     'b1111                                                      
  WLAST                        integral  1     'dX                                                         
  WDATA                        integral  32    'h683aef59                                                  
  WSTRB                        integral  4     'b1111                                                      
  WLAST                        integral  1     'dX                                                         
  WDATA                        integral  32    'h96d2314e                                                  
  WSTRB                        integral  4     'b1111                                                      
  WLAST                        integral  1     'dX                                                         
  WDATA                        integral  32    'h6dc3c8f1                                                  
  WSTRB                        integral  4     'b1111                                                      
  WLAST                        integral  1     'dX                                                         
  WDATA                        integral  32    'h4d6caa97                                                  
  WSTRB                        integral  4     'b1111                                                      
  WLAST                        integral  1     'dX                                                         
  WDATA                        integral  32    'he2181498                                                  
  WSTRB                        integral  4     'b1111                                                      
  WLAST                        integral  1     'dX                                                         
  WDATA                        integral  32    'h13d281cc                                                  
  WSTRB                        integral  4     'b1111                                                      
  WLAST                        integral  1     'dX                                                         
  BID                          integral  4     'd3                                                         
  BRESP                        integral  2     'd0                                                         
  ARID                         integral  4     9                                                           
  ARADDR                       integral  32    'h48b41b8c                                                  
  ARLEN                        integral  8     'd1                                                         
  ARSIZE                       integral  3     'd1                                                         
  ARBURST                      integral  2     'd1                                                         
  RID                          integral  4     9                                                           
  RDATA                        integral  32    'h91bed8bd                                                  
  RRESP                        integral  2     'd0                                                         
  RDATA                        integral  32    'h8cc2e6d3                                                  
  RRESP                        integral  2     'd0                                                         
-----------------------------------------------------------------------------------------------------------
end of drive_raddr
slave driver start of awvalid
WSTRB in slave driver is:2
value inside mem is: 00000030
//////////////////////////////////////////////// write_addr////////////////
 wr_addr=242095020 242095008 242095012 242095016
//////////////////////////////////////////////// write_addr_AWADDR   ////////////////
 AWADDR=242095020
//////////////////////////////////////////////// read_addr////////////////
 rd_addr=1466896691 1466896692
//////////////////////////////////////////////// write_addr_ARADDR  ////////////////
 ARADDR=1466896691
start of drive_awaddr
start of drive_raddr
UVM_INFO ../master_agent_top/master_monitor.sv(111) @ 305: uvm_test_top.env_h.mst_agt_top.mst_agt_h[0].mst_mon_h [MST_MONITOR] printing from master monitor collect_awaddr 
 ------------------------------------
Name       Type      Size  Value    
------------------------------------
xtn        axi_xtn   -     @1314    
  AWID     integral  4     'd3      
  AWADDR   integral  32    'he6e13ac
  AWLEN    integral  4     'd3      
  AWSIZE   integral  3     'd2      
  AWBURST  integral  2     2        
  WID      integral  4     'd0      
  BID      integral  4     'd0      
  BRESP    integral  2     'd0      
  ARID     integral  4     'd0      
  ARADDR   integral  32    'h0      
  ARLEN    integral  8     'd0      
  ARSIZE   integral  3     'd0      
  ARBURST  integral  2     'd0      
  RID      integral  4     'd0      
------------------------------------

UVM_INFO ../slave_agent_top/slave_monitor.sv(110) @ 305: uvm_test_top.env_h.slv_agt_top.slv_agt_h[0].slv_mon_h [slv_monitor] printing from slave monitor collect_awaddr 
 ------------------------------------
Name       Type      Size  Value    
------------------------------------
xtn        axi_xtn   -     @1318    
  AWID     integral  4     'd3      
  AWADDR   integral  32    'he6e13ac
  AWLEN    integral  4     'd3      
  AWSIZE   integral  3     'd2      
  AWBURST  integral  2     2        
  WID      integral  4     'd0      
  BID      integral  4     'd0      
  BRESP    integral  2     'd0      
  ARID     integral  4     'd0      
  ARADDR   integral  32    'h0      
  ARLEN    integral  8     'd0      
  ARSIZE   integral  3     'd0      
  ARBURST  integral  2     'd0      
  RID      integral  4     'd0      
------------------------------------

end of read_awaddr
start of read_awaddr
inside drive_raddr before wait ARREADY
end of slave_raddr
start of slave_raddr
end of drive_raddr
-----------------------------------------------------------------------------------------------------------
Name                           Type      Size  Value                                                       
-----------------------------------------------------------------------------------------------------------
req                            axi_xtn   -     @1322                                                       
  begin_time                   time      64    295                                                         
  depth                        int       32    'd2                                                         
  parent sequence (name)       string    5     m_seq                                                       
  parent sequence (full name)  string    60    uvm_test_top.env_h.mst_agt_top.mst_agt_h[0].mst_seqr_h.m_seq
  sequencer                    string    54    uvm_test_top.env_h.mst_agt_top.mst_agt_h[0].mst_seqr_h      
  AWID                         integral  4     'd3                                                         
  AWADDR                       integral  32    'he6e13ac                                                   
  AWLEN                        integral  4     'd3                                                         
  AWSIZE                       integral  3     'd2                                                         
  AWBURST                      integral  2     2                                                           
  WID                          integral  4     'd3                                                         
  WDATA                        integral  32    'h7385d28f                                                  
  WSTRB                        integral  4     'b1111                                                      
  WLAST                        integral  1     'dX                                                         
  WDATA                        integral  32    'hab1a5c8c                                                  
  WSTRB                        integral  4     'b1111                                                      
  WLAST                        integral  1     'dX                                                         
  WDATA                        integral  32    'h1ae949c7                                                  
  WSTRB                        integral  4     'b1111                                                      
  WLAST                        integral  1     'dX                                                         
  WDATA                        integral  32    'h19d647c7                                                  
  WSTRB                        integral  4     'b1111                                                      
  WLAST                        integral  1     'dX                                                         
  BID                          integral  4     'd3                                                         
  BRESP                        integral  2     'd0                                                         
  ARID                         integral  4     'd0                                                         
  ARADDR                       integral  32    'h576f1133                                                  
  ARLEN                        integral  8     'd1                                                         
  ARSIZE                       integral  3     'd1                                                         
  ARBURST                      integral  2     'd1                                                         
  RID                          integral  4     'd0                                                         
  RDATA                        integral  32    'h13c86ef7                                                  
  RRESP                        integral  2     'd0                                                         
  RDATA                        integral  32    'he3cfc283                                                  
  RRESP                        integral  2     'd0                                                         
-----------------------------------------------------------------------------------------------------------
UVM_INFO ../master_agent_top/master_monitor.sv(188) @ 325: uvm_test_top.env_h.mst_agt_top.mst_agt_h[0].mst_mon_h [MST_MONITOR] printing from master monitor collect_raddr 
 -------------------------------------
Name       Type      Size  Value     
-------------------------------------
xtn3       axi_xtn   -     @1306     
  AWID     integral  4     'd0       
  AWADDR   integral  32    'h0       
  AWLEN    integral  4     'd0       
  AWSIZE   integral  3     'd0       
  AWBURST  integral  2     'd0       
  WID      integral  4     'd0       
  BID      integral  4     'd0       
  BRESP    integral  2     'd0       
  ARID     integral  4     'd0       
  ARADDR   integral  32    'h576f1133
  ARLEN    integral  8     'd1       
  ARSIZE   integral  3     'd1       
  ARBURST  integral  2     'd1       
  RID      integral  4     'd0       
-------------------------------------

slave driver start of awvalid
WSTRB in slave driver is:4
value inside mem is: 00000037
UVM_INFO ../slave_agent_top/slave_monitor.sv(184) @ 325: uvm_test_top.env_h.slv_agt_top.slv_agt_h[0].slv_mon_h [slv_monitor] printing from slave monitor collect_raddr 
 -------------------------------------
Name       Type      Size  Value     
-------------------------------------
xtn3       axi_xtn   -     @1310     
  AWID     integral  4     'd0       
  AWADDR   integral  32    'h0       
  AWLEN    integral  4     'd0       
  AWSIZE   integral  3     'd0       
  AWBURST  integral  2     'd0       
  WID      integral  4     'd0       
  BID      integral  4     'd0       
  BRESP    integral  2     'd0       
  ARID     integral  4     'd0       
  ARADDR   integral  32    'h576f1133
  ARLEN    integral  8     'd1       
  ARSIZE   integral  3     'd1       
  ARBURST  integral  2     'd1       
  RID      integral  4     'd0       
-------------------------------------

//////////////////////////////////////////////// write_addr////////////////
 wr_addr=745011412 745011412 745011412 745011412 745011412 745011412 745011412 745011412 745011412 745011412 745011412 745011412 745011412 745011412 745011412
//////////////////////////////////////////////// write_addr_AWADDR   ////////////////
 AWADDR=745011412
//////////////////////////////////////////////// read_addr////////////////
 rd_addr=2618106476 2618106477 2618106478 2618106479 2618106480 2618106481 2618106482 2618106483 2618106484
//////////////////////////////////////////////// write_addr_ARADDR  ////////////////
 ARADDR=2618106476
start of drive_raddr
end of drive_awaddr
UVM_INFO ../master_agent_top/master_monitor.sv(254) @ 345: uvm_test_top.env_h.mst_agt_top.mst_agt_h[0].mst_mon_h [MST_MONITOR] printing from master monitor monitor_rdata 
 -------------------------------------
Name       Type      Size  Value     
-------------------------------------
xtn3       axi_xtn   -     @1234     
  AWID     integral  4     'd0       
  AWADDR   integral  32    'h0       
  AWLEN    integral  4     'd0       
  AWSIZE   integral  3     'd0       
  AWBURST  integral  2     'd0       
  WID      integral  4     'd0       
  BID      integral  4     'd0       
  BRESP    integral  2     'd0       
  ARID     integral  4     'd6       
  ARADDR   integral  32    'h59960cb8
  ARLEN    integral  8     'd1       
  ARSIZE   integral  3     'd0       
  ARBURST  integral  2     2         
  RID      integral  4     'd6       
  RDATA    integral  32    'hca      
  RRESP    integral  2     'd0       
  RDATA    integral  32    'h3c      
  RRESP    integral  2     'd0       
-------------------------------------

UVM_INFO ../slave_agent_top/slave_monitor.sv(249) @ 345: uvm_test_top.env_h.slv_agt_top.slv_agt_h[0].slv_mon_h [slv_monitor] printing from slave monitor monitor_rdata 
 -------------------------------------
Name       Type      Size  Value     
-------------------------------------
xtn3       axi_xtn   -     @1238     
  AWID     integral  4     'd0       
  AWADDR   integral  32    'h0       
  AWLEN    integral  4     'd0       
  AWSIZE   integral  3     'd0       
  AWBURST  integral  2     'd0       
  WID      integral  4     'd0       
  BID      integral  4     'd0       
  BRESP    integral  2     'd0       
  ARID     integral  4     'd6       
  ARADDR   integral  32    'h59960cb8
  ARLEN    integral  8     'd1       
  ARSIZE   integral  3     'd0       
  ARBURST  integral  2     2         
  RID      integral  4     'd6       
  RDATA    integral  32    'hca      
  RRESP    integral  2     'd0       
  RDATA    integral  32    'h3c      
  RRESP    integral  2     'd0       
-------------------------------------

start of drive_awaddr
UVM_INFO ../master_agent_top/master_monitor.sv(111) @ 355: uvm_test_top.env_h.mst_agt_top.mst_agt_h[0].mst_mon_h [MST_MONITOR] printing from master monitor collect_awaddr 
 -------------------------------------
Name       Type      Size  Value     
-------------------------------------
xtn        axi_xtn   -     @1330     
  AWID     integral  4     'd7       
  AWADDR   integral  32    'h2c67f8d4
  AWLEN    integral  4     14        
  AWSIZE   integral  3     'd2       
  AWBURST  integral  2     'd0       
  WID      integral  4     'd0       
  BID      integral  4     'd0       
  BRESP    integral  2     'd0       
  ARID     integral  4     'd0       
  ARADDR   integral  32    'h0       
  ARLEN    integral  8     'd0       
  ARSIZE   integral  3     'd0       
  ARBURST  integral  2     'd0       
  RID      integral  4     'd0       
-------------------------------------

UVM_INFO ../slave_agent_top/slave_monitor.sv(110) @ 355: uvm_test_top.env_h.slv_agt_top.slv_agt_h[0].slv_mon_h [slv_monitor] printing from slave monitor collect_awaddr 
 -------------------------------------
Name       Type      Size  Value     
-------------------------------------
xtn        axi_xtn   -     @1334     
  AWID     integral  4     'd7       
  AWADDR   integral  32    'h2c67f8d4
  AWLEN    integral  4     14        
  AWSIZE   integral  3     'd2       
  AWBURST  integral  2     'd0       
  WID      integral  4     'd0       
  BID      integral  4     'd0       
  BRESP    integral  2     'd0       
  ARID     integral  4     'd0       
  ARADDR   integral  32    'h0       
  ARLEN    integral  8     'd0       
  ARSIZE   integral  3     'd0       
  ARBURST  integral  2     'd0       
  RID      integral  4     'd0       
-------------------------------------

inside drive_raddr before wait ARREADY
master received address:'{59960cb8, 59960cb9}
memory received in master driver is '{59960cb8:000000ca, 59960cb9:0000003c }
end of drive_rdata
end of read_awaddr
start of read_awaddr
slave driver start of awvalid
WSTRB in slave driver is:8
value inside mem is: 0000002d
start of drive_rdata
end of drive_awaddr
-----------------------------------------------------------------------------------------------------------
Name                           Type      Size  Value                                                       
-----------------------------------------------------------------------------------------------------------
req                            axi_xtn   -     @1342                                                       
  begin_time                   time      64    325                                                         
  depth                        int       32    'd2                                                         
  parent sequence (name)       string    5     m_seq                                                       
  parent sequence (full name)  string    60    uvm_test_top.env_h.mst_agt_top.mst_agt_h[0].mst_seqr_h.m_seq
  sequencer                    string    54    uvm_test_top.env_h.mst_agt_top.mst_agt_h[0].mst_seqr_h      
  AWID                         integral  4     'd7                                                         
  AWADDR                       integral  32    'h2c67f8d4                                                  
  AWLEN                        integral  4     14                                                          
  AWSIZE                       integral  3     'd2                                                         
  AWBURST                      integral  2     'd0                                                         
  WID                          integral  4     'd7                                                         
  WDATA                        integral  32    'h2dcbbffc                                                  
  WSTRB                        integral  4     'b1111                                                      
  WLAST                        integral  1     'dX                                                         
  WDATA                        integral  32    'hf1f7b249                                                  
  WSTRB                        integral  4     'b1111                                                      
  WLAST                        integral  1     'dX                                                         
  WDATA                        integral  32    'h58ae52cf                                                  
  WSTRB                        integral  4     'b1111                                                      
  WLAST                        integral  1     'dX                                                         
  WDATA                        integral  32    'h3968c8d5                                                  
  WSTRB                        integral  4     'b1111                                                      
  WLAST                        integral  1     'dX                                                         
  WDATA                        integral  32    'h26eef8d3                                                  
  WSTRB                        integral  4     'b1111                                                      
  WLAST                        integral  1     'dX                                                         
  WDATA                        integral  32    'hf45d71b9                                                  
  WSTRB                        integral  4     'b1111                                                      
  WLAST                        integral  1     'dX                                                         
  WDATA                        integral  32    'h62b1eda7                                                  
  WSTRB                        integral  4     'b1111                                                      
  WLAST                        integral  1     'dX                                                         
  WDATA                        integral  32    'h1d6bf2fa                                                  
  WSTRB                        integral  4     'b1111                                                      
  WLAST                        integral  1     'dX                                                         
  WDATA                        integral  32    'h7e590771                                                  
  WSTRB                        integral  4     'b1111                                                      
  WLAST                        integral  1     'dX                                                         
  WDATA                        integral  32    'hd62a4bad                                                  
  WSTRB                        integral  4     'b1111                                                      
  WLAST                        integral  1     'dX                                                         
  WDATA                        integral  32    'hb4a900ce                                                  
  WSTRB                        integral  4     'b1111                                                      
  WLAST                        integral  1     'dX                                                         
  WDATA                        integral  32    'hd7b41e70                                                  
  WSTRB                        integral  4     'b1111                                                      
  WLAST                        integral  1     'dX                                                         
  WDATA                        integral  32    'hbd4fdd6b                                                  
  WSTRB                        integral  4     'b1111                                                      
  WLAST                        integral  1     'dX                                                         
  WDATA                        integral  32    'h4ce22738                                                  
  WSTRB                        integral  4     'b1111                                                      
  WLAST                        integral  1     'dX                                                         
  WDATA                        integral  32    'h69b3422d                                                  
  WSTRB                        integral  4     'b1111                                                      
  WLAST                        integral  1     'dX                                                         
  BID                          integral  4     'd7                                                         
  BRESP                        integral  2     'd0                                                         
  ARID                         integral  4     9                                                           
  ARADDR                       integral  32    'h9c0d226c                                                  
  ARLEN                        integral  8     'd8                                                         
  ARSIZE                       integral  3     'd0                                                         
  ARBURST                      integral  2     'd1                                                         
  RID                          integral  4     9                                                           
  RDATA                        integral  32    'hb8657d8b                                                  
  RRESP                        integral  2     'd0                                                         
  RDATA                        integral  32    'h2b5c4b8c                                                  
  RRESP                        integral  2     'd0                                                         
  RDATA                        integral  32    'h6773f698                                                  
  RRESP                        integral  2     'd0                                                         
  RDATA                        integral  32    'hc46b1c9d                                                  
  RRESP                        integral  2     'd0                                                         
  RDATA                        integral  32    'h79d2f4a6                                                  
  RRESP                        integral  2     'd0                                                         
  RDATA                        integral  32    'h8d923b24                                                  
  RRESP                        integral  2     'd0                                                         
  RDATA                        integral  32    'hc045d51e                                                  
  RRESP                        integral  2     'd0                                                         
  RDATA                        integral  32    'hdeccf0a5                                                  
  RRESP                        integral  2     'd0                                                         
  RDATA                        integral  32    'h4db39b30                                                  
  RRESP                        integral  2     'd0                                                         
-----------------------------------------------------------------------------------------------------------
UVM_INFO ../master_agent_top/master_monitor.sv(188) @ 385: uvm_test_top.env_h.mst_agt_top.mst_agt_h[0].mst_mon_h [MST_MONITOR] printing from master monitor collect_raddr 
 -------------------------------------
Name       Type      Size  Value     
-------------------------------------
xtn3       axi_xtn   -     @1346     
  AWID     integral  4     'd0       
  AWADDR   integral  32    'h0       
  AWLEN    integral  4     'd0       
  AWSIZE   integral  3     'd0       
  AWBURST  integral  2     'd0       
  WID      integral  4     'd0       
  BID      integral  4     'd0       
  BRESP    integral  2     'd0       
  ARID     integral  4     9         
  ARADDR   integral  32    'h9c0d226c
  ARLEN    integral  8     'd8       
  ARSIZE   integral  3     'd0       
  ARBURST  integral  2     'd1       
  RID      integral  4     'd0       
-------------------------------------

end of slave_rdata
UVM_INFO ../slave_agent_top/slave_monitor.sv(184) @ 385: uvm_test_top.env_h.slv_agt_top.slv_agt_h[0].slv_mon_h [slv_monitor] printing from slave monitor collect_raddr 
 -------------------------------------
Name       Type      Size  Value     
-------------------------------------
xtn3       axi_xtn   -     @1350     
  AWID     integral  4     'd0       
  AWADDR   integral  32    'h0       
  AWLEN    integral  4     'd0       
  AWSIZE   integral  3     'd0       
  AWBURST  integral  2     'd0       
  WID      integral  4     'd0       
  BID      integral  4     'd0       
  BRESP    integral  2     'd0       
  ARID     integral  4     9         
  ARADDR   integral  32    'h9c0d226c
  ARLEN    integral  8     'd8       
  ARSIZE   integral  3     'd0       
  ARBURST  integral  2     'd1       
  RID      integral  4     'd0       
-------------------------------------

start of slave_rdata
//////////////////////////////////////////////// write_addr////////////////
 wr_addr=1321104688 1321104688 1321104688 1321104688 1321104688 1321104688 1321104688 1321104688 1321104688 1321104688 1321104688
//////////////////////////////////////////////// write_addr_AWADDR   ////////////////
 AWADDR=1321104688
//////////////////////////////////////////////// read_addr////////////////
 rd_addr=355393020 355393020 355393020 355393020 355393020 355393020 355393020 355393020
//////////////////////////////////////////////// write_addr_ARADDR  ////////////////
 ARADDR=355393020
start of drive_awaddr
end of slave_raddr
start of slave_raddr
UVM_INFO ../master_agent_top/master_monitor.sv(111) @ 415: uvm_test_top.env_h.mst_agt_top.mst_agt_h[0].mst_mon_h [MST_MONITOR] printing from master monitor collect_awaddr 
 -------------------------------------
Name       Type      Size  Value     
-------------------------------------
xtn        axi_xtn   -     @1362     
  AWID     integral  4     'd4       
  AWADDR   integral  32    'h4ebe7530
  AWLEN    integral  4     10        
  AWSIZE   integral  3     'd2       
  AWBURST  integral  2     'd0       
  WID      integral  4     'd0       
  BID      integral  4     'd0       
  BRESP    integral  2     'd0       
  ARID     integral  4     'd0       
  ARADDR   integral  32    'h0       
  ARLEN    integral  8     'd0       
  ARSIZE   integral  3     'd0       
  ARBURST  integral  2     'd0       
  RID      integral  4     'd0       
-------------------------------------

UVM_INFO ../slave_agent_top/slave_monitor.sv(110) @ 415: uvm_test_top.env_h.slv_agt_top.slv_agt_h[0].slv_mon_h [slv_monitor] printing from slave monitor collect_awaddr 
 -------------------------------------
Name       Type      Size  Value     
-------------------------------------
xtn        axi_xtn   -     @1366     
  AWID     integral  4     'd4       
  AWADDR   integral  32    'h4ebe7530
  AWLEN    integral  4     10        
  AWSIZE   integral  3     'd2       
  AWBURST  integral  2     'd0       
  WID      integral  4     'd0       
  BID      integral  4     'd0       
  BRESP    integral  2     'd0       
  ARID     integral  4     'd0       
  ARADDR   integral  32    'h0       
  ARLEN    integral  8     'd0       
  ARSIZE   integral  3     'd0       
  ARBURST  integral  2     'd0       
  RID      integral  4     'd0       
-------------------------------------

end of drive_raddr
start of drive_raddr
end of drive_awaddr
-----------------------------------------------------------------------------------------------------------
Name                           Type      Size  Value                                                       
-----------------------------------------------------------------------------------------------------------
req                            axi_xtn   -     @1374                                                       
  begin_time                   time      64    385                                                         
  depth                        int       32    'd2                                                         
  parent sequence (name)       string    5     m_seq                                                       
  parent sequence (full name)  string    60    uvm_test_top.env_h.mst_agt_top.mst_agt_h[0].mst_seqr_h.m_seq
  sequencer                    string    54    uvm_test_top.env_h.mst_agt_top.mst_agt_h[0].mst_seqr_h      
  AWID                         integral  4     'd4                                                         
  AWADDR                       integral  32    'h4ebe7530                                                  
  AWLEN                        integral  4     10                                                          
  AWSIZE                       integral  3     'd2                                                         
  AWBURST                      integral  2     'd0                                                         
  WID                          integral  4     'd4                                                         
  WDATA                        integral  32    'h3fa9a634                                                  
  WSTRB                        integral  4     'b1111                                                      
  WLAST                        integral  1     'dX                                                         
  WDATA                        integral  32    'hf651e0e0                                                  
  WSTRB                        integral  4     'b1111                                                      
  WLAST                        integral  1     'dX                                                         
  WDATA                        integral  32    'hca0ec98b                                                  
  WSTRB                        integral  4     'b1111                                                      
  WLAST                        integral  1     'dX                                                         
  WDATA                        integral  32    'hd231cd52                                                  
  WSTRB                        integral  4     'b1111                                                      
  WLAST                        integral  1     'dX                                                         
  WDATA                        integral  32    'hca31d0b                                                   
  WSTRB                        integral  4     'b1111                                                      
  WLAST                        integral  1     'dX                                                         
  WDATA                        integral  32    'h8d6e713e                                                  
  WSTRB                        integral  4     'b1111                                                      
  WLAST                        integral  1     'dX                                                         
  WDATA                        integral  32    'h521405e6                                                  
  WSTRB                        integral  4     'b1111                                                      
  WLAST                        integral  1     'dX                                                         
  WDATA                        integral  32    'hbe5dfa24                                                  
  WSTRB                        integral  4     'b1111                                                      
  WLAST                        integral  1     'dX                                                         
  WDATA                        integral  32    'h926aa136                                                  
  WSTRB                        integral  4     'b1111                                                      
  WLAST                        integral  1     'dX                                                         
  WDATA                        integral  32    'h26f309d9                                                  
  WSTRB                        integral  4     'b1111                                                      
  WLAST                        integral  1     'dX                                                         
  WDATA                        integral  32    'hbe4f13c5                                                  
  WSTRB                        integral  4     'b1111                                                      
  WLAST                        integral  1     'dX                                                         
  BID                          integral  4     'd4                                                         
  BRESP                        integral  2     'd0                                                         
  ARID                         integral  4     13                                                          
  ARADDR                       integral  32    'h152eddfc                                                  
  ARLEN                        integral  8     'd7                                                         
  ARSIZE                       integral  3     'd1                                                         
  ARBURST                      integral  2     'd0                                                         
  RID                          integral  4     13                                                          
  RDATA                        integral  32    'h61dd7179                                                  
  RRESP                        integral  2     'd0                                                         
  RDATA                        integral  32    'hfbcc2487                                                  
  RRESP                        integral  2     'd0                                                         
  RDATA                        integral  32    'h5117a2ce                                                  
  RRESP                        integral  2     'd0                                                         
  RDATA                        integral  32    'h28afd994                                                  
  RRESP                        integral  2     'd0                                                         
  RDATA                        integral  32    'hadacce64                                                  
  RRESP                        integral  2     'd0                                                         
  RDATA                        integral  32    'hacea866f                                                  
  RRESP                        integral  2     'd0                                                         
  RDATA                        integral  32    'h1832aca                                                   
  RRESP                        integral  2     'd0                                                         
  RDATA                        integral  32    'h24930e05                                                  
  RRESP                        integral  2     'd0                                                         
-----------------------------------------------------------------------------------------------------------
end of read_awaddr
start of read_awaddr
//////////////////////////////////////////////// write_addr////////////////
 wr_addr=4277403768 4277403770 4277403772 4277403774 4277403744 4277403746 4277403748 4277403750 4277403752 4277403754 4277403756 4277403758 4277403760 4277403762 4277403764 4277403766
//////////////////////////////////////////////// write_addr_AWADDR   ////////////////
 AWADDR=4277403768
//////////////////////////////////////////////// read_addr////////////////
 rd_addr=1100860592 1100860592 1100860592 1100860592 1100860592 1100860592 1100860592 1100860592 1100860592 1100860592 1100860592 1100860592 1100860592 1100860592
//////////////////////////////////////////////// write_addr_ARADDR  ////////////////
 ARADDR=1100860592
start of drive_awaddr
slave driver start of awvalid
WSTRB in slave driver is:1
value inside mem is: 000000c1
UVM_INFO ../master_agent_top/master_monitor.sv(159) @ 445: uvm_test_top.env_h.mst_agt_top.mst_agt_h[0].mst_mon_h [MST_MONITOR] printing from master monitor collect_wdata 
 -------------------------------------
Name       Type      Size  Value     
-------------------------------------
xtn        axi_xtn   -     @1099     
  AWID     integral  4     'd7       
  AWADDR   integral  32    'hb4876971
  AWLEN    integral  4     'd7       
  AWSIZE   integral  3     'd0       
  AWBURST  integral  2     2         
  WID      integral  4     'd7       
  WDATA    integral  32    'h0       
  WSTRB    integral  4     'b0       
  WLAST    integral  1     1         
  WDATA    integral  32    'h26      
  WSTRB    integral  4     'b100     
  WLAST    integral  1     1         
  WDATA    integral  32    'hbc      
  WSTRB    integral  4     'b1000    
  WLAST    integral  1     1         
  WDATA    integral  32    'hfb      
  WSTRB    integral  4     'b1       
  WLAST    integral  1     1         
  WDATA    integral  32    'h30      
  WSTRB    integral  4     'b10      
  WLAST    integral  1     1         
  WDATA    integral  32    'h37      
  WSTRB    integral  4     'b100     
  WLAST    integral  1     1         
  WDATA    integral  32    'h2d      
  WSTRB    integral  4     'b1000    
  WLAST    integral  1     1         
  WDATA    integral  32    'hc1      
  WSTRB    integral  4     'b1       
  WLAST    integral  1     1         
  BID      integral  4     'd0       
  BRESP    integral  2     'd0       
  ARID     integral  4     'd0       
  ARADDR   integral  32    'h0       
  ARLEN    integral  8     'd0       
  ARSIZE   integral  3     'd0       
  ARBURST  integral  2     'd0       
  RID      integral  4     'd0       
-------------------------------------

UVM_INFO ../master_agent_top/master_monitor.sv(254) @ 445: uvm_test_top.env_h.mst_agt_top.mst_agt_h[0].mst_mon_h [MST_MONITOR] printing from master monitor monitor_rdata 
 -------------------------------------
Name       Type      Size  Value     
-------------------------------------
xtn3       axi_xtn   -     @1278     
  AWID     integral  4     'd0       
  AWADDR   integral  32    'h0       
  AWLEN    integral  4     'd0       
  AWSIZE   integral  3     'd0       
  AWBURST  integral  2     'd0       
  WID      integral  4     'd0       
  BID      integral  4     'd0       
  BRESP    integral  2     'd0       
  ARID     integral  4     9         
  ARADDR   integral  32    'h48b41b8c
  ARLEN    integral  8     'd1       
  ARSIZE   integral  3     'd1       
  ARBURST  integral  2     'd1       
  RID      integral  4     9         
  RDATA    integral  32    'he750    
  RRESP    integral  2     'd0       
  RDATA    integral  32    'hcd15    
  RRESP    integral  2     'd0       
-------------------------------------

memory is '{b4876972:00000026, b4876973:000000bc, b4876974:000000fb, b4876975:00000030, b4876976:00000037, b4876977:0000002d, b4876978:000000c1 }
end of read_data
end of slave_rdata
UVM_INFO ../slave_agent_top/slave_monitor.sv(157) @ 445: uvm_test_top.env_h.slv_agt_top.slv_agt_h[0].slv_mon_h [slv_monitor] printing from slave monitor collect_wdata 
 -------------------------------------
Name       Type      Size  Value     
-------------------------------------
xtn        axi_xtn   -     @1081     
  AWID     integral  4     'd7       
  AWADDR   integral  32    'hb4876971
  AWLEN    integral  4     'd7       
  AWSIZE   integral  3     'd0       
  AWBURST  integral  2     2         
  WID      integral  4     'd7       
  WDATA    integral  32    'h0       
  WSTRB    integral  4     'b0       
  WLAST    integral  1     1         
  WDATA    integral  32    'h26      
  WSTRB    integral  4     'b100     
  WLAST    integral  1     1         
  WDATA    integral  32    'hbc      
  WSTRB    integral  4     'b1000    
  WLAST    integral  1     1         
  WDATA    integral  32    'hfb      
  WSTRB    integral  4     'b1       
  WLAST    integral  1     1         
  WDATA    integral  32    'h30      
  WSTRB    integral  4     'b10      
  WLAST    integral  1     1         
  WDATA    integral  32    'h37      
  WSTRB    integral  4     'b100     
  WLAST    integral  1     1         
  WDATA    integral  32    'h2d      
  WSTRB    integral  4     'b1000    
  WLAST    integral  1     1         
  WDATA    integral  32    'hc1      
  WSTRB    integral  4     'b1       
  WLAST    integral  1     1         
  BID      integral  4     'd0       
  BRESP    integral  2     'd0       
  ARID     integral  4     'd0       
  ARADDR   integral  32    'h0       
  ARLEN    integral  8     'd0       
  ARSIZE   integral  3     'd0       
  ARBURST  integral  2     'd0       
  RID      integral  4     'd0       
-------------------------------------

UVM_INFO ../slave_agent_top/slave_monitor.sv(249) @ 445: uvm_test_top.env_h.slv_agt_top.slv_agt_h[0].slv_mon_h [slv_monitor] printing from slave monitor monitor_rdata 
 -------------------------------------
Name       Type      Size  Value     
-------------------------------------
xtn3       axi_xtn   -     @1282     
  AWID     integral  4     'd0       
  AWADDR   integral  32    'h0       
  AWLEN    integral  4     'd0       
  AWSIZE   integral  3     'd0       
  AWBURST  integral  2     'd0       
  WID      integral  4     'd0       
  BID      integral  4     'd0       
  BRESP    integral  2     'd0       
  ARID     integral  4     9         
  ARADDR   integral  32    'h48b41b8c
  ARLEN    integral  8     'd1       
  ARSIZE   integral  3     'd1       
  ARBURST  integral  2     'd1       
  RID      integral  4     9         
  RDATA    integral  32    'he750    
  RRESP    integral  2     'd0       
  RDATA    integral  32    'hcd15    
  RRESP    integral  2     'd0       
-------------------------------------

start of read_data
aligned:3fd9a074
addresses calculated in slave side are '{3fd9a074, 3fd9a074, 3fd9a074, 3fd9a074, 3fd9a074, 3fd9a074, 3fd9a074, 3fd9a074, 3fd9a074, 3fd9a074, 3fd9a074, 3fd9a074, 3fd9a074, 3fd9a074, 3fd9a074, 3fd9a074}
start of drive_wresp
BID sent is  7
start of slave_rdata
end of drive_wdata
inside drive_raddr before wait ARREADY
start of drive_wdata
start of drive_bresp
UVM_INFO ../master_agent_top/master_monitor.sv(170) @ 465: uvm_test_top.env_h.mst_agt_top.mst_agt_h[0].mst_mon_h [MST_MONITOR] printing from master monitor collect_bresp 
 --------------------------------
Name       Type      Size  Value
--------------------------------
xtn2       axi_xtn   -     @1410
  AWID     integral  4     'd0  
  AWADDR   integral  32    'h0  
  AWLEN    integral  4     'd0  
  AWSIZE   integral  3     'd0  
  AWBURST  integral  2     'd0  
  WID      integral  4     'd0  
  BID      integral  4     'd0  
  BRESP    integral  2     'd0  
  ARID     integral  4     'd0  
  ARADDR   integral  32    'h0  
  ARLEN    integral  8     'd0  
  ARSIZE   integral  3     'd0  
  ARBURST  integral  2     'd0  
  RID      integral  4     'd0  
--------------------------------

UVM_INFO ../slave_agent_top/slave_monitor.sv(167) @ 465: uvm_test_top.env_h.slv_agt_top.slv_agt_h[0].slv_mon_h [slv_monitor] printing from slave monitor collect_bresp 
 --------------------------------
Name       Type      Size  Value
--------------------------------
xtn2       axi_xtn   -     @1422
  AWID     integral  4     'd0  
  AWADDR   integral  32    'h0  
  AWLEN    integral  4     'd0  
  AWSIZE   integral  3     'd0  
  AWBURST  integral  2     'd0  
  WID      integral  4     'd0  
  BID      integral  4     'd0  
  BRESP    integral  2     'd0  
  ARID     integral  4     'd0  
  ARADDR   integral  32    'h0  
  ARLEN    integral  8     'd0  
  ARSIZE   integral  3     'd0  
  ARBURST  integral  2     'd0  
  RID      integral  4     'd0  
--------------------------------

slave driver start of awvalid
WSTRB in slave driver is:3
value inside mem is: 0000a3e6
UVM_INFO ../master_agent_top/master_monitor.sv(188) @ 465: uvm_test_top.env_h.mst_agt_top.mst_agt_h[0].mst_mon_h [MST_MONITOR] printing from master monitor collect_raddr 
 -------------------------------------
Name       Type      Size  Value     
-------------------------------------
xtn3       axi_xtn   -     @1378     
  AWID     integral  4     'd0       
  AWADDR   integral  32    'h0       
  AWLEN    integral  4     'd0       
  AWSIZE   integral  3     'd0       
  AWBURST  integral  2     'd0       
  WID      integral  4     'd0       
  BID      integral  4     'd0       
  BRESP    integral  2     'd0       
  ARID     integral  4     13        
  ARADDR   integral  32    'h152eddfc
  ARLEN    integral  8     'd7       
  ARSIZE   integral  3     'd1       
  ARBURST  integral  2     'd0       
  RID      integral  4     'd0       
-------------------------------------

UVM_INFO ../slave_agent_top/slave_monitor.sv(184) @ 465: uvm_test_top.env_h.slv_agt_top.slv_agt_h[0].slv_mon_h [slv_monitor] printing from slave monitor collect_raddr 
 -------------------------------------
Name       Type      Size  Value     
-------------------------------------
xtn3       axi_xtn   -     @1382     
  AWID     integral  4     'd0       
  AWADDR   integral  32    'h0       
  AWLEN    integral  4     'd0       
  AWSIZE   integral  3     'd0       
  AWBURST  integral  2     'd0       
  WID      integral  4     'd0       
  BID      integral  4     'd0       
  BRESP    integral  2     'd0       
  ARID     integral  4     13        
  ARADDR   integral  32    'h152eddfc
  ARLEN    integral  8     'd7       
  ARSIZE   integral  3     'd1       
  ARBURST  integral  2     'd0       
  RID      integral  4     'd0       
-------------------------------------

end of drive_raddr
start of drive_raddr
UVM_INFO ../master_agent_top/master_monitor.sv(111) @ 485: uvm_test_top.env_h.mst_agt_top.mst_agt_h[0].mst_mon_h [MST_MONITOR] printing from master monitor collect_awaddr 
 -------------------------------------
Name       Type      Size  Value     
-------------------------------------
xtn        axi_xtn   -     @1390     
  AWID     integral  4     8         
  AWADDR   integral  32    'hfef40078
  AWLEN    integral  4     15        
  AWSIZE   integral  3     'd1       
  AWBURST  integral  2     2         
  WID      integral  4     'd0       
  BID      integral  4     'd0       
  BRESP    integral  2     'd0       
  ARID     integral  4     'd0       
  ARADDR   integral  32    'h0       
  ARLEN    integral  8     'd0       
  ARSIZE   integral  3     'd0       
  ARBURST  integral  2     'd0       
  RID      integral  4     'd0       
-------------------------------------

UVM_INFO ../slave_agent_top/slave_monitor.sv(110) @ 485: uvm_test_top.env_h.slv_agt_top.slv_agt_h[0].slv_mon_h [slv_monitor] printing from slave monitor collect_awaddr 
 -------------------------------------
Name       Type      Size  Value     
-------------------------------------
xtn        axi_xtn   -     @1398     
  AWID     integral  4     8         
  AWADDR   integral  32    'hfef40078
  AWLEN    integral  4     15        
  AWSIZE   integral  3     'd1       
  AWBURST  integral  2     2         
  WID      integral  4     'd0       
  BID      integral  4     'd0       
  BRESP    integral  2     'd0       
  ARID     integral  4     'd0       
  ARADDR   integral  32    'h0       
  ARLEN    integral  8     'd0       
  ARSIZE   integral  3     'd0       
  ARBURST  integral  2     'd0       
  RID      integral  4     'd0       
-------------------------------------

master received address:'{48b41b8c, 48b41b8e}
memory received in master driver is '{48b41b8c:0000e750, 48b41b8e:0000cd15 }
end of drive_rdata
start of drive_rdata
end of drive_awaddr
-----------------------------------------------------------------------------------------------------------
Name                           Type      Size  Value                                                       
-----------------------------------------------------------------------------------------------------------
req                            axi_xtn   -     @1402                                                       
  begin_time                   time      64    425                                                         
  depth                        int       32    'd2                                                         
  parent sequence (name)       string    5     m_seq                                                       
  parent sequence (full name)  string    60    uvm_test_top.env_h.mst_agt_top.mst_agt_h[0].mst_seqr_h.m_seq
  sequencer                    string    54    uvm_test_top.env_h.mst_agt_top.mst_agt_h[0].mst_seqr_h      
  AWID                         integral  4     8                                                           
  AWADDR                       integral  32    'hfef40078                                                  
  AWLEN                        integral  4     15                                                          
