vsim -cvgperinstance -vopt -voptargs="+acc" -coverage -sva -c -do " log -r /* ;coverage save -onexit mem_cov3;run -all; exit" -wlf wave_file3.wlf -l test3.log -sv_seed random work.top "+UVM_TESTNAME=test2" 
Start time: 10:50:01 on Apr 18,2025
** Note: (vsim-3813) Design is being optimized due to module recompilation...
** Warning: ../master_agent/master_seqs.sv(30): (vopt-2239) Treating stand-alone use of presumed external function as an implicit VOID cast.
** Warning: ../master_agent/master_seqs.sv(73): (vopt-2239) Treating stand-alone use of presumed external function as an implicit VOID cast.
** Warning: ../master_agent/master_seqs.sv(85): (vopt-2239) Treating stand-alone use of presumed external function as an implicit VOID cast.
** Warning: ../master_agent/master_seqs.sv(124): (vopt-2239) Treating stand-alone use of presumed external function as an implicit VOID cast.
** Warning: ../master_agent/master_seqs.sv(132): (vopt-2239) Treating stand-alone use of presumed external function as an implicit VOID cast.
** Warning: ../master_agent/master_seqs.sv(149): (vopt-2239) Treating stand-alone use of presumed external function as an implicit VOID cast.
** Warning: ../master_agent/master_seqs.sv(158): (vopt-2239) Treating stand-alone use of presumed external function as an implicit VOID cast.
** Warning: ../master_agent/master_seqs.sv(167): (vopt-2239) Treating stand-alone use of presumed external function as an implicit VOID cast.
** Warning: ../master_agent/master_seqs.sv(185): (vopt-2239) Treating stand-alone use of presumed external function as an implicit VOID cast.
** Warning: ../master_agent/master_seqs.sv(193): (vopt-2239) Treating stand-alone use of presumed external function as an implicit VOID cast.
** Warning: ../master_agent/master_seqs.sv(201): (vopt-2239) Treating stand-alone use of presumed external function as an implicit VOID cast.
** Warning: ../master_agent/master_seqs.sv(218): (vopt-2239) Treating stand-alone use of presumed external function as an implicit VOID cast.
** Warning: ../master_agent/master_seqs.sv(226): (vopt-2239) Treating stand-alone use of presumed external function as an implicit VOID cast.
** Warning: ../master_agent/master_seqs.sv(234): (vopt-2239) Treating stand-alone use of presumed external function as an implicit VOID cast.
//  Questa Sim-64
//  Version 2019.2 linux_x86_64 Apr 16 2019
//
//  Copyright 1991-2019 Mentor Graphics Corporation
//  All Rights Reserved.
//
//  QuestaSim and its associated documentation contain trade
//  secrets and commercial or financial information that are the property of
//  Mentor Graphics Corporation and are privileged, confidential,
//  and exempt from disclosure under the Freedom of Information Act,
//  5 U.S.C. Section 552. Furthermore, this information
//  is prohibited from disclosure under the Trade Secrets Act,
//  18 U.S.C. Section 1905.
//
Loading sv_std.std
Loading work.av_if(fast)
Loading mtiUvm.uvm_pkg
Loading work.avip_pkg(fast)
Loading mtiUvm.questa_uvm_pkg(fast)
Loading work.top(fast)
Loading work.av_if(fast)
# Loading /home/cad/eda/Questa_2019/questasim/uvm-1.1d/linux_x86_64/uvm_dpi.so
** Warning: (vsim-8634) Code was not compiled with coverage options.
Sv_Seed = 1746727581
 log -r /* 
coverage save -onexit mem_cov3
run -all
----------------------------------------------------------------
UVM-1.1d
(C) 2007-2013 Mentor Graphics Corporation
(C) 2007-2013 Cadence Design Systems, Inc.
(C) 2006-2013 Synopsys, Inc.
(C) 2011-2013 Cypress Semiconductor Corp.
----------------------------------------------------------------

  ***********       IMPORTANT RELEASE NOTES         ************

  You are using a version of the UVM library that has been compiled
  with `UVM_NO_DEPRECATED undefined.
  See http://www.eda.org/svdb/view.php?id=3313 for more details.

  You are using a version of the UVM library that has been compiled
  with `UVM_OBJECT_MUST_HAVE_CONSTRUCTOR undefined.
  See http://www.eda.org/svdb/view.php?id=3770 for more details.

      (Specify +UVM_NO_RELNOTES to turn off this notice)

UVM_INFO verilog_src/questa_uvm_pkg-1.2/src/questa_uvm_pkg.sv(277) @ 0: reporter [Questa UVM] QUESTA_UVM-1.2.3
UVM_INFO verilog_src/questa_uvm_pkg-1.2/src/questa_uvm_pkg.sv(278) @ 0: reporter [Questa UVM]  questa_uvm::init(+struct)
UVM_INFO @ 0: reporter [RNTST] Running test test2...
UVM_INFO @ 0: reporter [UVMTOP] UVM testbench topology:
------------------------------------------------------------------
Name                       Type                        Size  Value
------------------------------------------------------------------
uvm_test_top               test2                       -     @474 
  env_h                    env                         -     @490 
    m_agt[0]               m_agent                     -     @506 
      m_drv                m_driver                    -     @657 
        rsp_port           uvm_analysis_port           -     @672 
        seq_item_port      uvm_seq_item_pull_port      -     @664 
      m_mon                m_monitor                   -     @533 
        monitor_port       uvm_analysis_port           -     @540 
      m_seqr               ma_sequencer                -     @548 
        rsp_export         uvm_analysis_export         -     @555 
        seq_item_export    uvm_seq_item_pull_imp       -     @649 
        arbitration_queue  array                       0     -    
        lock_queue         array                       0     -    
        num_last_reqs      integral                    32    'd1  
        num_last_rsps      integral                    32    'd1  
    s_agt[0]               s_agent                     -     @517 
      s_drv                s_driver                    -     @817 
        rsp_port           uvm_analysis_port           -     @832 
        seq_item_port      uvm_seq_item_pull_port      -     @824 
      s_mon                s_monitor                   -     @693 
        monitor_port       uvm_analysis_port           -     @700 
      s_seqr               s_sequencer                 -     @708 
        rsp_export         uvm_analysis_export         -     @715 
        seq_item_export    uvm_seq_item_pull_imp       -     @809 
        arbitration_queue  array                       0     -    
        lock_queue         array                       0     -    
        num_last_reqs      integral                    32    'd1  
        num_last_rsps      integral                    32    'd1  
    sbh                    scoreboard                  -     @524 
      mst_fifo             uvm_tlm_analysis_fifo #(T)  -     @852 
        analysis_export    uvm_analysis_imp            -     @891 
        get_ap             uvm_analysis_port           -     @883 
        get_peek_export    uvm_get_peek_imp            -     @867 
        put_ap             uvm_analysis_port           -     @875 
        put_export         uvm_put_imp                 -     @859 
      slv_fifo             uvm_tlm_analysis_fifo #(T)  -     @899 
        analysis_export    uvm_analysis_imp            -     @938 
        get_ap             uvm_analysis_port           -     @930 
        get_peek_export    uvm_get_peek_imp            -     @914 
        put_ap             uvm_analysis_port           -     @922 
        put_export         uvm_put_imp                 -     @906 
------------------------------------------------------------------

aaaaaaaaaaaaaaaaaaaaaaaaaaaaaaaaaaa = 0
UVM_INFO ../master_agent/master_driver.sv(51) @ 75: uvm_test_top.env_h.m_agt[0].m_drv [MASTER DRV] THIS IS AHB DRIVER 
 ----------------------------------------
Name          Type      Size  Value     
----------------------------------------
req           trans     -     @955      
  HRESETn     integral  1     'd0       
  HBURST      integral  3     'd3       
  HRESP       integral  1     'd0       
  HADDR       integral  32    'hcb04e887
  HTRANS      integral  2     2         
  HWDATA      integral  32    'h3949c1e0
  HLEN        integral  8     'd4       
  HRDATA      integral  32    'd0       
  HSIZE       integral  3     'd0       
  HWRITE      integral  1     'd0       
  HREADY_OUT  integral  1     'd0       
----------------------------------------

UVM_INFO ../master_agent/master_driver.sv(51) @ 85: uvm_test_top.env_h.m_agt[0].m_drv [MASTER DRV] THIS IS AHB DRIVER 
 ----------------------------------------
Name          Type      Size  Value     
----------------------------------------
req           trans     -     @955      
  HRESETn     integral  1     'd0       
  HBURST      integral  3     'd3       
  HRESP       integral  1     'd0       
  HADDR       integral  32    'hcb04e888
  HTRANS      integral  2     3         
  HWDATA      integral  32    'hdba187bd
  HLEN        integral  8     'd4       
  HRDATA      integral  32    'd0       
  HSIZE       integral  3     'd0       
  HWRITE      integral  1     'd0       
  HREADY_OUT  integral  1     'd0       
----------------------------------------

** Warning: (vsim-3829) Non-existent associative array entry. Returning default value.
   Time: 85 ns  Iteration: 2  Process: /uvm_pkg::uvm_task_phase::execute/#FORK#137(#ublk#215181159#137)_7fefec416f2 File: ../master_agent/master_monitor.sv Line: 95
                  85master monitor read operation mem[3406096519]=0
UVM_INFO ../master_agent/master_monitor.sv(99) @ 85: uvm_test_top.env_h.m_agt[0].m_mon [master monitor] Printing from master monitor 
 ----------------------------------------
Name          Type      Size  Value     
----------------------------------------
txn           trans     -     @682      
  HRESETn     integral  1     'd0       
  HBURST      integral  3     'd3       
  HRESP       integral  1     'd0       
  HADDR       integral  32    'hcb04e887
  HTRANS      integral  2     2         
  HWDATA      integral  32    'h0       
  HLEN        integral  8     'd0       
  HRDATA      integral  32    'd0       
  HSIZE       integral  3     'd0       
  HWRITE      integral  1     'd0       
  HREADY_OUT  integral  1     'd0       
----------------------------------------

** Warning: (vsim-3829) Non-existent associative array entry. Returning default value.
   Time: 85 ns  Iteration: 2  Process: /uvm_pkg::uvm_task_phase::execute/#FORK#137(#ublk#215181159#137)_7fefec416f2 File: ../master_agent/master_monitor.sv Line: 103
master monitor read operation mem[3406096519]=00000000
** Warning: (vsim-3829) Non-existent associative array entry. Returning default value.
   Time: 85 ns  Iteration: 2  Process: /uvm_pkg::uvm_task_phase::execute/#FORK#137(#ublk#215181159#137)_7fefec1f7ed File: ../slave_agent/slave_monitor.sv Line: 91
                  85slave monitor read operation mem[3406096519]= 00000000
UVM_INFO ../slave_agent/slave_monitor.sv(92) @ 85: uvm_test_top.env_h.s_agt[0].s_mon [slave monitor] Printing from slave monitor 
 ----------------------------------------
Name          Type      Size  Value     
----------------------------------------
txn           trans     -     @949      
  HRESETn     integral  1     'd0       
  HBURST      integral  3     'd0       
  HRESP       integral  1     'd0       
  HADDR       integral  32    'hcb04e887
  HTRANS      integral  2     'd0       
  HWDATA      integral  32    'h0       
  HLEN        integral  8     'd0       
  HRDATA      integral  32    'd0       
  HSIZE       integral  3     'd0       
  HWRITE      integral  1     'd0       
  HREADY_OUT  integral  1     'd0       
----------------------------------------

UVM_INFO ../tb/scoreboard.sv(121) @ 85: uvm_test_top.env_h.sbh [SB] Address compared successfully
** Warning: (vsim-3829) Non-existent associative array entry. Returning default value.
   Time: 85 ns  Iteration: 3  Process: /avip_pkg::scoreboard::run_phase/#FORK#90_7fefec1f53a File: ../tb/scoreboard.sv Line: 138
** Warning: (vsim-3829) Non-existent associative array entry. Returning default value.
   Time: 85 ns  Iteration: 3  Process: /avip_pkg::scoreboard::run_phase/#FORK#90_7fefec1f53a File: ../tb/scoreboard.sv Line: 138
UVM_INFO ../tb/scoreboard.sv(140) @ 85: uvm_test_top.env_h.sbh [SB] read data matched successfully
UVM_INFO ../master_agent/master_driver.sv(51) @ 95: uvm_test_top.env_h.m_agt[0].m_drv [MASTER DRV] THIS IS AHB DRIVER 
 ----------------------------------------
Name          Type      Size  Value     
----------------------------------------
req           trans     -     @955      
  HRESETn     integral  1     'd0       
  HBURST      integral  3     'd3       
  HRESP       integral  1     'd0       
  HADDR       integral  32    'hcb04e889
  HTRANS      integral  2     3         
  HWDATA      integral  32    'ha3ca917 
  HLEN        integral  8     'd4       
  HRDATA      integral  32    'd0       
  HSIZE       integral  3     'd0       
  HWRITE      integral  1     'd0       
  HREADY_OUT  integral  1     'd0       
----------------------------------------

** Warning: (vsim-3829) Non-existent associative array entry. Returning default value.
   Time: 95 ns  Iteration: 2  Process: /uvm_pkg::uvm_task_phase::execute/#FORK#137(#ublk#215181159#137)_7fefec416f2 File: ../master_agent/master_monitor.sv Line: 95
                  95master monitor read operation mem[3406096520]=0
UVM_INFO ../master_agent/master_monitor.sv(99) @ 95: uvm_test_top.env_h.m_agt[0].m_mon [master monitor] Printing from master monitor 
 ----------------------------------------
Name          Type      Size  Value     
----------------------------------------
txn           trans     -     @682      
  HRESETn     integral  1     'd0       
  HBURST      integral  3     'd3       
  HRESP       integral  1     'd0       
  HADDR       integral  32    'hcb04e888
  HTRANS      integral  2     3         
  HWDATA      integral  32    'h0       
  HLEN        integral  8     'd0       
  HRDATA      integral  32    'd0       
  HSIZE       integral  3     'd0       
  HWRITE      integral  1     'd0       
  HREADY_OUT  integral  1     'd0       
----------------------------------------

** Warning: (vsim-3829) Non-existent associative array entry. Returning default value.
   Time: 95 ns  Iteration: 2  Process: /uvm_pkg::uvm_task_phase::execute/#FORK#137(#ublk#215181159#137)_7fefec416f2 File: ../master_agent/master_monitor.sv Line: 103
master monitor read operation mem[3406096520]=00000000
** Warning: (vsim-3829) Non-existent associative array entry. Returning default value.
   Time: 95 ns  Iteration: 2  Process: /uvm_pkg::uvm_task_phase::execute/#FORK#137(#ublk#215181159#137)_7fefec1f7ed File: ../slave_agent/slave_monitor.sv Line: 91
                  95slave monitor read operation mem[3406096520]= 00000000
UVM_INFO ../slave_agent/slave_monitor.sv(92) @ 95: uvm_test_top.env_h.s_agt[0].s_mon [slave monitor] Printing from slave monitor 
 ----------------------------------------
Name          Type      Size  Value     
----------------------------------------
txn           trans     -     @1008     
  HRESETn     integral  1     'd0       
  HBURST      integral  3     'd0       
  HRESP       integral  1     'd0       
  HADDR       integral  32    'hcb04e888
  HTRANS      integral  2     'd0       
  HWDATA      integral  32    'h0       
  HLEN        integral  8     'd0       
  HRDATA      integral  32    'd0       
  HSIZE       integral  3     'd0       
  HWRITE      integral  1     'd0       
  HREADY_OUT  integral  1     'd0       
----------------------------------------

UVM_INFO ../tb/scoreboard.sv(121) @ 95: uvm_test_top.env_h.sbh [SB] Address compared successfully
** Warning: (vsim-3829) Non-existent associative array entry. Returning default value.
   Time: 95 ns  Iteration: 3  Process: /avip_pkg::scoreboard::run_phase/#FORK#90_7fefec1f53a File: ../tb/scoreboard.sv Line: 138
** Warning: (vsim-3829) Non-existent associative array entry. Returning default value.
   Time: 95 ns  Iteration: 3  Process: /avip_pkg::scoreboard::run_phase/#FORK#90_7fefec1f53a File: ../tb/scoreboard.sv Line: 138
UVM_INFO ../tb/scoreboard.sv(140) @ 95: uvm_test_top.env_h.sbh [SB] read data matched successfully
UVM_INFO ../master_agent/master_driver.sv(51) @ 105: uvm_test_top.env_h.m_agt[0].m_drv [MASTER DRV] THIS IS AHB DRIVER 
 ----------------------------------------
Name          Type      Size  Value     
----------------------------------------
req           trans     -     @955      
  HRESETn     integral  1     'd0       
  HBURST      integral  3     'd3       
  HRESP       integral  1     'd0       
  HADDR       integral  32    'hcb04e88a
  HTRANS      integral  2     3         
  HWDATA      integral  32    'h2893cfab
  HLEN        integral  8     'd4       
  HRDATA      integral  32    'd0       
  HSIZE       integral  3     'd0       
  HWRITE      integral  1     'd0       
  HREADY_OUT  integral  1     'd0       
----------------------------------------

** Warning: (vsim-3829) Non-existent associative array entry. Returning default value.
   Time: 105 ns  Iteration: 2  Process: /uvm_pkg::uvm_task_phase::execute/#FORK#137(#ublk#215181159#137)_7fefec416f2 File: ../master_agent/master_monitor.sv Line: 95
                 105master monitor read operation mem[3406096521]=0
UVM_INFO ../master_agent/master_monitor.sv(99) @ 105: uvm_test_top.env_h.m_agt[0].m_mon [master monitor] Printing from master monitor 
 ----------------------------------------
Name          Type      Size  Value     
----------------------------------------
txn           trans     -     @682      
  HRESETn     integral  1     'd0       
  HBURST      integral  3     'd3       
  HRESP       integral  1     'd0       
  HADDR       integral  32    'hcb04e889
  HTRANS      integral  2     3         
  HWDATA      integral  32    'h0       
  HLEN        integral  8     'd0       
  HRDATA      integral  32    'd0       
  HSIZE       integral  3     'd0       
  HWRITE      integral  1     'd0       
  HREADY_OUT  integral  1     'd0       
----------------------------------------

** Warning: (vsim-3829) Non-existent associative array entry. Returning default value.
   Time: 105 ns  Iteration: 2  Process: /uvm_pkg::uvm_task_phase::execute/#FORK#137(#ublk#215181159#137)_7fefec416f2 File: ../master_agent/master_monitor.sv Line: 103
master monitor read operation mem[3406096521]=00000000
** Warning: (vsim-3829) Non-existent associative array entry. Returning default value.
   Time: 105 ns  Iteration: 2  Process: /uvm_pkg::uvm_task_phase::execute/#FORK#137(#ublk#215181159#137)_7fefec1f7ed File: ../slave_agent/slave_monitor.sv Line: 91
                 105slave monitor read operation mem[3406096521]= 00000000
UVM_INFO ../slave_agent/slave_monitor.sv(92) @ 105: uvm_test_top.env_h.s_agt[0].s_mon [slave monitor] Printing from slave monitor 
 ----------------------------------------
Name          Type      Size  Value     
----------------------------------------
txn           trans     -     @1012     
  HRESETn     integral  1     'd0       
  HBURST      integral  3     'd0       
  HRESP       integral  1     'd0       
  HADDR       integral  32    'hcb04e889
  HTRANS      integral  2     'd0       
  HWDATA      integral  32    'h0       
  HLEN        integral  8     'd0       
  HRDATA      integral  32    'd0       
  HSIZE       integral  3     'd0       
  HWRITE      integral  1     'd0       
  HREADY_OUT  integral  1     'd0       
----------------------------------------

UVM_INFO ../tb/scoreboard.sv(121) @ 105: uvm_test_top.env_h.sbh [SB] Address compared successfully
** Warning: (vsim-3829) Non-existent associative array entry. Returning default value.
   Time: 105 ns  Iteration: 3  Process: /avip_pkg::scoreboard::run_phase/#FORK#90_7fefec1f53a File: ../tb/scoreboard.sv Line: 138
** Warning: (vsim-3829) Non-existent associative array entry. Returning default value.
   Time: 105 ns  Iteration: 3  Process: /avip_pkg::scoreboard::run_phase/#FORK#90_7fefec1f53a File: ../tb/scoreboard.sv Line: 138
UVM_INFO ../tb/scoreboard.sv(140) @ 105: uvm_test_top.env_h.sbh [SB] read data matched successfully
UVM_INFO ../master_agent/master_driver.sv(51) @ 115: uvm_test_top.env_h.m_agt[0].m_drv [MASTER DRV] THIS IS AHB DRIVER 
 ----------------------------------------
Name          Type      Size  Value     
----------------------------------------
req           trans     -     @1020     
  HRESETn     integral  1     'd0       
  HBURST      integral  3     5         
  HRESP       integral  1     'd0       
  HADDR       integral  32    'hddd90970
  HTRANS      integral  2     2         
  HWDATA      integral  32    'h935b883d
  HLEN        integral  8     'd8       
  HRDATA      integral  32    'd0       
  HSIZE       integral  3     'd0       
  HWRITE      integral  1     'd0       
  HREADY_OUT  integral  1     'd0       
----------------------------------------

** Warning: (vsim-3829) Non-existent associative array entry. Returning default value.
   Time: 115 ns  Iteration: 2  Process: /uvm_pkg::uvm_task_phase::execute/#FORK#137(#ublk#215181159#137)_7fefec416f2 File: ../master_agent/master_monitor.sv Line: 95
                 115master monitor read operation mem[3406096522]=0
UVM_INFO ../master_agent/master_monitor.sv(99) @ 115: uvm_test_top.env_h.m_agt[0].m_mon [master monitor] Printing from master monitor 
 ----------------------------------------
Name          Type      Size  Value     
----------------------------------------
txn           trans     -     @682      
  HRESETn     integral  1     'd0       
  HBURST      integral  3     'd3       
  HRESP       integral  1     'd0       
  HADDR       integral  32    'hcb04e88a
  HTRANS      integral  2     3         
  HWDATA      integral  32    'h0       
  HLEN        integral  8     'd0       
  HRDATA      integral  32    'd0       
  HSIZE       integral  3     'd0       
  HWRITE      integral  1     'd0       
  HREADY_OUT  integral  1     'd0       
----------------------------------------

** Warning: (vsim-3829) Non-existent associative array entry. Returning default value.
   Time: 115 ns  Iteration: 2  Process: /uvm_pkg::uvm_task_phase::execute/#FORK#137(#ublk#215181159#137)_7fefec416f2 File: ../master_agent/master_monitor.sv Line: 103
master monitor read operation mem[3406096522]=00000000
** Warning: (vsim-3829) Non-existent associative array entry. Returning default value.
   Time: 115 ns  Iteration: 2  Process: /uvm_pkg::uvm_task_phase::execute/#FORK#137(#ublk#215181159#137)_7fefec1f7ed File: ../slave_agent/slave_monitor.sv Line: 91
                 115slave monitor read operation mem[3406096522]= 00000000
UVM_INFO ../slave_agent/slave_monitor.sv(92) @ 115: uvm_test_top.env_h.s_agt[0].s_mon [slave monitor] Printing from slave monitor 
 ----------------------------------------
Name          Type      Size  Value     
----------------------------------------
txn           trans     -     @1016     
  HRESETn     integral  1     'd0       
  HBURST      integral  3     'd0       
  HRESP       integral  1     'd0       
  HADDR       integral  32    'hcb04e88a
  HTRANS      integral  2     'd0       
  HWDATA      integral  32    'h0       
  HLEN        integral  8     'd0       
  HRDATA      integral  32    'd0       
  HSIZE       integral  3     'd0       
  HWRITE      integral  1     'd0       
  HREADY_OUT  integral  1     'd0       
----------------------------------------

UVM_INFO ../tb/scoreboard.sv(121) @ 115: uvm_test_top.env_h.sbh [SB] Address compared successfully
** Warning: (vsim-3829) Non-existent associative array entry. Returning default value.
   Time: 115 ns  Iteration: 3  Process: /avip_pkg::scoreboard::run_phase/#FORK#90_7fefec1f53a File: ../tb/scoreboard.sv Line: 138
** Warning: (vsim-3829) Non-existent associative array entry. Returning default value.
   Time: 115 ns  Iteration: 3  Process: /avip_pkg::scoreboard::run_phase/#FORK#90_7fefec1f53a File: ../tb/scoreboard.sv Line: 138
UVM_INFO ../tb/scoreboard.sv(140) @ 115: uvm_test_top.env_h.sbh [SB] read data matched successfully
UVM_INFO ../master_agent/master_driver.sv(51) @ 125: uvm_test_top.env_h.m_agt[0].m_drv [MASTER DRV] THIS IS AHB DRIVER 
 ----------------------------------------
Name          Type      Size  Value     
----------------------------------------
req           trans     -     @1020     
  HRESETn     integral  1     'd0       
  HBURST      integral  3     5         
  HRESP       integral  1     'd0       
  HADDR       integral  32    'hddd90971
  HTRANS      integral  2     3         
  HWDATA      integral  32    'hd6329b11
  HLEN        integral  8     'd8       
  HRDATA      integral  32    'd0       
  HSIZE       integral  3     'd0       
  HWRITE      integral  1     'd0       
  HREADY_OUT  integral  1     'd0       
----------------------------------------

** Warning: (vsim-3829) Non-existent associative array entry. Returning default value.
   Time: 125 ns  Iteration: 2  Process: /uvm_pkg::uvm_task_phase::execute/#FORK#137(#ublk#215181159#137)_7fefec416f2 File: ../master_agent/master_monitor.sv Line: 95
                 125master monitor read operation mem[3721988464]=0
UVM_INFO ../master_agent/master_monitor.sv(99) @ 125: uvm_test_top.env_h.m_agt[0].m_mon [master monitor] Printing from master monitor 
 ----------------------------------------
Name          Type      Size  Value     
----------------------------------------
txn           trans     -     @682      
  HRESETn     integral  1     'd0       
  HBURST      integral  3     5         
  HRESP       integral  1     'd0       
  HADDR       integral  32    'hddd90970
  HTRANS      integral  2     2         
  HWDATA      integral  32    'h0       
  HLEN        integral  8     'd0       
  HRDATA      integral  32    'd0       
  HSIZE       integral  3     'd0       
  HWRITE      integral  1     'd0       
  HREADY_OUT  integral  1     'd0       
----------------------------------------

** Warning: (vsim-3829) Non-existent associative array entry. Returning default value.
   Time: 125 ns  Iteration: 2  Process: /uvm_pkg::uvm_task_phase::execute/#FORK#137(#ublk#215181159#137)_7fefec416f2 File: ../master_agent/master_monitor.sv Line: 103
master monitor read operation mem[3721988464]=00000000
** Warning: (vsim-3829) Non-existent associative array entry. Returning default value.
   Time: 125 ns  Iteration: 2  Process: /uvm_pkg::uvm_task_phase::execute/#FORK#137(#ublk#215181159#137)_7fefec1f7ed File: ../slave_agent/slave_monitor.sv Line: 91
                 125slave monitor read operation mem[3721988464]= 00000000
UVM_INFO ../slave_agent/slave_monitor.sv(92) @ 125: uvm_test_top.env_h.s_agt[0].s_mon [slave monitor] Printing from slave monitor 
 ----------------------------------------
Name          Type      Size  Value     
----------------------------------------
txn           trans     -     @1024     
  HRESETn     integral  1     'd0       
  HBURST      integral  3     'd0       
  HRESP       integral  1     'd0       
  HADDR       integral  32    'hddd90970
  HTRANS      integral  2     'd0       
  HWDATA      integral  32    'h0       
  HLEN        integral  8     'd0       
  HRDATA      integral  32    'd0       
  HSIZE       integral  3     'd0       
  HWRITE      integral  1     'd0       
  HREADY_OUT  integral  1     'd0       
----------------------------------------

UVM_INFO ../tb/scoreboard.sv(121) @ 125: uvm_test_top.env_h.sbh [SB] Address compared successfully
** Warning: (vsim-3829) Non-existent associative array entry. Returning default value.
   Time: 125 ns  Iteration: 3  Process: /avip_pkg::scoreboard::run_phase/#FORK#90_7fefec1f53a File: ../tb/scoreboard.sv Line: 138
** Warning: (vsim-3829) Non-existent associative array entry. Returning default value.
   Time: 125 ns  Iteration: 3  Process: /avip_pkg::scoreboard::run_phase/#FORK#90_7fefec1f53a File: ../tb/scoreboard.sv Line: 138
UVM_INFO ../tb/scoreboard.sv(140) @ 125: uvm_test_top.env_h.sbh [SB] read data matched successfully
UVM_INFO ../master_agent/master_driver.sv(51) @ 135: uvm_test_top.env_h.m_agt[0].m_drv [MASTER DRV] THIS IS AHB DRIVER 
 ----------------------------------------
Name          Type      Size  Value     
----------------------------------------
req           trans     -     @1020     
  HRESETn     integral  1     'd0       
  HBURST      integral  3     5         
  HRESP       integral  1     'd0       
  HADDR       integral  32    'hddd90972
  HTRANS      integral  2     3         
  HWDATA      integral  32    'hb7c19133
  HLEN        integral  8     'd8       
  HRDATA      integral  32    'd0       
  HSIZE       integral  3     'd0       
  HWRITE      integral  1     'd0       
  HREADY_OUT  integral  1     'd0       
----------------------------------------

** Warning: (vsim-3829) Non-existent associative array entry. Returning default value.
   Time: 135 ns  Iteration: 2  Process: /uvm_pkg::uvm_task_phase::execute/#FORK#137(#ublk#215181159#137)_7fefec416f2 File: ../master_agent/master_monitor.sv Line: 95
                 135master monitor read operation mem[3721988465]=0
UVM_INFO ../master_agent/master_monitor.sv(99) @ 135: uvm_test_top.env_h.m_agt[0].m_mon [master monitor] Printing from master monitor 
 ----------------------------------------
Name          Type      Size  Value     
----------------------------------------
txn           trans     -     @682      
  HRESETn     integral  1     'd0       
  HBURST      integral  3     5         
  HRESP       integral  1     'd0       
  HADDR       integral  32    'hddd90971
  HTRANS      integral  2     3         
  HWDATA      integral  32    'h0       
  HLEN        integral  8     'd0       
  HRDATA      integral  32    'd0       
  HSIZE       integral  3     'd0       
  HWRITE      integral  1     'd0       
  HREADY_OUT  integral  1     'd0       
----------------------------------------

** Warning: (vsim-3829) Non-existent associative array entry. Returning default value.
   Time: 135 ns  Iteration: 2  Process: /uvm_pkg::uvm_task_phase::execute/#FORK#137(#ublk#215181159#137)_7fefec416f2 File: ../master_agent/master_monitor.sv Line: 103
master monitor read operation mem[3721988465]=00000000
** Warning: (vsim-3829) Non-existent associative array entry. Returning default value.
   Time: 135 ns  Iteration: 2  Process: /uvm_pkg::uvm_task_phase::execute/#FORK#137(#ublk#215181159#137)_7fefec1f7ed File: ../slave_agent/slave_monitor.sv Line: 91
                 135slave monitor read operation mem[3721988465]= 00000000
UVM_INFO ../slave_agent/slave_monitor.sv(92) @ 135: uvm_test_top.env_h.s_agt[0].s_mon [slave monitor] Printing from slave monitor 
 ----------------------------------------
Name          Type      Size  Value     
----------------------------------------
txn           trans     -     @1028     
  HRESETn     integral  1     'd0       
  HBURST      integral  3     'd0       
  HRESP       integral  1     'd0       
  HADDR       integral  32    'hddd90971
  HTRANS      integral  2     'd0       
  HWDATA      integral  32    'h0       
  HLEN        integral  8     'd0       
  HRDATA      integral  32    'd0       
  HSIZE       integral  3     'd0       
  HWRITE      integral  1     'd0       
  HREADY_OUT  integral  1     'd0       
----------------------------------------

UVM_INFO ../tb/scoreboard.sv(121) @ 135: uvm_test_top.env_h.sbh [SB] Address compared successfully
** Warning: (vsim-3829) Non-existent associative array entry. Returning default value.
   Time: 135 ns  Iteration: 3  Process: /avip_pkg::scoreboard::run_phase/#FORK#90_7fefec1f53a File: ../tb/scoreboard.sv Line: 138
** Warning: (vsim-3829) Non-existent associative array entry. Returning default value.
   Time: 135 ns  Iteration: 3  Process: /avip_pkg::scoreboard::run_phase/#FORK#90_7fefec1f53a File: ../tb/scoreboard.sv Line: 138
UVM_INFO ../tb/scoreboard.sv(140) @ 135: uvm_test_top.env_h.sbh [SB] read data matched successfully
UVM_INFO ../master_agent/master_driver.sv(51) @ 145: uvm_test_top.env_h.m_agt[0].m_drv [MASTER DRV] THIS IS AHB DRIVER 
 ----------------------------------------
Name          Type      Size  Value     
----------------------------------------
req           trans     -     @1020     
  HRESETn     integral  1     'd0       
  HBURST      integral  3     5         
  HRESP       integral  1     'd0       
  HADDR       integral  32    'hddd90973
  HTRANS      integral  2     3         
  HWDATA      integral  32    'h4c3ecdb8
  HLEN        integral  8     'd8       
  HRDATA      integral  32    'd0       
  HSIZE       integral  3     'd0       
  HWRITE      integral  1     'd0       
  HREADY_OUT  integral  1     'd0       
----------------------------------------

** Warning: (vsim-3829) Non-existent associative array entry. Returning default value.
   Time: 145 ns  Iteration: 2  Process: /uvm_pkg::uvm_task_phase::execute/#FORK#137(#ublk#215181159#137)_7fefec416f2 File: ../master_agent/master_monitor.sv Line: 95
                 145master monitor read operation mem[3721988466]=0
UVM_INFO ../master_agent/master_monitor.sv(99) @ 145: uvm_test_top.env_h.m_agt[0].m_mon [master monitor] Printing from master monitor 
 ----------------------------------------
Name          Type      Size  Value     
----------------------------------------
txn           trans     -     @682      
  HRESETn     integral  1     'd0       
  HBURST      integral  3     5         
  HRESP       integral  1     'd0       
  HADDR       integral  32    'hddd90972
  HTRANS      integral  2     3         
  HWDATA      integral  32    'h0       
  HLEN        integral  8     'd0       
  HRDATA      integral  32    'd0       
  HSIZE       integral  3     'd0       
  HWRITE      integral  1     'd0       
  HREADY_OUT  integral  1     'd0       
----------------------------------------

** Warning: (vsim-3829) Non-existent associative array entry. Returning default value.
   Time: 145 ns  Iteration: 2  Process: /uvm_pkg::uvm_task_phase::execute/#FORK#137(#ublk#215181159#137)_7fefec416f2 File: ../master_agent/master_monitor.sv Line: 103
master monitor read operation mem[3721988466]=00000000
** Warning: (vsim-3829) Non-existent associative array entry. Returning default value.
   Time: 145 ns  Iteration: 2  Process: /uvm_pkg::uvm_task_phase::execute/#FORK#137(#ublk#215181159#137)_7fefec1f7ed File: ../slave_agent/slave_monitor.sv Line: 91
                 145slave monitor read operation mem[3721988466]= 00000000
UVM_INFO ../slave_agent/slave_monitor.sv(92) @ 145: uvm_test_top.env_h.s_agt[0].s_mon [slave monitor] Printing from slave monitor 
 ----------------------------------------
Name          Type      Size  Value     
----------------------------------------
txn           trans     -     @1032     
  HRESETn     integral  1     'd0       
  HBURST      integral  3     'd0       
  HRESP       integral  1     'd0       
  HADDR       integral  32    'hddd90972
  HTRANS      integral  2     'd0       
  HWDATA      integral  32    'h0       
  HLEN        integral  8     'd0       
  HRDATA      integral  32    'd0       
  HSIZE       integral  3     'd0       
  HWRITE      integral  1     'd0       
  HREADY_OUT  integral  1     'd0       
----------------------------------------

UVM_INFO ../tb/scoreboard.sv(121) @ 145: uvm_test_top.env_h.sbh [SB] Address compared successfully
** Warning: (vsim-3829) Non-existent associative array entry. Returning default value.
   Time: 145 ns  Iteration: 3  Process: /avip_pkg::scoreboard::run_phase/#FORK#90_7fefec1f53a File: ../tb/scoreboard.sv Line: 138
** Warning: (vsim-3829) Non-existent associative array entry. Returning default value.
   Time: 145 ns  Iteration: 3  Process: /avip_pkg::scoreboard::run_phase/#FORK#90_7fefec1f53a File: ../tb/scoreboard.sv Line: 138
UVM_INFO ../tb/scoreboard.sv(140) @ 145: uvm_test_top.env_h.sbh [SB] read data matched successfully
aaaaaaaaaaaaaaaaaaaaaaaaaaaaaaaaaaa = 1
UVM_INFO ../master_agent/master_driver.sv(51) @ 185: uvm_test_top.env_h.m_agt[0].m_drv [MASTER DRV] THIS IS AHB DRIVER 
 ----------------------------------------
Name          Type      Size  Value     
----------------------------------------
req           trans     -     @1020     
  HRESETn     integral  1     'd0       
  HBURST      integral  3     5         
  HRESP       integral  1     'd0       
  HADDR       integral  32    'hddd90974
  HTRANS      integral  2     3         
  HWDATA      integral  32    'h4fe87fdc
  HLEN        integral  8     'd8       
  HRDATA      integral  32    'd0       
  HSIZE       integral  3     'd0       
  HWRITE      integral  1     'd0       
  HREADY_OUT  integral  1     'd0       
----------------------------------------

** Warning: (vsim-3829) Non-existent associative array entry. Returning default value.
   Time: 185 ns  Iteration: 2  Process: /uvm_pkg::uvm_task_phase::execute/#FORK#137(#ublk#215181159#137)_7fefec416f2 File: ../master_agent/master_monitor.sv Line: 95
                 185master monitor read operation mem[3721988467]=0
UVM_INFO ../master_agent/master_monitor.sv(99) @ 185: uvm_test_top.env_h.m_agt[0].m_mon [master monitor] Printing from master monitor 
 ----------------------------------------
Name          Type      Size  Value     
----------------------------------------
txn           trans     -     @682      
  HRESETn     integral  1     'd0       
  HBURST      integral  3     5         
  HRESP       integral  1     'd0       
  HADDR       integral  32    'hddd90973
  HTRANS      integral  2     3         
  HWDATA      integral  32    'h0       
  HLEN        integral  8     'd0       
  HRDATA      integral  32    'd0       
  HSIZE       integral  3     'd0       
  HWRITE      integral  1     'd0       
  HREADY_OUT  integral  1     'd0       
----------------------------------------

** Warning: (vsim-3829) Non-existent associative array entry. Returning default value.
   Time: 185 ns  Iteration: 2  Process: /uvm_pkg::uvm_task_phase::execute/#FORK#137(#ublk#215181159#137)_7fefec416f2 File: ../master_agent/master_monitor.sv Line: 103
master monitor read operation mem[3721988467]=00000000
** Warning: (vsim-3829) Non-existent associative array entry. Returning default value.
   Time: 185 ns  Iteration: 2  Process: /uvm_pkg::uvm_task_phase::execute/#FORK#137(#ublk#215181159#137)_7fefec1f7ed File: ../slave_agent/slave_monitor.sv Line: 91
                 185slave monitor read operation mem[3721988467]= 00000000
UVM_INFO ../slave_agent/slave_monitor.sv(92) @ 185: uvm_test_top.env_h.s_agt[0].s_mon [slave monitor] Printing from slave monitor 
 ----------------------------------------
Name          Type      Size  Value     
----------------------------------------
txn           trans     -     @1036     
  HRESETn     integral  1     'd0       
  HBURST      integral  3     'd0       
  HRESP       integral  1     'd0       
  HADDR       integral  32    'hddd90973
  HTRANS      integral  2     'd0       
  HWDATA      integral  32    'h0       
  HLEN        integral  8     'd0       
  HRDATA      integral  32    'd0       
  HSIZE       integral  3     'd0       
  HWRITE      integral  1     'd0       
  HREADY_OUT  integral  1     'd0       
----------------------------------------

UVM_INFO ../tb/scoreboard.sv(121) @ 185: uvm_test_top.env_h.sbh [SB] Address compared successfully
** Warning: (vsim-3829) Non-existent associative array entry. Returning default value.
   Time: 185 ns  Iteration: 3  Process: /avip_pkg::scoreboard::run_phase/#FORK#90_7fefec1f53a File: ../tb/scoreboard.sv Line: 138
** Warning: (vsim-3829) Non-existent associative array entry. Returning default value.
   Time: 185 ns  Iteration: 3  Process: /avip_pkg::scoreboard::run_phase/#FORK#90_7fefec1f53a File: ../tb/scoreboard.sv Line: 138
UVM_INFO ../tb/scoreboard.sv(140) @ 185: uvm_test_top.env_h.sbh [SB] read data matched successfully
UVM_INFO ../master_agent/master_driver.sv(51) @ 195: uvm_test_top.env_h.m_agt[0].m_drv [MASTER DRV] THIS IS AHB DRIVER 
 ----------------------------------------
Name          Type      Size  Value     
----------------------------------------
req           trans     -     @1020     
  HRESETn     integral  1     'd0       
  HBURST      integral  3     5         
  HRESP       integral  1     'd0       
  HADDR       integral  32    'hddd90975
  HTRANS      integral  2     3         
  HWDATA      integral  32    'h5c4fdadc
  HLEN        integral  8     'd8       
  HRDATA      integral  32    'd0       
  HSIZE       integral  3     'd0       
  HWRITE      integral  1     'd0       
  HREADY_OUT  integral  1     'd0       
----------------------------------------

** Warning: (vsim-3829) Non-existent associative array entry. Returning default value.
   Time: 195 ns  Iteration: 2  Process: /uvm_pkg::uvm_task_phase::execute/#FORK#137(#ublk#215181159#137)_7fefec416f2 File: ../master_agent/master_monitor.sv Line: 95
                 195master monitor read operation mem[3721988468]=0
UVM_INFO ../master_agent/master_monitor.sv(99) @ 195: uvm_test_top.env_h.m_agt[0].m_mon [master monitor] Printing from master monitor 
 ----------------------------------------
Name          Type      Size  Value     
----------------------------------------
txn           trans     -     @682      
  HRESETn     integral  1     'd0       
  HBURST      integral  3     5         
  HRESP       integral  1     'd0       
  HADDR       integral  32    'hddd90974
  HTRANS      integral  2     3         
  HWDATA      integral  32    'h0       
  HLEN        integral  8     'd0       
  HRDATA      integral  32    'd0       
  HSIZE       integral  3     'd0       
  HWRITE      integral  1     'd0       
  HREADY_OUT  integral  1     'd0       
----------------------------------------

** Warning: (vsim-3829) Non-existent associative array entry. Returning default value.
   Time: 195 ns  Iteration: 2  Process: /uvm_pkg::uvm_task_phase::execute/#FORK#137(#ublk#215181159#137)_7fefec416f2 File: ../master_agent/master_monitor.sv Line: 103
master monitor read operation mem[3721988468]=00000000
** Warning: (vsim-3829) Non-existent associative array entry. Returning default value.
   Time: 195 ns  Iteration: 2  Process: /uvm_pkg::uvm_task_phase::execute/#FORK#137(#ublk#215181159#137)_7fefec1f7ed File: ../slave_agent/slave_monitor.sv Line: 91
                 195slave monitor read operation mem[3721988468]= 00000000
UVM_INFO ../slave_agent/slave_monitor.sv(92) @ 195: uvm_test_top.env_h.s_agt[0].s_mon [slave monitor] Printing from slave monitor 
 ----------------------------------------
Name          Type      Size  Value     
----------------------------------------
txn           trans     -     @1040     
  HRESETn     integral  1     'd0       
  HBURST      integral  3     'd0       
  HRESP       integral  1     'd0       
  HADDR       integral  32    'hddd90974
  HTRANS      integral  2     'd0       
  HWDATA      integral  32    'h0       
  HLEN        integral  8     'd0       
  HRDATA      integral  32    'd0       
  HSIZE       integral  3     'd0       
  HWRITE      integral  1     'd0       
  HREADY_OUT  integral  1     'd0       
----------------------------------------

UVM_INFO ../tb/scoreboard.sv(121) @ 195: uvm_test_top.env_h.sbh [SB] Address compared successfully
** Warning: (vsim-3829) Non-existent associative array entry. Returning default value.
   Time: 195 ns  Iteration: 3  Process: /avip_pkg::scoreboard::run_phase/#FORK#90_7fefec1f53a File: ../tb/scoreboard.sv Line: 138
** Warning: (vsim-3829) Non-existent associative array entry. Returning default value.
   Time: 195 ns  Iteration: 3  Process: /avip_pkg::scoreboard::run_phase/#FORK#90_7fefec1f53a File: ../tb/scoreboard.sv Line: 138
UVM_INFO ../tb/scoreboard.sv(140) @ 195: uvm_test_top.env_h.sbh [SB] read data matched successfully
UVM_INFO ../master_agent/master_driver.sv(51) @ 205: uvm_test_top.env_h.m_agt[0].m_drv [MASTER DRV] THIS IS AHB DRIVER 
 ----------------------------------------
Name          Type      Size  Value     
----------------------------------------
req           trans     -     @1020     
  HRESETn     integral  1     'd0       
  HBURST      integral  3     5         
  HRESP       integral  1     'd0       
  HADDR       integral  32    'hddd90976
  HTRANS      integral  2     3         
  HWDATA      integral  32    'hf3f25bfa
  HLEN        integral  8     'd8       
  HRDATA      integral  32    'd0       
  HSIZE       integral  3     'd0       
  HWRITE      integral  1     'd0       
  HREADY_OUT  integral  1     'd0       
----------------------------------------

** Warning: (vsim-3829) Non-existent associative array entry. Returning default value.
   Time: 205 ns  Iteration: 2  Process: /uvm_pkg::uvm_task_phase::execute/#FORK#137(#ublk#215181159#137)_7fefec416f2 File: ../master_agent/master_monitor.sv Line: 95
                 205master monitor read operation mem[3721988469]=0
UVM_INFO ../master_agent/master_monitor.sv(99) @ 205: uvm_test_top.env_h.m_agt[0].m_mon [master monitor] Printing from master monitor 
 ----------------------------------------
Name          Type      Size  Value     
----------------------------------------
txn           trans     -     @682      
  HRESETn     integral  1     'd0       
  HBURST      integral  3     5         
  HRESP       integral  1     1         
  HADDR       integral  32    'hddd90975
  HTRANS      integral  2     3         
  HWDATA      integral  32    'h0       
  HLEN        integral  8     'd0       
  HRDATA      integral  32    'd0       
  HSIZE       integral  3     'd0       
  HWRITE      integral  1     'd0       
  HREADY_OUT  integral  1     'd0       
----------------------------------------

** Warning: (vsim-3829) Non-existent associative array entry. Returning default value.
   Time: 205 ns  Iteration: 2  Process: /uvm_pkg::uvm_task_phase::execute/#FORK#137(#ublk#215181159#137)_7fefec416f2 File: ../master_agent/master_monitor.sv Line: 103
master monitor read operation mem[3721988469]=00000000
** Warning: (vsim-3829) Non-existent associative array entry. Returning default value.
   Time: 205 ns  Iteration: 2  Process: /uvm_pkg::uvm_task_phase::execute/#FORK#137(#ublk#215181159#137)_7fefec1f7ed File: ../slave_agent/slave_monitor.sv Line: 91
                 205slave monitor read operation mem[3721988469]= 00000000
UVM_INFO ../slave_agent/slave_monitor.sv(92) @ 205: uvm_test_top.env_h.s_agt[0].s_mon [slave monitor] Printing from slave monitor 
 ----------------------------------------
Name          Type      Size  Value     
----------------------------------------
txn           trans     -     @1044     
  HRESETn     integral  1     'd0       
  HBURST      integral  3     'd0       
  HRESP       integral  1     'd0       
  HADDR       integral  32    'hddd90975
  HTRANS      integral  2     'd0       
  HWDATA      integral  32    'h0       
  HLEN        integral  8     'd0       
  HRDATA      integral  32    'd0       
  HSIZE       integral  3     'd0       
  HWRITE      integral  1     'd0       
  HREADY_OUT  integral  1     'd0       
----------------------------------------

UVM_INFO ../tb/scoreboard.sv(121) @ 205: uvm_test_top.env_h.sbh [SB] Address compared successfully
** Warning: (vsim-3829) Non-existent associative array entry. Returning default value.
   Time: 205 ns  Iteration: 3  Process: /avip_pkg::scoreboard::run_phase/#FORK#90_7fefec1f53a File: ../tb/scoreboard.sv Line: 138
** Warning: (vsim-3829) Non-existent associative array entry. Returning default value.
   Time: 205 ns  Iteration: 3  Process: /avip_pkg::scoreboard::run_phase/#FORK#90_7fefec1f53a File: ../tb/scoreboard.sv Line: 138
UVM_INFO ../tb/scoreboard.sv(140) @ 205: uvm_test_top.env_h.sbh [SB] read data matched successfully
UVM_INFO ../master_agent/master_driver.sv(51) @ 215: uvm_test_top.env_h.m_agt[0].m_drv [MASTER DRV] THIS IS AHB DRIVER 
 ----------------------------------------
Name          Type      Size  Value     
----------------------------------------
req           trans     -     @1020     
  HRESETn     integral  1     'd0       
  HBURST      integral  3     5         
  HRESP       integral  1     'd0       
  HADDR       integral  32    'hddd90977
  HTRANS      integral  2     3         
  HWDATA      integral  32    'hde0a2805
  HLEN        integral  8     'd8       
  HRDATA      integral  32    'd0       
  HSIZE       integral  3     'd0       
  HWRITE      integral  1     'd0       
  HREADY_OUT  integral  1     'd0       
----------------------------------------

** Warning: (vsim-3829) Non-existent associative array entry. Returning default value.
   Time: 215 ns  Iteration: 2  Process: /uvm_pkg::uvm_task_phase::execute/#FORK#137(#ublk#215181159#137)_7fefec416f2 File: ../master_agent/master_monitor.sv Line: 95
                 215master monitor read operation mem[3721988470]=0
UVM_INFO ../master_agent/master_monitor.sv(99) @ 215: uvm_test_top.env_h.m_agt[0].m_mon [master monitor] Printing from master monitor 
 ----------------------------------------
Name          Type      Size  Value     
----------------------------------------
txn           trans     -     @682      
  HRESETn     integral  1     'd0       
  HBURST      integral  3     5         
  HRESP       integral  1     1         
  HADDR       integral  32    'hddd90976
  HTRANS      integral  2     3         
  HWDATA      integral  32    'h0       
  HLEN        integral  8     'd0       
  HRDATA      integral  32    'd0       
  HSIZE       integral  3     'd0       
  HWRITE      integral  1     'd0       
  HREADY_OUT  integral  1     'd0       
----------------------------------------

** Warning: (vsim-3829) Non-existent associative array entry. Returning default value.
   Time: 215 ns  Iteration: 2  Process: /uvm_pkg::uvm_task_phase::execute/#FORK#137(#ublk#215181159#137)_7fefec416f2 File: ../master_agent/master_monitor.sv Line: 103
master monitor read operation mem[3721988470]=00000000
** Warning: (vsim-3829) Non-existent associative array entry. Returning default value.
   Time: 215 ns  Iteration: 2  Process: /uvm_pkg::uvm_task_phase::execute/#FORK#137(#ublk#215181159#137)_7fefec1f7ed File: ../slave_agent/slave_monitor.sv Line: 91
                 215slave monitor read operation mem[3721988470]= 00000000
UVM_INFO ../slave_agent/slave_monitor.sv(92) @ 215: uvm_test_top.env_h.s_agt[0].s_mon [slave monitor] Printing from slave monitor 
 ----------------------------------------
Name          Type      Size  Value     
----------------------------------------
txn           trans     -     @1048     
  HRESETn     integral  1     'd0       
  HBURST      integral  3     'd0       
  HRESP       integral  1     'd0       
  HADDR       integral  32    'hddd90976
  HTRANS      integral  2     'd0       
  HWDATA      integral  32    'h0       
  HLEN        integral  8     'd0       
  HRDATA      integral  32    'd0       
  HSIZE       integral  3     'd0       
  HWRITE      integral  1     'd0       
  HREADY_OUT  integral  1     'd0       
----------------------------------------

UVM_INFO ../tb/scoreboard.sv(121) @ 215: uvm_test_top.env_h.sbh [SB] Address compared successfully
** Warning: (vsim-3829) Non-existent associative array entry. Returning default value.
   Time: 215 ns  Iteration: 3  Process: /avip_pkg::scoreboard::run_phase/#FORK#90_7fefec1f53a File: ../tb/scoreboard.sv Line: 138
** Warning: (vsim-3829) Non-existent associative array entry. Returning default value.
   Time: 215 ns  Iteration: 3  Process: /avip_pkg::scoreboard::run_phase/#FORK#90_7fefec1f53a File: ../tb/scoreboard.sv Line: 138
UVM_INFO ../tb/scoreboard.sv(140) @ 215: uvm_test_top.env_h.sbh [SB] read data matched successfully
UVM_INFO ../master_agent/master_driver.sv(51) @ 225: uvm_test_top.env_h.m_agt[0].m_drv [MASTER DRV] THIS IS AHB DRIVER 
 ----------------------------------------
Name          Type      Size  Value     
----------------------------------------
req           trans     -     @1056     
  HRESETn     integral  1     'd0       
  HBURST      integral  3     'd3       
  HRESP       integral  1     'd0       
  HADDR       integral  32    'h907bf7dc
  HTRANS      integral  2     2         
  HWDATA      integral  32    'hfadca1dc
  HLEN        integral  8     'd4       
  HRDATA      integral  32    'd0       
  HSIZE       integral  3     'd2       
  HWRITE      integral  1     'd0       
  HREADY_OUT  integral  1     'd0       
----------------------------------------

** Warning: (vsim-3829) Non-existent associative array entry. Returning default value.
   Time: 225 ns  Iteration: 2  Process: /uvm_pkg::uvm_task_phase::execute/#FORK#137(#ublk#215181159#137)_7fefec416f2 File: ../master_agent/master_monitor.sv Line: 95
                 225master monitor read operation mem[3721988471]=0
UVM_INFO ../master_agent/master_monitor.sv(99) @ 225: uvm_test_top.env_h.m_agt[0].m_mon [master monitor] Printing from master monitor 
 ----------------------------------------
Name          Type      Size  Value     
----------------------------------------
txn           trans     -     @682      
  HRESETn     integral  1     'd0       
  HBURST      integral  3     5         
  HRESP       integral  1     1         
  HADDR       integral  32    'hddd90977
  HTRANS      integral  2     3         
  HWDATA      integral  32    'h0       
  HLEN        integral  8     'd0       
  HRDATA      integral  32    'd0       
  HSIZE       integral  3     'd0       
  HWRITE      integral  1     'd0       
  HREADY_OUT  integral  1     'd0       
----------------------------------------

** Warning: (vsim-3829) Non-existent associative array entry. Returning default value.
   Time: 225 ns  Iteration: 2  Process: /uvm_pkg::uvm_task_phase::execute/#FORK#137(#ublk#215181159#137)_7fefec416f2 File: ../master_agent/master_monitor.sv Line: 103
master monitor read operation mem[3721988471]=00000000
** Warning: (vsim-3829) Non-existent associative array entry. Returning default value.
   Time: 225 ns  Iteration: 2  Process: /uvm_pkg::uvm_task_phase::execute/#FORK#137(#ublk#215181159#137)_7fefec1f7ed File: ../slave_agent/slave_monitor.sv Line: 91
                 225slave monitor read operation mem[3721988471]= 00000000
UVM_INFO ../slave_agent/slave_monitor.sv(92) @ 225: uvm_test_top.env_h.s_agt[0].s_mon [slave monitor] Printing from slave monitor 
 ----------------------------------------
Name          Type      Size  Value     
----------------------------------------
txn           trans     -     @1052     
  HRESETn     integral  1     'd0       
  HBURST      integral  3     'd0       
  HRESP       integral  1     'd0       
  HADDR       integral  32    'hddd90977
  HTRANS      integral  2     'd0       
  HWDATA      integral  32    'h0       
  HLEN        integral  8     'd0       
  HRDATA      integral  32    'd0       
  HSIZE       integral  3     'd0       
  HWRITE      integral  1     'd0       
  HREADY_OUT  integral  1     'd0       
----------------------------------------

UVM_INFO ../tb/scoreboard.sv(121) @ 225: uvm_test_top.env_h.sbh [SB] Address compared successfully
** Warning: (vsim-3829) Non-existent associative array entry. Returning default value.
   Time: 225 ns  Iteration: 3  Process: /avip_pkg::scoreboard::run_phase/#FORK#90_7fefec1f53a File: ../tb/scoreboard.sv Line: 138
** Warning: (vsim-3829) Non-existent associative array entry. Returning default value.
   Time: 225 ns  Iteration: 3  Process: /avip_pkg::scoreboard::run_phase/#FORK#90_7fefec1f53a File: ../tb/scoreboard.sv Line: 138
UVM_INFO ../tb/scoreboard.sv(140) @ 225: uvm_test_top.env_h.sbh [SB] read data matched successfully
aaaaaaaaaaaaaaaaaaaaaaaaaaaaaaaaaaa = 0
UVM_INFO ../master_agent/master_driver.sv(51) @ 265: uvm_test_top.env_h.m_agt[0].m_drv [MASTER DRV] THIS IS AHB DRIVER 
 ----------------------------------------
Name          Type      Size  Value     
----------------------------------------
req           trans     -     @1056     
  HRESETn     integral  1     'd0       
  HBURST      integral  3     'd3       
  HRESP       integral  1     'd0       
  HADDR       integral  32    'h907bf7e0
  HTRANS      integral  2     3         
  HWDATA      integral  32    'h72af9344
  HLEN        integral  8     'd4       
  HRDATA      integral  32    'd0       
  HSIZE       integral  3     'd2       
  HWRITE      integral  1     'd0       
  HREADY_OUT  integral  1     'd0       
----------------------------------------

** Warning: (vsim-3829) Non-existent associative array entry. Returning default value.
   Time: 265 ns  Iteration: 2  Process: /uvm_pkg::uvm_task_phase::execute/#FORK#137(#ublk#215181159#137)_7fefec416f2 File: ../master_agent/master_monitor.sv Line: 95
                 265master monitor read operation mem[2424043484]=0
UVM_INFO ../master_agent/master_monitor.sv(99) @ 265: uvm_test_top.env_h.m_agt[0].m_mon [master monitor] Printing from master monitor 
 ----------------------------------------
Name          Type      Size  Value     
----------------------------------------
txn           trans     -     @682      
  HRESETn     integral  1     'd0       
  HBURST      integral  3     'd3       
  HRESP       integral  1     1         
  HADDR       integral  32    'h907bf7dc
  HTRANS      integral  2     2         
  HWDATA      integral  32    'h0       
  HLEN        integral  8     'd0       
  HRDATA      integral  32    'd0       
  HSIZE       integral  3     'd2       
  HWRITE      integral  1     'd0       
  HREADY_OUT  integral  1     'd0       
----------------------------------------

** Warning: (vsim-3829) Non-existent associative array entry. Returning default value.
   Time: 265 ns  Iteration: 2  Process: /uvm_pkg::uvm_task_phase::execute/#FORK#137(#ublk#215181159#137)_7fefec416f2 File: ../master_agent/master_monitor.sv Line: 103
master monitor read operation mem[2424043484]=00000000
** Warning: (vsim-3829) Non-existent associative array entry. Returning default value.
   Time: 265 ns  Iteration: 2  Process: /uvm_pkg::uvm_task_phase::execute/#FORK#137(#ublk#215181159#137)_7fefec1f7ed File: ../slave_agent/slave_monitor.sv Line: 91
                 265slave monitor read operation mem[2424043484]= 00000000
UVM_INFO ../slave_agent/slave_monitor.sv(92) @ 265: uvm_test_top.env_h.s_agt[0].s_mon [slave monitor] Printing from slave monitor 
 ----------------------------------------
Name          Type      Size  Value     
----------------------------------------
txn           trans     -     @1060     
  HRESETn     integral  1     'd0       
  HBURST      integral  3     'd0       
  HRESP       integral  1     'd0       
  HADDR       integral  32    'h907bf7dc
  HTRANS      integral  2     'd0       
  HWDATA      integral  32    'h0       
  HLEN        integral  8     'd0       
  HRDATA      integral  32    'd0       
  HSIZE       integral  3     'd2       
  HWRITE      integral  1     'd0       
  HREADY_OUT  integral  1     'd0       
----------------------------------------

UVM_INFO ../tb/scoreboard.sv(121) @ 265: uvm_test_top.env_h.sbh [SB] Address compared successfully
** Warning: (vsim-3829) Non-existent associative array entry. Returning default value.
   Time: 265 ns  Iteration: 3  Process: /avip_pkg::scoreboard::run_phase/#FORK#90_7fefec1f53a File: ../tb/scoreboard.sv Line: 138
** Warning: (vsim-3829) Non-existent associative array entry. Returning default value.
   Time: 265 ns  Iteration: 3  Process: /avip_pkg::scoreboard::run_phase/#FORK#90_7fefec1f53a File: ../tb/scoreboard.sv Line: 138
UVM_INFO ../tb/scoreboard.sv(140) @ 265: uvm_test_top.env_h.sbh [SB] read data matched successfully
UVM_INFO ../master_agent/master_driver.sv(51) @ 275: uvm_test_top.env_h.m_agt[0].m_drv [MASTER DRV] THIS IS AHB DRIVER 
 ----------------------------------------
Name          Type      Size  Value     
----------------------------------------
req           trans     -     @1056     
  HRESETn     integral  1     'd0       
  HBURST      integral  3     'd3       
  HRESP       integral  1     'd0       
  HADDR       integral  32    'h907bf7e4
  HTRANS      integral  2     3         
  HWDATA      integral  32    'h666b60e9
  HLEN        integral  8     'd4       
  HRDATA      integral  32    'd0       
  HSIZE       integral  3     'd2       
  HWRITE      integral  1     'd0       
  HREADY_OUT  integral  1     'd0       
----------------------------------------

** Warning: (vsim-3829) Non-existent associative array entry. Returning default value.
   Time: 275 ns  Iteration: 2  Process: /uvm_pkg::uvm_task_phase::execute/#FORK#137(#ublk#215181159#137)_7fefec416f2 File: ../master_agent/master_monitor.sv Line: 95
                 275master monitor read operation mem[2424043488]=0
UVM_INFO ../master_agent/master_monitor.sv(99) @ 275: uvm_test_top.env_h.m_agt[0].m_mon [master monitor] Printing from master monitor 
 ----------------------------------------
Name          Type      Size  Value     
----------------------------------------
txn           trans     -     @682      
  HRESETn     integral  1     'd0       
  HBURST      integral  3     'd3       
  HRESP       integral  1     'd0       
  HADDR       integral  32    'h907bf7e0
  HTRANS      integral  2     3         
  HWDATA      integral  32    'h0       
  HLEN        integral  8     'd0       
  HRDATA      integral  32    'd0       
  HSIZE       integral  3     'd2       
  HWRITE      integral  1     'd0       
  HREADY_OUT  integral  1     'd0       
----------------------------------------

** Warning: (vsim-3829) Non-existent associative array entry. Returning default value.
   Time: 275 ns  Iteration: 2  Process: /uvm_pkg::uvm_task_phase::execute/#FORK#137(#ublk#215181159#137)_7fefec416f2 File: ../master_agent/master_monitor.sv Line: 103
master monitor read operation mem[2424043488]=00000000
** Warning: (vsim-3829) Non-existent associative array entry. Returning default value.
   Time: 275 ns  Iteration: 2  Process: /uvm_pkg::uvm_task_phase::execute/#FORK#137(#ublk#215181159#137)_7fefec1f7ed File: ../slave_agent/slave_monitor.sv Line: 91
                 275slave monitor read operation mem[2424043488]= 00000000
UVM_INFO ../slave_agent/slave_monitor.sv(92) @ 275: uvm_test_top.env_h.s_agt[0].s_mon [slave monitor] Printing from slave monitor 
 ----------------------------------------
Name          Type      Size  Value     
----------------------------------------
txn           trans     -     @1064     
  HRESETn     integral  1     'd0       
  HBURST      integral  3     'd0       
  HRESP       integral  1     'd0       
  HADDR       integral  32    'h907bf7e0
  HTRANS      integral  2     'd0       
  HWDATA      integral  32    'h0       
  HLEN        integral  8     'd0       
  HRDATA      integral  32    'd0       
  HSIZE       integral  3     'd2       
  HWRITE      integral  1     'd0       
  HREADY_OUT  integral  1     'd0       
----------------------------------------

UVM_INFO ../tb/scoreboard.sv(121) @ 275: uvm_test_top.env_h.sbh [SB] Address compared successfully
** Warning: (vsim-3829) Non-existent associative array entry. Returning default value.
   Time: 275 ns  Iteration: 3  Process: /avip_pkg::scoreboard::run_phase/#FORK#90_7fefec1f53a File: ../tb/scoreboard.sv Line: 138
** Warning: (vsim-3829) Non-existent associative array entry. Returning default value.
   Time: 275 ns  Iteration: 3  Process: /avip_pkg::scoreboard::run_phase/#FORK#90_7fefec1f53a File: ../tb/scoreboard.sv Line: 138
UVM_INFO ../tb/scoreboard.sv(140) @ 275: uvm_test_top.env_h.sbh [SB] read data matched successfully
UVM_INFO ../master_agent/master_driver.sv(51) @ 285: uvm_test_top.env_h.m_agt[0].m_drv [MASTER DRV] THIS IS AHB DRIVER 
 ----------------------------------------
Name          Type      Size  Value     
----------------------------------------
req           trans     -     @1056     
  HRESETn     integral  1     'd0       
  HBURST      integral  3     'd3       
  HRESP       integral  1     'd0       
  HADDR       integral  32    'h907bf7e8
  HTRANS      integral  2     3         
  HWDATA      integral  32    'hb7363de3
  HLEN        integral  8     'd4       
  HRDATA      integral  32    'd0       
  HSIZE       integral  3     'd2       
  HWRITE      integral  1     'd0       
  HREADY_OUT  integral  1     'd0       
----------------------------------------

** Warning: (vsim-3829) Non-existent associative array entry. Returning default value.
   Time: 285 ns  Iteration: 2  Process: /uvm_pkg::uvm_task_phase::execute/#FORK#137(#ublk#215181159#137)_7fefec416f2 File: ../master_agent/master_monitor.sv Line: 95
                 285master monitor read operation mem[2424043492]=0
UVM_INFO ../master_agent/master_monitor.sv(99) @ 285: uvm_test_top.env_h.m_agt[0].m_mon [master monitor] Printing from master monitor 
 ----------------------------------------
Name          Type      Size  Value     
----------------------------------------
txn           trans     -     @682      
  HRESETn     integral  1     'd0       
  HBURST      integral  3     'd3       
  HRESP       integral  1     'd0       
  HADDR       integral  32    'h907bf7e4
  HTRANS      integral  2     3         
  HWDATA      integral  32    'h0       
  HLEN        integral  8     'd0       
  HRDATA      integral  32    'd0       
  HSIZE       integral  3     'd2       
  HWRITE      integral  1     'd0       
  HREADY_OUT  integral  1     'd0       
----------------------------------------

** Warning: (vsim-3829) Non-existent associative array entry. Returning default value.
   Time: 285 ns  Iteration: 2  Process: /uvm_pkg::uvm_task_phase::execute/#FORK#137(#ublk#215181159#137)_7fefec416f2 File: ../master_agent/master_monitor.sv Line: 103
master monitor read operation mem[2424043492]=00000000
** Warning: (vsim-3829) Non-existent associative array entry. Returning default value.
   Time: 285 ns  Iteration: 2  Process: /uvm_pkg::uvm_task_phase::execute/#FORK#137(#ublk#215181159#137)_7fefec1f7ed File: ../slave_agent/slave_monitor.sv Line: 91
                 285slave monitor read operation mem[2424043492]= 00000000
UVM_INFO ../slave_agent/slave_monitor.sv(92) @ 285: uvm_test_top.env_h.s_agt[0].s_mon [slave monitor] Printing from slave monitor 
 ----------------------------------------
Name          Type      Size  Value     
----------------------------------------
txn           trans     -     @1068     
  HRESETn     integral  1     'd0       
  HBURST      integral  3     'd0       
  HRESP       integral  1     'd0       
  HADDR       integral  32    'h907bf7e4
  HTRANS      integral  2     'd0       
  HWDATA      integral  32    'h0       
  HLEN        integral  8     'd0       
  HRDATA      integral  32    'd0       
  HSIZE       integral  3     'd2       
  HWRITE      integral  1     'd0       
  HREADY_OUT  integral  1     'd0       
----------------------------------------

UVM_INFO ../tb/scoreboard.sv(121) @ 285: uvm_test_top.env_h.sbh [SB] Address compared successfully
** Warning: (vsim-3829) Non-existent associative array entry. Returning default value.
   Time: 285 ns  Iteration: 3  Process: /avip_pkg::scoreboard::run_phase/#FORK#90_7fefec1f53a File: ../tb/scoreboard.sv Line: 138
** Warning: (vsim-3829) Non-existent associative array entry. Returning default value.
   Time: 285 ns  Iteration: 3  Process: /avip_pkg::scoreboard::run_phase/#FORK#90_7fefec1f53a File: ../tb/scoreboard.sv Line: 138
UVM_INFO ../tb/scoreboard.sv(140) @ 285: uvm_test_top.env_h.sbh [SB] read data matched successfully
UVM_INFO ../master_agent/master_driver.sv(51) @ 295: uvm_test_top.env_h.m_agt[0].m_drv [MASTER DRV] THIS IS AHB DRIVER 
 ----------------------------------------
Name          Type      Size  Value     
----------------------------------------
req           trans     -     @1076     
  HRESETn     integral  1     'd0       
  HBURST      integral  3     7         
  HRESP       integral  1     'd0       
  HADDR       integral  32    'h96bd4a98
  HTRANS      integral  2     2         
  HWDATA      integral  32    'hf90b9726
  HLEN        integral  8     'd16      
  HRDATA      integral  32    'd0       
  HSIZE       integral  3     'd1       
  HWRITE      integral  1     'd0       
  HREADY_OUT  integral  1     'd0       
----------------------------------------

** Warning: (vsim-3829) Non-existent associative array entry. Returning default value.
   Time: 295 ns  Iteration: 2  Process: /uvm_pkg::uvm_task_phase::execute/#FORK#137(#ublk#215181159#137)_7fefec416f2 File: ../master_agent/master_monitor.sv Line: 95
                 295master monitor read operation mem[2424043496]=0
UVM_INFO ../master_agent/master_monitor.sv(99) @ 295: uvm_test_top.env_h.m_agt[0].m_mon [master monitor] Printing from master monitor 
 ----------------------------------------
Name          Type      Size  Value     
----------------------------------------
txn           trans     -     @682      
  HRESETn     integral  1     'd0       
  HBURST      integral  3     'd3       
  HRESP       integral  1     'd0       
  HADDR       integral  32    'h907bf7e8
  HTRANS      integral  2     3         
  HWDATA      integral  32    'h0       
  HLEN        integral  8     'd0       
  HRDATA      integral  32    'd0       
  HSIZE       integral  3     'd2       
  HWRITE      integral  1     'd0       
  HREADY_OUT  integral  1     'd0       
----------------------------------------

** Warning: (vsim-3829) Non-existent associative array entry. Returning default value.
   Time: 295 ns  Iteration: 2  Process: /uvm_pkg::uvm_task_phase::execute/#FORK#137(#ublk#215181159#137)_7fefec416f2 File: ../master_agent/master_monitor.sv Line: 103
master monitor read operation mem[2424043496]=00000000
** Warning: (vsim-3829) Non-existent associative array entry. Returning default value.
   Time: 295 ns  Iteration: 2  Process: /uvm_pkg::uvm_task_phase::execute/#FORK#137(#ublk#215181159#137)_7fefec1f7ed File: ../slave_agent/slave_monitor.sv Line: 91
                 295slave monitor read operation mem[2424043496]= 00000000
UVM_INFO ../slave_agent/slave_monitor.sv(92) @ 295: uvm_test_top.env_h.s_agt[0].s_mon [slave monitor] Printing from slave monitor 
 ----------------------------------------
Name          Type      Size  Value     
----------------------------------------
txn           trans     -     @1072     
  HRESETn     integral  1     'd0       
  HBURST      integral  3     'd0       
  HRESP       integral  1     'd0       
  HADDR       integral  32    'h907bf7e8
  HTRANS      integral  2     'd0       
  HWDATA      integral  32    'h0       
  HLEN        integral  8     'd0       
  HRDATA      integral  32    'd0       
  HSIZE       integral  3     'd2       
  HWRITE      integral  1     'd0       
  HREADY_OUT  integral  1     'd0       
----------------------------------------

UVM_INFO ../tb/scoreboard.sv(121) @ 295: uvm_test_top.env_h.sbh [SB] Address compared successfully
** Warning: (vsim-3829) Non-existent associative array entry. Returning default value.
   Time: 295 ns  Iteration: 3  Process: /avip_pkg::scoreboard::run_phase/#FORK#90_7fefec1f53a File: ../tb/scoreboard.sv Line: 138
** Warning: (vsim-3829) Non-existent associative array entry. Returning default value.
   Time: 295 ns  Iteration: 3  Process: /avip_pkg::scoreboard::run_phase/#FORK#90_7fefec1f53a File: ../tb/scoreboard.sv Line: 138
UVM_INFO ../tb/scoreboard.sv(140) @ 295: uvm_test_top.env_h.sbh [SB] read data matched successfully
aaaaaaaaaaaaaaaaaaaaaaaaaaaaaaaaaaa = 0
UVM_INFO ../master_agent/master_driver.sv(51) @ 315: uvm_test_top.env_h.m_agt[0].m_drv [MASTER DRV] THIS IS AHB DRIVER 
 ----------------------------------------
Name          Type      Size  Value     
----------------------------------------
req           trans     -     @1076     
  HRESETn     integral  1     'd0       
  HBURST      integral  3     7         
  HRESP       integral  1     'd0       
  HADDR       integral  32    'h96bd4a9a
  HTRANS      integral  2     3         
  HWDATA      integral  32    'h5726eea9
  HLEN        integral  8     'd16      
  HRDATA      integral  32    'd0       
  HSIZE       integral  3     'd1       
  HWRITE      integral  1     'd0       
  HREADY_OUT  integral  1     'd0       
----------------------------------------

** Warning: (vsim-3829) Non-existent associative array entry. Returning default value.
   Time: 315 ns  Iteration: 2  Process: /uvm_pkg::uvm_task_phase::execute/#FORK#137(#ublk#215181159#137)_7fefec416f2 File: ../master_agent/master_monitor.sv Line: 95
                 315master monitor read operation mem[2528987800]=0
UVM_INFO ../master_agent/master_monitor.sv(99) @ 315: uvm_test_top.env_h.m_agt[0].m_mon [master monitor] Printing from master monitor 
 ----------------------------------------
Name          Type      Size  Value     
----------------------------------------
txn           trans     -     @682      
  HRESETn     integral  1     'd0       
  HBURST      integral  3     7         
  HRESP       integral  1     'd0       
  HADDR       integral  32    'h96bd4a98
  HTRANS      integral  2     2         
  HWDATA      integral  32    'h0       
  HLEN        integral  8     'd0       
  HRDATA      integral  32    'd0       
  HSIZE       integral  3     'd1       
  HWRITE      integral  1     'd0       
  HREADY_OUT  integral  1     'd0       
----------------------------------------

** Warning: (vsim-3829) Non-existent associative array entry. Returning default value.
   Time: 315 ns  Iteration: 2  Process: /uvm_pkg::uvm_task_phase::execute/#FORK#137(#ublk#215181159#137)_7fefec416f2 File: ../master_agent/master_monitor.sv Line: 103
master monitor read operation mem[2528987800]=00000000
** Warning: (vsim-3829) Non-existent associative array entry. Returning default value.
   Time: 315 ns  Iteration: 2  Process: /uvm_pkg::uvm_task_phase::execute/#FORK#137(#ublk#215181159#137)_7fefec1f7ed File: ../slave_agent/slave_monitor.sv Line: 91
                 315slave monitor read operation mem[2528987800]= 00000000
UVM_INFO ../slave_agent/slave_monitor.sv(92) @ 315: uvm_test_top.env_h.s_agt[0].s_mon [slave monitor] Printing from slave monitor 
 ----------------------------------------
Name          Type      Size  Value     
----------------------------------------
txn           trans     -     @1080     
  HRESETn     integral  1     'd0       
  HBURST      integral  3     'd0       
  HRESP       integral  1     'd0       
  HADDR       integral  32    'h96bd4a98
  HTRANS      integral  2     'd0       
  HWDATA      integral  32    'h0       
  HLEN        integral  8     'd0       
  HRDATA      integral  32    'd0       
  HSIZE       integral  3     'd1       
  HWRITE      integral  1     'd0       
  HREADY_OUT  integral  1     'd0       
----------------------------------------

UVM_INFO ../tb/scoreboard.sv(121) @ 315: uvm_test_top.env_h.sbh [SB] Address compared successfully
** Warning: (vsim-3829) Non-existent associative array entry. Returning default value.
   Time: 315 ns  Iteration: 3  Process: /avip_pkg::scoreboard::run_phase/#FORK#90_7fefec1f53a File: ../tb/scoreboard.sv Line: 138
** Warning: (vsim-3829) Non-existent associative array entry. Returning default value.
   Time: 315 ns  Iteration: 3  Process: /avip_pkg::scoreboard::run_phase/#FORK#90_7fefec1f53a File: ../tb/scoreboard.sv Line: 138
UVM_INFO ../tb/scoreboard.sv(140) @ 315: uvm_test_top.env_h.sbh [SB] read data matched successfully
UVM_INFO ../master_agent/master_driver.sv(51) @ 325: uvm_test_top.env_h.m_agt[0].m_drv [MASTER DRV] THIS IS AHB DRIVER 
 ----------------------------------------
Name          Type      Size  Value     
----------------------------------------
req           trans     -     @1076     
  HRESETn     integral  1     'd0       
  HBURST      integral  3     7         
  HRESP       integral  1     'd0       
  HADDR       integral  32    'h96bd4a9c
  HTRANS      integral  2     3         
  HWDATA      integral  32    'hfb9a33a6
  HLEN        integral  8     'd16      
  HRDATA      integral  32    'd0       
  HSIZE       integral  3     'd1       
  HWRITE      integral  1     'd0       
  HREADY_OUT  integral  1     'd0       
----------------------------------------

** Warning: (vsim-3829) Non-existent associative array entry. Returning default value.
   Time: 325 ns  Iteration: 2  Process: /uvm_pkg::uvm_task_phase::execute/#FORK#137(#ublk#215181159#137)_7fefec416f2 File: ../master_agent/master_monitor.sv Line: 95
                 325master monitor read operation mem[2528987802]=0
UVM_INFO ../master_agent/master_monitor.sv(99) @ 325: uvm_test_top.env_h.m_agt[0].m_mon [master monitor] Printing from master monitor 
 ----------------------------------------
Name          Type      Size  Value     
----------------------------------------
txn           trans     -     @682      
  HRESETn     integral  1     'd0       
  HBURST      integral  3     7         
  HRESP       integral  1     'd0       
  HADDR       integral  32    'h96bd4a9a
  HTRANS      integral  2     3         
  HWDATA      integral  32    'h0       
  HLEN        integral  8     'd0       
  HRDATA      integral  32    'd0       
  HSIZE       integral  3     'd1       
  HWRITE      integral  1     'd0       
  HREADY_OUT  integral  1     'd0       
----------------------------------------

** Warning: (vsim-3829) Non-existent associative array entry. Returning default value.
   Time: 325 ns  Iteration: 2  Process: /uvm_pkg::uvm_task_phase::execute/#FORK#137(#ublk#215181159#137)_7fefec416f2 File: ../master_agent/master_monitor.sv Line: 103
master monitor read operation mem[2528987802]=00000000
** Warning: (vsim-3829) Non-existent associative array entry. Returning default value.
   Time: 325 ns  Iteration: 2  Process: /uvm_pkg::uvm_task_phase::execute/#FORK#137(#ublk#215181159#137)_7fefec1f7ed File: ../slave_agent/slave_monitor.sv Line: 91
                 325slave monitor read operation mem[2528987802]= 00000000
UVM_INFO ../slave_agent/slave_monitor.sv(92) @ 325: uvm_test_top.env_h.s_agt[0].s_mon [slave monitor] Printing from slave monitor 
 ----------------------------------------
Name          Type      Size  Value     
----------------------------------------
txn           trans     -     @1084     
  HRESETn     integral  1     'd0       
  HBURST      integral  3     'd0       
  HRESP       integral  1     'd0       
  HADDR       integral  32    'h96bd4a9a
  HTRANS      integral  2     'd0       
  HWDATA      integral  32    'h0       
  HLEN        integral  8     'd0       
  HRDATA      integral  32    'd0       
  HSIZE       integral  3     'd1       
  HWRITE      integral  1     'd0       
  HREADY_OUT  integral  1     'd0       
----------------------------------------

UVM_INFO ../tb/scoreboard.sv(121) @ 325: uvm_test_top.env_h.sbh [SB] Address compared successfully
** Warning: (vsim-3829) Non-existent associative array entry. Returning default value.
   Time: 325 ns  Iteration: 3  Process: /avip_pkg::scoreboard::run_phase/#FORK#90_7fefec1f53a File: ../tb/scoreboard.sv Line: 138
** Warning: (vsim-3829) Non-existent associative array entry. Returning default value.
   Time: 325 ns  Iteration: 3  Process: /avip_pkg::scoreboard::run_phase/#FORK#90_7fefec1f53a File: ../tb/scoreboard.sv Line: 138
UVM_INFO ../tb/scoreboard.sv(140) @ 325: uvm_test_top.env_h.sbh [SB] read data matched successfully
aaaaaaaaaaaaaaaaaaaaaaaaaaaaaaaaaaa = 3
UVM_INFO ../master_agent/master_driver.sv(51) @ 345: uvm_test_top.env_h.m_agt[0].m_drv [MASTER DRV] THIS IS AHB DRIVER 
 ----------------------------------------
Name          Type      Size  Value     
----------------------------------------
req           trans     -     @1076     
  HRESETn     integral  1     'd0       
  HBURST      integral  3     7         
  HRESP       integral  1     'd0       
  HADDR       integral  32    'h96bd4a9e
  HTRANS      integral  2     3         
  HWDATA      integral  32    'hd2ab744d
  HLEN        integral  8     'd16      
  HRDATA      integral  32    'd0       
  HSIZE       integral  3     'd1       
  HWRITE      integral  1     'd0       
  HREADY_OUT  integral  1     'd0       
----------------------------------------

** Warning: (vsim-3829) Non-existent associative array entry. Returning default value.
   Time: 345 ns  Iteration: 2  Process: /uvm_pkg::uvm_task_phase::execute/#FORK#137(#ublk#215181159#137)_7fefec416f2 File: ../master_agent/master_monitor.sv Line: 95
                 345master monitor read operation mem[2528987804]=0
UVM_INFO ../master_agent/master_monitor.sv(99) @ 345: uvm_test_top.env_h.m_agt[0].m_mon [master monitor] Printing from master monitor 
 ----------------------------------------
Name          Type      Size  Value     
----------------------------------------
txn           trans     -     @682      
  HRESETn     integral  1     'd0       
  HBURST      integral  3     7         
  HRESP       integral  1     'd0       
  HADDR       integral  32    'h96bd4a9c
  HTRANS      integral  2     3         
  HWDATA      integral  32    'h0       
  HLEN        integral  8     'd0       
  HRDATA      integral  32    'd0       
  HSIZE       integral  3     'd1       
  HWRITE      integral  1     'd0       
  HREADY_OUT  integral  1     'd0       
----------------------------------------

** Warning: (vsim-3829) Non-existent associative array entry. Returning default value.
   Time: 345 ns  Iteration: 2  Process: /uvm_pkg::uvm_task_phase::execute/#FORK#137(#ublk#215181159#137)_7fefec416f2 File: ../master_agent/master_monitor.sv Line: 103
master monitor read operation mem[2528987804]=00000000
** Warning: (vsim-3829) Non-existent associative array entry. Returning default value.
   Time: 345 ns  Iteration: 2  Process: /uvm_pkg::uvm_task_phase::execute/#FORK#137(#ublk#215181159#137)_7fefec1f7ed File: ../slave_agent/slave_monitor.sv Line: 91
                 345slave monitor read operation mem[2528987804]= 00000000
UVM_INFO ../slave_agent/slave_monitor.sv(92) @ 345: uvm_test_top.env_h.s_agt[0].s_mon [slave monitor] Printing from slave monitor 
 ----------------------------------------
Name          Type      Size  Value     
----------------------------------------
txn           trans     -     @1088     
  HRESETn     integral  1     'd0       
  HBURST      integral  3     'd0       
  HRESP       integral  1     'd0       
  HADDR       integral  32    'h96bd4a9c
  HTRANS      integral  2     'd0       
  HWDATA      integral  32    'h0       
  HLEN        integral  8     'd0       
  HRDATA      integral  32    'd0       
  HSIZE       integral  3     'd1       
  HWRITE      integral  1     'd0       
  HREADY_OUT  integral  1     'd0       
----------------------------------------

UVM_INFO ../tb/scoreboard.sv(121) @ 345: uvm_test_top.env_h.sbh [SB] Address compared successfully
** Warning: (vsim-3829) Non-existent associative array entry. Returning default value.
   Time: 345 ns  Iteration: 3  Process: /avip_pkg::scoreboard::run_phase/#FORK#90_7fefec1f53a File: ../tb/scoreboard.sv Line: 138
** Warning: (vsim-3829) Non-existent associative array entry. Returning default value.
   Time: 345 ns  Iteration: 3  Process: /avip_pkg::scoreboard::run_phase/#FORK#90_7fefec1f53a File: ../tb/scoreboard.sv Line: 138
UVM_INFO ../tb/scoreboard.sv(140) @ 345: uvm_test_top.env_h.sbh [SB] read data matched successfully
UVM_INFO ../master_agent/master_driver.sv(51) @ 355: uvm_test_top.env_h.m_agt[0].m_drv [MASTER DRV] THIS IS AHB DRIVER 
 ----------------------------------------
Name          Type      Size  Value     
----------------------------------------
req           trans     -     @1076     
  HRESETn     integral  1     'd0       
  HBURST      integral  3     7         
  HRESP       integral  1     'd0       
  HADDR       integral  32    'h96bd4aa0
  HTRANS      integral  2     3         
  HWDATA      integral  32    'h40fe440e
  HLEN        integral  8     'd16      
  HRDATA      integral  32    'd0       
  HSIZE       integral  3     'd1       
  HWRITE      integral  1     'd0       
  HREADY_OUT  integral  1     'd0       
----------------------------------------

** Warning: (vsim-3829) Non-existent associative array entry. Returning default value.
   Time: 355 ns  Iteration: 2  Process: /uvm_pkg::uvm_task_phase::execute/#FORK#137(#ublk#215181159#137)_7fefec416f2 File: ../master_agent/master_monitor.sv Line: 95
                 355master monitor read operation mem[2528987806]=0
UVM_INFO ../master_agent/master_monitor.sv(99) @ 355: uvm_test_top.env_h.m_agt[0].m_mon [master monitor] Printing from master monitor 
 ----------------------------------------
Name          Type      Size  Value     
----------------------------------------
txn           trans     -     @682      
  HRESETn     integral  1     'd0       
  HBURST      integral  3     7         
  HRESP       integral  1     'd0       
  HADDR       integral  32    'h96bd4a9e
  HTRANS      integral  2     3         
  HWDATA      integral  32    'h0       
  HLEN        integral  8     'd0       
  HRDATA      integral  32    'd0       
  HSIZE       integral  3     'd1       
  HWRITE      integral  1     'd0       
  HREADY_OUT  integral  1     'd0       
----------------------------------------

** Warning: (vsim-3829) Non-existent associative array entry. Returning default value.
   Time: 355 ns  Iteration: 2  Process: /uvm_pkg::uvm_task_phase::execute/#FORK#137(#ublk#215181159#137)_7fefec416f2 File: ../master_agent/master_monitor.sv Line: 103
master monitor read operation mem[2528987806]=00000000
** Warning: (vsim-3829) Non-existent associative array entry. Returning default value.
   Time: 355 ns  Iteration: 2  Process: /uvm_pkg::uvm_task_phase::execute/#FORK#137(#ublk#215181159#137)_7fefec1f7ed File: ../slave_agent/slave_monitor.sv Line: 91
                 355slave monitor read operation mem[2528987806]= 00000000
UVM_INFO ../slave_agent/slave_monitor.sv(92) @ 355: uvm_test_top.env_h.s_agt[0].s_mon [slave monitor] Printing from slave monitor 
 ----------------------------------------
Name          Type      Size  Value     
----------------------------------------
txn           trans     -     @1092     
  HRESETn     integral  1     'd0       
  HBURST      integral  3     'd0       
  HRESP       integral  1     'd0       
  HADDR       integral  32    'h96bd4a9e
  HTRANS      integral  2     'd0       
  HWDATA      integral  32    'h0       
  HLEN        integral  8     'd0       
  HRDATA      integral  32    'd0       
  HSIZE       integral  3     'd1       
  HWRITE      integral  1     'd0       
  HREADY_OUT  integral  1     'd0       
----------------------------------------

UVM_INFO ../tb/scoreboard.sv(121) @ 355: uvm_test_top.env_h.sbh [SB] Address compared successfully
** Warning: (vsim-3829) Non-existent associative array entry. Returning default value.
   Time: 355 ns  Iteration: 3  Process: /avip_pkg::scoreboard::run_phase/#FORK#90_7fefec1f53a File: ../tb/scoreboard.sv Line: 138
** Warning: (vsim-3829) Non-existent associative array entry. Returning default value.
   Time: 355 ns  Iteration: 3  Process: /avip_pkg::scoreboard::run_phase/#FORK#90_7fefec1f53a File: ../tb/scoreboard.sv Line: 138
UVM_INFO ../tb/scoreboard.sv(140) @ 355: uvm_test_top.env_h.sbh [SB] read data matched successfully
UVM_INFO ../master_agent/master_driver.sv(51) @ 365: uvm_test_top.env_h.m_agt[0].m_drv [MASTER DRV] THIS IS AHB DRIVER 
 ----------------------------------------
Name          Type      Size  Value     
----------------------------------------
req           trans     -     @1076     
  HRESETn     integral  1     'd0       
  HBURST      integral  3     7         
  HRESP       integral  1     'd0       
  HADDR       integral  32    'h96bd4aa2
  HTRANS      integral  2     3         
  HWDATA      integral  32    'hc8c29a70
  HLEN        integral  8     'd16      
  HRDATA      integral  32    'd0       
  HSIZE       integral  3     'd1       
  HWRITE      integral  1     'd0       
  HREADY_OUT  integral  1     'd0       
----------------------------------------

** Warning: (vsim-3829) Non-existent associative array entry. Returning default value.
   Time: 365 ns  Iteration: 2  Process: /uvm_pkg::uvm_task_phase::execute/#FORK#137(#ublk#215181159#137)_7fefec416f2 File: ../master_agent/master_monitor.sv Line: 95
                 365master monitor read operation mem[2528987808]=0
UVM_INFO ../master_agent/master_monitor.sv(99) @ 365: uvm_test_top.env_h.m_agt[0].m_mon [master monitor] Printing from master monitor 
 ----------------------------------------
Name          Type      Size  Value     
----------------------------------------
txn           trans     -     @682      
  HRESETn     integral  1     'd0       
  HBURST      integral  3     7         
  HRESP       integral  1     3         
  HADDR       integral  32    'h96bd4aa0
  HTRANS      integral  2     3         
  HWDATA      integral  32    'h0       
  HLEN        integral  8     'd0       
  HRDATA      integral  32    'd0       
  HSIZE       integral  3     'd1       
  HWRITE      integral  1     'd0       
  HREADY_OUT  integral  1     'd0       
----------------------------------------

** Warning: (vsim-3829) Non-existent associative array entry. Returning default value.
   Time: 365 ns  Iteration: 2  Process: /uvm_pkg::uvm_task_phase::execute/#FORK#137(#ublk#215181159#137)_7fefec416f2 File: ../master_agent/master_monitor.sv Line: 103
master monitor read operation mem[2528987808]=00000000
** Warning: (vsim-3829) Non-existent associative array entry. Returning default value.
   Time: 365 ns  Iteration: 2  Process: /uvm_pkg::uvm_task_phase::execute/#FORK#137(#ublk#215181159#137)_7fefec1f7ed File: ../slave_agent/slave_monitor.sv Line: 91
                 365slave monitor read operation mem[2528987808]= 00000000
UVM_INFO ../slave_agent/slave_monitor.sv(92) @ 365: uvm_test_top.env_h.s_agt[0].s_mon [slave monitor] Printing from slave monitor 
 ----------------------------------------
Name          Type      Size  Value     
----------------------------------------
txn           trans     -     @1096     
  HRESETn     integral  1     'd0       
  HBURST      integral  3     'd0       
  HRESP       integral  1     'd0       
  HADDR       integral  32    'h96bd4aa0
  HTRANS      integral  2     'd0       
  HWDATA      integral  32    'h0       
  HLEN        integral  8     'd0       
  HRDATA      integral  32    'd0       
  HSIZE       integral  3     'd1       
  HWRITE      integral  1     'd0       
  HREADY_OUT  integral  1     'd0       
----------------------------------------

UVM_INFO ../tb/scoreboard.sv(121) @ 365: uvm_test_top.env_h.sbh [SB] Address compared successfully
** Warning: (vsim-3829) Non-existent associative array entry. Returning default value.
   Time: 365 ns  Iteration: 3  Process: /avip_pkg::scoreboard::run_phase/#FORK#90_7fefec1f53a File: ../tb/scoreboard.sv Line: 138
** Warning: (vsim-3829) Non-existent associative array entry. Returning default value.
   Time: 365 ns  Iteration: 3  Process: /avip_pkg::scoreboard::run_phase/#FORK#90_7fefec1f53a File: ../tb/scoreboard.sv Line: 138
UVM_INFO ../tb/scoreboard.sv(140) @ 365: uvm_test_top.env_h.sbh [SB] read data matched successfully
aaaaaaaaaaaaaaaaaaaaaaaaaaaaaaaaaaa = 2
UVM_INFO ../master_agent/master_driver.sv(51) @ 415: uvm_test_top.env_h.m_agt[0].m_drv [MASTER DRV] THIS IS AHB DRIVER 
 ----------------------------------------
Name          Type      Size  Value     
----------------------------------------
req           trans     -     @1076     
  HRESETn     integral  1     'd0       
  HBURST      integral  3     7         
  HRESP       integral  1     'd0       
  HADDR       integral  32    'h96bd4aa4
  HTRANS      integral  2     3         
  HWDATA      integral  32    'hb11bedda
  HLEN        integral  8     'd16      
  HRDATA      integral  32    'd0       
  HSIZE       integral  3     'd1       
  HWRITE      integral  1     'd0       
  HREADY_OUT  integral  1     'd0       
----------------------------------------

** Warning: (vsim-3829) Non-existent associative array entry. Returning default value.
   Time: 415 ns  Iteration: 2  Process: /uvm_pkg::uvm_task_phase::execute/#FORK#137(#ublk#215181159#137)_7fefec416f2 File: ../master_agent/master_monitor.sv Line: 95
                 415master monitor read operation mem[2528987810]=0
UVM_INFO ../master_agent/master_monitor.sv(99) @ 415: uvm_test_top.env_h.m_agt[0].m_mon [master monitor] Printing from master monitor 
 ----------------------------------------
Name          Type      Size  Value     
----------------------------------------
txn           trans     -     @682      
  HRESETn     integral  1     'd0       
  HBURST      integral  3     7         
  HRESP       integral  1     3         
  HADDR       integral  32    'h96bd4aa2
  HTRANS      integral  2     3         
  HWDATA      integral  32    'h0       
  HLEN        integral  8     'd0       
  HRDATA      integral  32    'd0       
  HSIZE       integral  3     'd1       
  HWRITE      integral  1     'd0       
  HREADY_OUT  integral  1     'd0       
----------------------------------------

** Warning: (vsim-3829) Non-existent associative array entry. Returning default value.
   Time: 415 ns  Iteration: 2  Process: /uvm_pkg::uvm_task_phase::execute/#FORK#137(#ublk#215181159#137)_7fefec416f2 File: ../master_agent/master_monitor.sv Line: 103
master monitor read operation mem[2528987810]=00000000
** Warning: (vsim-3829) Non-existent associative array entry. Returning default value.
   Time: 415 ns  Iteration: 2  Process: /uvm_pkg::uvm_task_phase::execute/#FORK#137(#ublk#215181159#137)_7fefec1f7ed File: ../slave_agent/slave_monitor.sv Line: 91
                 415slave monitor read operation mem[2528987810]= 00000000
UVM_INFO ../slave_agent/slave_monitor.sv(92) @ 415: uvm_test_top.env_h.s_agt[0].s_mon [slave monitor] Printing from slave monitor 
 ----------------------------------------
Name          Type      Size  Value     
----------------------------------------
txn           trans     -     @1100     
  HRESETn     integral  1     'd0       
  HBURST      integral  3     'd0       
  HRESP       integral  1     'd0       
  HADDR       integral  32    'h96bd4aa2
  HTRANS      integral  2     'd0       
  HWDATA      integral  32    'h0       
  HLEN        integral  8     'd0       
  HRDATA      integral  32    'd0       
  HSIZE       integral  3     'd1       
  HWRITE      integral  1     'd0       
  HREADY_OUT  integral  1     'd0       
----------------------------------------

UVM_INFO ../tb/scoreboard.sv(121) @ 415: uvm_test_top.env_h.sbh [SB] Address compared successfully
** Warning: (vsim-3829) Non-existent associative array entry. Returning default value.
   Time: 415 ns  Iteration: 3  Process: /avip_pkg::scoreboard::run_phase/#FORK#90_7fefec1f53a File: ../tb/scoreboard.sv Line: 138
** Warning: (vsim-3829) Non-existent associative array entry. Returning default value.
   Time: 415 ns  Iteration: 3  Process: /avip_pkg::scoreboard::run_phase/#FORK#90_7fefec1f53a File: ../tb/scoreboard.sv Line: 138
UVM_INFO ../tb/scoreboard.sv(140) @ 415: uvm_test_top.env_h.sbh [SB] read data matched successfully
UVM_INFO ../master_agent/master_driver.sv(51) @ 425: uvm_test_top.env_h.m_agt[0].m_drv [MASTER DRV] THIS IS AHB DRIVER 
 ----------------------------------------
Name          Type      Size  Value     
----------------------------------------
req           trans     -     @1076     
  HRESETn     integral  1     'd0       
  HBURST      integral  3     7         
  HRESP       integral  1     'd0       
  HADDR       integral  32    'h96bd4aa6
  HTRANS      integral  2     3         
  HWDATA      integral  32    'hf3102bde
  HLEN        integral  8     'd16      
  HRDATA      integral  32    'd0       
  HSIZE       integral  3     'd1       
  HWRITE      integral  1     'd0       
  HREADY_OUT  integral  1     'd0       
----------------------------------------

** Warning: (vsim-3829) Non-existent associative array entry. Returning default value.
   Time: 425 ns  Iteration: 2  Process: /uvm_pkg::uvm_task_phase::execute/#FORK#137(#ublk#215181159#137)_7fefec416f2 File: ../master_agent/master_monitor.sv Line: 95
                 425master monitor read operation mem[2528987812]=0
UVM_INFO ../master_agent/master_monitor.sv(99) @ 425: uvm_test_top.env_h.m_agt[0].m_mon [master monitor] Printing from master monitor 
 ----------------------------------------
Name          Type      Size  Value     
----------------------------------------
txn           trans     -     @682      
  HRESETn     integral  1     'd0       
  HBURST      integral  3     7         
  HRESP       integral  1     3         
  HADDR       integral  32    'h96bd4aa4
  HTRANS      integral  2     3         
  HWDATA      integral  32    'h0       
  HLEN        integral  8     'd0       
  HRDATA      integral  32    'd0       
  HSIZE       integral  3     'd1       
  HWRITE      integral  1     'd0       
  HREADY_OUT  integral  1     'd0       
----------------------------------------

** Warning: (vsim-3829) Non-existent associative array entry. Returning default value.
   Time: 425 ns  Iteration: 2  Process: /uvm_pkg::uvm_task_phase::execute/#FORK#137(#ublk#215181159#137)_7fefec416f2 File: ../master_agent/master_monitor.sv Line: 103
master monitor read operation mem[2528987812]=00000000
** Warning: (vsim-3829) Non-existent associative array entry. Returning default value.
   Time: 425 ns  Iteration: 2  Process: /uvm_pkg::uvm_task_phase::execute/#FORK#137(#ublk#215181159#137)_7fefec1f7ed File: ../slave_agent/slave_monitor.sv Line: 91
                 425slave monitor read operation mem[2528987812]= 00000000
UVM_INFO ../slave_agent/slave_monitor.sv(92) @ 425: uvm_test_top.env_h.s_agt[0].s_mon [slave monitor] Printing from slave monitor 
 ----------------------------------------
Name          Type      Size  Value     
----------------------------------------
txn           trans     -     @1104     
  HRESETn     integral  1     'd0       
  HBURST      integral  3     'd0       
  HRESP       integral  1     'd0       
  HADDR       integral  32    'h96bd4aa4
  HTRANS      integral  2     'd0       
  HWDATA      integral  32    'h0       
  HLEN        integral  8     'd0       
  HRDATA      integral  32    'd0       
  HSIZE       integral  3     'd1       
  HWRITE      integral  1     'd0       
  HREADY_OUT  integral  1     'd0       
----------------------------------------

UVM_INFO ../tb/scoreboard.sv(121) @ 425: uvm_test_top.env_h.sbh [SB] Address compared successfully
** Warning: (vsim-3829) Non-existent associative array entry. Returning default value.
   Time: 425 ns  Iteration: 3  Process: /avip_pkg::scoreboard::run_phase/#FORK#90_7fefec1f53a File: ../tb/scoreboard.sv Line: 138
** Warning: (vsim-3829) Non-existent associative array entry. Returning default value.
   Time: 425 ns  Iteration: 3  Process: /avip_pkg::scoreboard::run_phase/#FORK#90_7fefec1f53a File: ../tb/scoreboard.sv Line: 138
UVM_INFO ../tb/scoreboard.sv(140) @ 425: uvm_test_top.env_h.sbh [SB] read data matched successfully
UVM_INFO ../master_agent/master_driver.sv(51) @ 435: uvm_test_top.env_h.m_agt[0].m_drv [MASTER DRV] THIS IS AHB DRIVER 
 ----------------------------------------
Name          Type      Size  Value     
----------------------------------------
req           trans     -     @1076     
  HRESETn     integral  1     'd0       
  HBURST      integral  3     7         
  HRESP       integral  1     'd0       
  HADDR       integral  32    'h96bd4aa8
  HTRANS      integral  2     3         
  HWDATA      integral  32    'he30dd0e 
  HLEN        integral  8     'd16      
  HRDATA      integral  32    'd0       
  HSIZE       integral  3     'd1       
  HWRITE      integral  1     'd0       
  HREADY_OUT  integral  1     'd0       
