vsim -cvgperinstance -vopt -voptargs="+acc" -coverage -sva -c -do " log -r /* ;coverage save -onexit -assert -directive -cvg -codeAll mem_cov3;run -all; exit" -wlf wave_file3.wlf -l test3.log -sv_seed random work.Top "+UVM_TESTNAME=wrap_transfer_test" 
Start time: 10:27:42 on May 09,2025
** Note: (vsim-3813) Design is being optimized due to module recompilation...
//  Questa Sim-64
//  Version 2019.2 linux_x86_64 Apr 16 2019
//
//  Copyright 1991-2019 Mentor Graphics Corporation
//  All Rights Reserved.
//
//  QuestaSim and its associated documentation contain trade
//  secrets and commercial or financial information that are the property of
//  Mentor Graphics Corporation and are privileged, confidential,
//  and exempt from disclosure under the Freedom of Information Act,
//  5 U.S.C. Section 552. Furthermore, this information
//  is prohibited from disclosure under the Trade Secrets Act,
//  18 U.S.C. Section 1905.
//
Loading sv_std.std
Loading work.bridge_if(fast)
Loading mtiUvm.uvm_pkg
Loading work.bridge_pkg(fast)
Loading mtiUvm.questa_uvm_pkg(fast)
Loading work.Top(fast)
Loading work.bridge_if(fast)
Loading work.rtl_top(fast)
Loading work.ahb(fast)
Loading work.apb_controller(fast)
Loading work.apb(fast)
# Loading /home/cad/eda/Questa_2019/questasim/uvm-1.1d/linux_x86_64/uvm_dpi.so
** Warning: (vsim-8634) Code was not compiled with coverage options.
Sv_Seed = 166858119
 log -r /* 
coverage save -onexit -assert -directive -cvg -codeAll mem_cov3
run -all
----------------------------------------------------------------
UVM-1.1d
(C) 2007-2013 Mentor Graphics Corporation
(C) 2007-2013 Cadence Design Systems, Inc.
(C) 2006-2013 Synopsys, Inc.
(C) 2011-2013 Cypress Semiconductor Corp.
----------------------------------------------------------------

  ***********       IMPORTANT RELEASE NOTES         ************

  You are using a version of the UVM library that has been compiled
  with `UVM_NO_DEPRECATED undefined.
  See http://www.eda.org/svdb/view.php?id=3313 for more details.

  You are using a version of the UVM library that has been compiled
  with `UVM_OBJECT_MUST_HAVE_CONSTRUCTOR undefined.
  See http://www.eda.org/svdb/view.php?id=3770 for more details.

      (Specify +UVM_NO_RELNOTES to turn off this notice)

UVM_INFO verilog_src/questa_uvm_pkg-1.2/src/questa_uvm_pkg.sv(277) @ 0: reporter [Questa UVM] QUESTA_UVM-1.2.3
UVM_INFO verilog_src/questa_uvm_pkg-1.2/src/questa_uvm_pkg.sv(278) @ 0: reporter [Questa UVM]  questa_uvm::init(+struct)
UVM_INFO @ 0: reporter [RNTST] Running test wrap_transfer_test...
UVM_INFO @ 0: reporter [UVMTOP] UVM testbench topology:
--------------------------------------------------------------------
Name                         Type                        Size  Value
--------------------------------------------------------------------
uvm_test_top                 wrap_transfer_test          -     @476 
  envh                       Tb                          -     @492 
    ahb_top                  ahb_agent_top               -     @500 
      hagnt[0]               ahb_agent                   -     @631 
        hdrv                 ahb_drv                     -     @659 
          rsp_port           uvm_analysis_port           -     @674 
          seq_item_port      uvm_seq_item_pull_port      -     @666 
        hmon                 ahb_mon                     -     @644 
          monitor_port       uvm_analysis_port           -     @651 
        hseqr                ahb_seqr                    -     @682 
          rsp_export         uvm_analysis_export         -     @689 
          seq_item_export    uvm_seq_item_pull_imp       -     @783 
          arbitration_queue  array                       0     -    
          lock_queue         array                       0     -    
          num_last_reqs      integral                    32    'd1  
          num_last_rsps      integral                    32    'd1  
    apb_top                  apb_agt_top                 -     @507 
      hagnt[0]               apb_agent                   -     @803 
        driver_h             apb_driver                  -     @827 
          rsp_port           uvm_analysis_port           -     @842 
          seq_item_port      uvm_seq_item_pull_port      -     @834 
        hmon                 apb_monitor                 -     @812 
          monitor_port       uvm_analysis_port           -     @819 
    sb                       scoreboard                  -     @623 
      fifo_ahb_h[0]          uvm_tlm_analysis_fifo #(T)  -     @853 
        analysis_export      uvm_analysis_imp            -     @892 
        get_ap               uvm_analysis_port           -     @884 
        get_peek_export      uvm_get_peek_imp            -     @868 
        put_ap               uvm_analysis_port           -     @876 
        put_export           uvm_put_imp                 -     @860 
      fifo_apb_h[0]          uvm_tlm_analysis_fifo #(T)  -     @900 
        analysis_export      uvm_analysis_imp            -     @939 
        get_ap               uvm_analysis_port           -     @931 
        get_peek_export      uvm_get_peek_imp            -     @915 
        put_ap               uvm_analysis_port           -     @923 
        put_export           uvm_put_imp                 -     @907 
    v_sequencer              virtual_sequencer           -     @514 
      rsp_export             uvm_analysis_export         -     @521 
      seq_item_export        uvm_seq_item_pull_imp       -     @615 
      arbitration_queue      array                       0     -    
      lock_queue             array                       0     -    
      num_last_reqs          integral                    32    'd1  
      num_last_rsps          integral                    32    'd1  
--------------------------------------------------------------------

UVM_INFO @ 0: reporter [UVMTOP] UVM testbench topology:
--------------------------------------------------------------------
Name                         Type                        Size  Value
--------------------------------------------------------------------
uvm_test_top                 wrap_transfer_test          -     @476 
  envh                       Tb                          -     @492 
    ahb_top                  ahb_agent_top               -     @500 
      hagnt[0]               ahb_agent                   -     @631 
        hdrv                 ahb_drv                     -     @659 
          rsp_port           uvm_analysis_port           -     @674 
          seq_item_port      uvm_seq_item_pull_port      -     @666 
        hmon                 ahb_mon                     -     @644 
          monitor_port       uvm_analysis_port           -     @651 
        hseqr                ahb_seqr                    -     @682 
          rsp_export         uvm_analysis_export         -     @689 
          seq_item_export    uvm_seq_item_pull_imp       -     @783 
          arbitration_queue  array                       0     -    
          lock_queue         array                       0     -    
          num_last_reqs      integral                    32    'd1  
          num_last_rsps      integral                    32    'd1  
    apb_top                  apb_agt_top                 -     @507 
      hagnt[0]               apb_agent                   -     @803 
        driver_h             apb_driver                  -     @827 
          rsp_port           uvm_analysis_port           -     @842 
          seq_item_port      uvm_seq_item_pull_port      -     @834 
        hmon                 apb_monitor                 -     @812 
          monitor_port       uvm_analysis_port           -     @819 
    sb                       scoreboard                  -     @623 
      fifo_ahb_h[0]          uvm_tlm_analysis_fifo #(T)  -     @853 
        analysis_export      uvm_analysis_imp            -     @892 
        get_ap               uvm_analysis_port           -     @884 
        get_peek_export      uvm_get_peek_imp            -     @868 
        put_ap               uvm_analysis_port           -     @876 
        put_export           uvm_put_imp                 -     @860 
      fifo_apb_h[0]          uvm_tlm_analysis_fifo #(T)  -     @900 
        analysis_export      uvm_analysis_imp            -     @939 
        get_ap               uvm_analysis_port           -     @931 
        get_peek_export      uvm_get_peek_imp            -     @915 
        put_ap               uvm_analysis_port           -     @923 
        put_export           uvm_put_imp                 -     @907 
    v_sequencer              virtual_sequencer           -     @514 
      rsp_export             uvm_analysis_export         -     @521 
      seq_item_export        uvm_seq_item_pull_imp       -     @615 
      arbitration_queue      array                       0     -    
      lock_queue             array                       0     -    
      num_last_reqs          integral                    32    'd1  
      num_last_rsps          integral                    32    'd1  
--------------------------------------------------------------------

UVM_INFO ../apb_agent_top/apb_monitor.sv(36) @ 0: uvm_test_top.envh.apb_top.hagnt[0].hmon [APB_MONITOR] THIS IS APB MONITOR IN RUN
UVM_INFO @ 0: reporter [UVMTOP] UVM testbench topology:
--------------------------------------------------------------------
Name                         Type                        Size  Value
--------------------------------------------------------------------
uvm_test_top                 wrap_transfer_test          -     @476 
  envh                       Tb                          -     @492 
    ahb_top                  ahb_agent_top               -     @500 
      hagnt[0]               ahb_agent                   -     @631 
        hdrv                 ahb_drv                     -     @659 
          rsp_port           uvm_analysis_port           -     @674 
          seq_item_port      uvm_seq_item_pull_port      -     @666 
        hmon                 ahb_mon                     -     @644 
          monitor_port       uvm_analysis_port           -     @651 
        hseqr                ahb_seqr                    -     @682 
          rsp_export         uvm_analysis_export         -     @689 
          seq_item_export    uvm_seq_item_pull_imp       -     @783 
          arbitration_queue  array                       0     -    
          lock_queue         array                       0     -    
          num_last_reqs      integral                    32    'd1  
          num_last_rsps      integral                    32    'd1  
    apb_top                  apb_agt_top                 -     @507 
      hagnt[0]               apb_agent                   -     @803 
        driver_h             apb_driver                  -     @827 
          rsp_port           uvm_analysis_port           -     @842 
          seq_item_port      uvm_seq_item_pull_port      -     @834 
        hmon                 apb_monitor                 -     @812 
          monitor_port       uvm_analysis_port           -     @819 
    sb                       scoreboard                  -     @623 
      fifo_ahb_h[0]          uvm_tlm_analysis_fifo #(T)  -     @853 
        analysis_export      uvm_analysis_imp            -     @892 
        get_ap               uvm_analysis_port           -     @884 
        get_peek_export      uvm_get_peek_imp            -     @868 
        put_ap               uvm_analysis_port           -     @876 
        put_export           uvm_put_imp                 -     @860 
      fifo_apb_h[0]          uvm_tlm_analysis_fifo #(T)  -     @900 
        analysis_export      uvm_analysis_imp            -     @939 
        get_ap               uvm_analysis_port           -     @931 
        get_peek_export      uvm_get_peek_imp            -     @915 
        put_ap               uvm_analysis_port           -     @923 
        put_export           uvm_put_imp                 -     @907 
    v_sequencer              virtual_sequencer           -     @514 
      rsp_export             uvm_analysis_export         -     @521 
      seq_item_export        uvm_seq_item_pull_imp       -     @615 
      arbitration_queue      array                       0     -    
      lock_queue             array                       0     -    
      num_last_reqs          integral                    32    'd1  
      num_last_rsps          integral                    32    'd1  
--------------------------------------------------------------------

inside DEFAULT state                  10
                  11 ENTERED:&&
                  11 ENTERED:&&
                  11 ENTERED:&&
UVM_INFO ../ahb_agent_top/ahb_seqs.sv(168) @ 20: uvm_test_top.envh.ahb_top.hagnt[0].hseqr@@wrap_seq [UNSPECIFIED_INCREMENT] Printing from seqs /n ------------------------------------------------------------------------------------------------
Name                           Type      Size  Value                                            
------------------------------------------------------------------------------------------------
req                            ahb_xtn   -     @971                                             
  begin_time                   time      64    20                                               
  depth                        int       32    'd2                                              
  parent sequence (name)       string    8     wrap_seq                                         
  parent sequence (full name)  string    49    uvm_test_top.envh.ahb_top.hagnt[0].hseqr.wrap_seq
  sequencer                    string    40    uvm_test_top.envh.ahb_top.hagnt[0].hseqr         
  Htrans                       integral  2     'd0                                              
  Hburst                       integral  3     6                                                
  Hsize                        integral  3     'd0                                              
  Haddr                        integral  32    'h8400025b                                       
  Hwdata                       integral  32    'h2a49768f                                       
  Hrdata                       integral  32    'h0                                              
  Hwrite                       integral  1     1                                                
------------------------------------------------------------------------------------------------

                  21 ENTERED:&&
                  30 ENTERED:&&
UVM_INFO ../ahb_agent_top/ahb_seqs.sv(199) @ 30: uvm_test_top.envh.ahb_top.hagnt[0].hseqr@@wrap_seq [UNSPECIFIED_INCREMENT] Printing from seqs /n ------------------------------------------------------------------------------------------------
Name                           Type      Size  Value                                            
------------------------------------------------------------------------------------------------
req                            ahb_xtn   -     @971                                             
  begin_time                   time      64    30                                               
  end_time                     time      64    30                                               
  depth                        int       32    'd2                                              
  parent sequence (name)       string    8     wrap_seq                                         
  parent sequence (full name)  string    49    uvm_test_top.envh.ahb_top.hagnt[0].hseqr.wrap_seq
  sequencer                    string    40    uvm_test_top.envh.ahb_top.hagnt[0].hseqr         
  Htrans                       integral  2     3                                                
  Hburst                       integral  3     6                                                
  Hsize                        integral  3     'd0                                              
  Haddr                        integral  32    'h8400025c                                       
  Hwdata                       integral  32    'h7daf4a8f                                       
  Hrdata                       integral  32    'h0                                              
  Hwrite                       integral  1     1                                                
------------------------------------------------------------------------------------------------

                  40 ENTERED:&&
UVM_INFO ../ahb_agent_top/ahb_seqs.sv(199) @ 40: uvm_test_top.envh.ahb_top.hagnt[0].hseqr@@wrap_seq [UNSPECIFIED_INCREMENT] Printing from seqs /n ------------------------------------------------------------------------------------------------
Name                           Type      Size  Value                                            
------------------------------------------------------------------------------------------------
req                            ahb_xtn   -     @971                                             
  begin_time                   time      64    40                                               
  end_time                     time      64    40                                               
  depth                        int       32    'd2                                              
  parent sequence (name)       string    8     wrap_seq                                         
  parent sequence (full name)  string    49    uvm_test_top.envh.ahb_top.hagnt[0].hseqr.wrap_seq
  sequencer                    string    40    uvm_test_top.envh.ahb_top.hagnt[0].hseqr         
  Htrans                       integral  2     3                                                
  Hburst                       integral  3     6                                                
  Hsize                        integral  3     'd0                                              
  Haddr                        integral  32    'h8400025d                                       
  Hwdata                       integral  32    'he2b6ff63                                       
  Hrdata                       integral  32    'h0                                              
  Hwrite                       integral  1     1                                                
------------------------------------------------------------------------------------------------

                  50Error due to sequence SEQ after IDLE &&&&&&&&&&&&&&&& 
                  50 ENTERED:&&
------------------------------------
Name      Type      Size  Value     
------------------------------------
xtn       ahb_xtn   -     @961      
  Htrans  integral  2     'd0       
  Hburst  integral  3     6         
  Hsize   integral  3     'd0       
  Haddr   integral  32    'h8400025b
  Hwdata  integral  32    'h7daf4a8f
  Hrdata  integral  32    'h0       
  Hwrite  integral  1     1         
------------------------------------
UVM_INFO ../ahb_agent_top/ahb_seqs.sv(199) @ 50: uvm_test_top.envh.ahb_top.hagnt[0].hseqr@@wrap_seq [UNSPECIFIED_INCREMENT] Printing from seqs /n ------------------------------------------------------------------------------------------------
Name                           Type      Size  Value                                            
------------------------------------------------------------------------------------------------
req                            ahb_xtn   -     @971                                             
  begin_time                   time      64    50                                               
  end_time                     time      64    50                                               
  depth                        int       32    'd2                                              
  parent sequence (name)       string    8     wrap_seq                                         
  parent sequence (full name)  string    49    uvm_test_top.envh.ahb_top.hagnt[0].hseqr.wrap_seq
  sequencer                    string    40    uvm_test_top.envh.ahb_top.hagnt[0].hseqr         
  Htrans                       integral  2     3                                                
  Hburst                       integral  3     6                                                
  Hsize                        integral  3     'd0                                              
  Haddr                        integral  32    'h8400025e                                       
  Hwdata                       integral  32    'h7be2c76b                                       
  Hrdata                       integral  32    'h0                                              
  Hwrite                       integral  1     1                                                
------------------------------------------------------------------------------------------------

Width = 32, size 8 bits
                  60 ENTERED:&&
                  60BYTE0_endian1
inside 2'B01 state                  60
------------------------------------
Name      Type      Size  Value     
------------------------------------
xtn       ahb_xtn   -     @1024     
  Htrans  integral  2     3         
  Hburst  integral  3     6         
  Hsize   integral  3     'd0       
  Haddr   integral  32    'h8400025c
  Hwdata  integral  32    'he2b6ff63
  Hrdata  integral  32    'h0       
  Hwrite  integral  1     1         
------------------------------------
UVM_INFO ../ahb_agent_top/ahb_seqs.sv(199) @ 60: uvm_test_top.envh.ahb_top.hagnt[0].hseqr@@wrap_seq [UNSPECIFIED_INCREMENT] Printing from seqs /n ------------------------------------------------------------------------------------------------
Name                           Type      Size  Value                                            
------------------------------------------------------------------------------------------------
req                            ahb_xtn   -     @971                                             
  begin_time                   time      64    60                                               
  end_time                     time      64    60                                               
  depth                        int       32    'd2                                              
  parent sequence (name)       string    8     wrap_seq                                         
  parent sequence (full name)  string    49    uvm_test_top.envh.ahb_top.hagnt[0].hseqr.wrap_seq
  sequencer                    string    40    uvm_test_top.envh.ahb_top.hagnt[0].hseqr         
  Htrans                       integral  2     3                                                
  Hburst                       integral  3     6                                                
  Hsize                        integral  3     'd0                                              
  Haddr                        integral  32    'h8400025f                                       
  Hwdata                       integral  32    'hfc18ea64                                       
  Hrdata                       integral  32    'h0                                              
  Hwrite                       integral  1     1                                                
------------------------------------------------------------------------------------------------

inside DEFAULT state                  70
                  70 ENTERED:&&
Width = 32, size 8 bits
                  80 ENTERED:&&
                  80BYTE0_endian1
                  80 ENTERED:&&
                  80BYTE2_endian1
UVM_INFO ../apb_agent_top/apb_monitor.sv(61) @ 80: uvm_test_top.envh.apb_top.hagnt[0].hmon [APB_MONITOR] Printing from apb_monitor /n "-------------------------------------
Name       Type      Size  Value     
-------------------------------------
xtn        apb_xtn   -     @955      
  Pwrite   integral  1     1         
  Penable  integral  1     1         
  Pselx    integral  4     'd2       
  Paddr    integral  32    'h8400025c
  Pwdata   integral  32    'h63      
  Prdata   integral  32    'h0       
-------------------------------------
"
-------------------------------------
Name       Type      Size  Value     
-------------------------------------
xtn        apb_xtn   -     @955      
  Pwrite   integral  1     1         
  Penable  integral  1     1         
  Pselx    integral  4     'd2       
  Paddr    integral  32    'h8400025c
  Pwdata   integral  32    'h63      
  Prdata   integral  32    'h0       
-------------------------------------
i am in scorbd '{m_leaf_name:"xtn", m_inst_id:1024, use_uvm_seeding:1, m_inst_count:1036, __m_uvm_status_container:@uvm_status_container@1, events:@uvm_object_string_pool__1@63, begin_event:@uvm_event@14, end_event:@uvm_event@15, m_transaction_id:-1, begin_time:18446744073709551615, end_time:18446744073709551615, accept_time:18446744073709551615, initiator:null, stream_handle:0, tr_handle:0, record_enable:0, m_recorder:null, m_sequence_id:-1, m_use_sequence_info:0, m_depth:1, m_sequencer:null, m_parent_sequence:null, print_sequence_info:0, m_client_str:"", m_client:null, m_rh:null, issued1:0, issued2:0, Haddr:2214593116, Hwdata:3803643747, Htrans:3, Hburst:6, Hsize:0, length:0, Hwrite:1, Hrdata:0, Hreadyin:1, Hreadyout:0, Hsel:0, type_name:"ahb_xtn"}
UVM_INFO ../tb/scoreboard.sv(179) @ 80: uvm_test_top.envh.sb [SB] Address compared successfully
UVM_INFO ../tb/scoreboard.sv(187) @ 80: uvm_test_top.envh.sb [SB] write data matched successfully
------------------------------------
Name      Type      Size  Value     
------------------------------------
xtn       ahb_xtn   -     @1028     
  Htrans  integral  2     3         
  Hburst  integral  3     6         
  Hsize   integral  3     'd0       
  Haddr   integral  32    'h8400025d
  Hwdata  integral  32    'h7be2c76b
  Hrdata  integral  32    'h0       
  Hwrite  integral  1     1         
------------------------------------
UVM_INFO ../ahb_agent_top/ahb_seqs.sv(199) @ 80: uvm_test_top.envh.ahb_top.hagnt[0].hseqr@@wrap_seq [UNSPECIFIED_INCREMENT] Printing from seqs /n ------------------------------------------------------------------------------------------------
Name                           Type      Size  Value                                            
------------------------------------------------------------------------------------------------
req                            ahb_xtn   -     @971                                             
  begin_time                   time      64    80                                               
  end_time                     time      64    80                                               
  depth                        int       32    'd2                                              
  parent sequence (name)       string    8     wrap_seq                                         
  parent sequence (full name)  string    49    uvm_test_top.envh.ahb_top.hagnt[0].hseqr.wrap_seq
  sequencer                    string    40    uvm_test_top.envh.ahb_top.hagnt[0].hseqr         
  Htrans                       integral  2     3                                                
  Hburst                       integral  3     6                                                
  Hsize                        integral  3     'd0                                              
  Haddr                        integral  32    'h84000250                                       
  Hwdata                       integral  32    'h5893531b                                       
  Hrdata                       integral  32    'h0                                              
  Hwrite                       integral  1     1                                                
------------------------------------------------------------------------------------------------

                  90 ENTERED:&&
@@@@@@@@@@@@@@@@@@@@@@@@@@@@@@@@@@@@@@@@@@@@@@@@@@@@@@@@@@@@----/Top/in0@@@@@@@@@@@
                 100 ENTERED:&&
UVM_INFO ../apb_agent_top/apb_monitor.sv(61) @ 100: uvm_test_top.envh.apb_top.hagnt[0].hmon [APB_MONITOR] Printing from apb_monitor /n "-------------------------------------
Name       Type      Size  Value     
-------------------------------------
xtn        apb_xtn   -     @1036     
  Pwrite   integral  1     1         
  Penable  integral  1     1         
  Pselx    integral  4     'd2       
  Paddr    integral  32    'h8400025e
  Pwdata   integral  32    'he2      
  Prdata   integral  32    'h0       
-------------------------------------
"
-------------------------------------
Name       Type      Size  Value     
-------------------------------------
xtn        apb_xtn   -     @1036     
  Pwrite   integral  1     1         
  Penable  integral  1     1         
  Pselx    integral  4     'd2       
  Paddr    integral  32    'h8400025e
  Pwdata   integral  32    'he2      
  Prdata   integral  32    'h0       
-------------------------------------
i am in scorbd '{m_leaf_name:"xtn", m_inst_id:1028, use_uvm_seeding:1, m_inst_count:1040, __m_uvm_status_container:@uvm_status_container@1, events:@uvm_object_string_pool__1@64, begin_event:@uvm_event@16, end_event:@uvm_event@17, m_transaction_id:-1, begin_time:18446744073709551615, end_time:18446744073709551615, accept_time:18446744073709551615, initiator:null, stream_handle:0, tr_handle:0, record_enable:0, m_recorder:null, m_sequence_id:-1, m_use_sequence_info:0, m_depth:1, m_sequencer:null, m_parent_sequence:null, print_sequence_info:0, m_client_str:"", m_client:null, m_rh:null, issued1:0, issued2:0, Haddr:2214593117, Hwdata:2078459755, Htrans:3, Hburst:6, Hsize:0, length:0, Hwrite:1, Hrdata:0, Hreadyin:1, Hreadyout:0, Hsel:0, type_name:"ahb_xtn"}
UVM_INFO ../tb/scoreboard.sv(182) @ 100: uvm_test_top.envh.sb [SB] Address not compared successfully
UVM_INFO ../tb/scoreboard.sv(189) @ 100: uvm_test_top.envh.sb [SB] write data mismatched
                 110 ENTERED:&&
                 110BYTE2_endian1
                 110 ENTERED:&&
                 110BYTE0_endian1
@@@@@@@@@@@@@@@@@@@@@@@@@@@@@@@@@@@@@@@@@@@@@@@@@@@@@@@@@@@@----/Top/in0@@@@@@@@@@@
                 120 ENTERED:&&
Width = 32, size 8 bits
                 130 ENTERED:&&
                 130BYTE0_endian1
UVM_INFO ../apb_agent_top/apb_monitor.sv(61) @ 130: uvm_test_top.envh.apb_top.hagnt[0].hmon [APB_MONITOR] Printing from apb_monitor /n "-------------------------------------
Name       Type      Size  Value     
-------------------------------------
xtn        apb_xtn   -     @1040     
  Pwrite   integral  1     1         
  Penable  integral  1     1         
  Pselx    integral  4     'd2       
  Paddr    integral  32    'h84000250
  Pwdata   integral  32    'h64      
  Prdata   integral  32    'h0       
-------------------------------------
"
-------------------------------------
Name       Type      Size  Value     
-------------------------------------
xtn        apb_xtn   -     @1040     
  Pwrite   integral  1     1         
  Penable  integral  1     1         
  Pselx    integral  4     'd2       
  Paddr    integral  32    'h84000250
  Pwdata   integral  32    'h64      
  Prdata   integral  32    'h0       
-------------------------------------
i am in scorbd '{m_leaf_name:"xtn", m_inst_id:1028, use_uvm_seeding:1, m_inst_count:1048, __m_uvm_status_container:@uvm_status_container@1, events:@uvm_object_string_pool__1@64, begin_event:@uvm_event@16, end_event:@uvm_event@17, m_transaction_id:-1, begin_time:18446744073709551615, end_time:18446744073709551615, accept_time:18446744073709551615, initiator:null, stream_handle:0, tr_handle:0, record_enable:0, m_recorder:null, m_sequence_id:-1, m_use_sequence_info:0, m_depth:1, m_sequencer:null, m_parent_sequence:null, print_sequence_info:0, m_client_str:"", m_client:null, m_rh:null, issued1:0, issued2:0, Haddr:2214593117, Hwdata:2078459755, Htrans:3, Hburst:6, Hsize:0, length:0, Hwrite:1, Hrdata:0, Hreadyin:1, Hreadyout:0, Hsel:0, type_name:"ahb_xtn"}
UVM_INFO ../tb/scoreboard.sv(182) @ 130: uvm_test_top.envh.sb [SB] Address not compared successfully
UVM_INFO ../tb/scoreboard.sv(189) @ 130: uvm_test_top.envh.sb [SB] write data mismatched
------------------------------------
Name      Type      Size  Value     
------------------------------------
xtn       ahb_xtn   -     @1032     
  Htrans  integral  2     3         
  Hburst  integral  3     6         
  Hsize   integral  3     'd0       
  Haddr   integral  32    'h8400025f
  Hwdata  integral  32    'hfc18ea64
  Hrdata  integral  32    'h0       
  Hwrite  integral  1     1         
------------------------------------
UVM_INFO ../ahb_agent_top/ahb_seqs.sv(199) @ 130: uvm_test_top.envh.ahb_top.hagnt[0].hseqr@@wrap_seq [UNSPECIFIED_INCREMENT] Printing from seqs /n ------------------------------------------------------------------------------------------------
Name                           Type      Size  Value                                            
------------------------------------------------------------------------------------------------
req                            ahb_xtn   -     @971                                             
  begin_time                   time      64    130                                              
  end_time                     time      64    130                                              
  depth                        int       32    'd2                                              
  parent sequence (name)       string    8     wrap_seq                                         
  parent sequence (full name)  string    49    uvm_test_top.envh.ahb_top.hagnt[0].hseqr.wrap_seq
  sequencer                    string    40    uvm_test_top.envh.ahb_top.hagnt[0].hseqr         
  Htrans                       integral  2     3                                                
  Hburst                       integral  3     6                                                
  Hsize                        integral  3     'd0                                              
  Haddr                        integral  32    'h84000251                                       
  Hwdata                       integral  32    'h8adc9157                                       
  Hrdata                       integral  32    'h0                                              
  Hwrite                       integral  1     1                                                
------------------------------------------------------------------------------------------------

                 140 ENTERED:&&
@@@@@@@@@@@@@@@@@@@@@@@@@@@@@@@@@@@@@@@@@@@@@@@@@@@@@@@@@@@@----/Top/in0@@@@@@@@@@@
Width = 32, size 8 bits
                 150 ENTERED:&&
                 150BYTE0_endian1
UVM_INFO ../apb_agent_top/apb_monitor.sv(61) @ 150: uvm_test_top.envh.apb_top.hagnt[0].hmon [APB_MONITOR] Printing from apb_monitor /n "-------------------------------------
Name       Type      Size  Value     
-------------------------------------
xtn        apb_xtn   -     @1048     
  Pwrite   integral  1     1         
  Penable  integral  1     1         
  Pselx    integral  4     'd2       
  Paddr    integral  32    'h84000250
  Pwdata   integral  32    'h64      
  Prdata   integral  32    'h0       
-------------------------------------
"
------------------------------------
Name      Type      Size  Value     
------------------------------------
xtn       ahb_xtn   -     @1044     
  Htrans  integral  2     3         
  Hburst  integral  3     6         
  Hsize   integral  3     'd0       
  Haddr   integral  32    'h84000250
  Hwdata  integral  32    'h5893531b
  Hrdata  integral  32    'h0       
  Hwrite  integral  1     1         
------------------------------------
-------------------------------------
Name       Type      Size  Value     
-------------------------------------
xtn        apb_xtn   -     @1048     
  Pwrite   integral  1     1         
  Penable  integral  1     1         
  Pselx    integral  4     'd2       
  Paddr    integral  32    'h84000250
  Pwdata   integral  32    'h64      
  Prdata   integral  32    'h0       
-------------------------------------
i am in scorbd '{m_leaf_name:"xtn", m_inst_id:1044, use_uvm_seeding:1, m_inst_count:1056, __m_uvm_status_container:@uvm_status_container@1, events:@uvm_object_string_pool__1@68, begin_event:@uvm_event@24, end_event:@uvm_event@25, m_transaction_id:-1, begin_time:18446744073709551615, end_time:18446744073709551615, accept_time:18446744073709551615, initiator:null, stream_handle:0, tr_handle:0, record_enable:0, m_recorder:null, m_sequence_id:-1, m_use_sequence_info:0, m_depth:1, m_sequencer:null, m_parent_sequence:null, print_sequence_info:0, m_client_str:"", m_client:null, m_rh:null, issued1:0, issued2:0, Haddr:2214593104, Hwdata:1486050075, Htrans:3, Hburst:6, Hsize:0, length:0, Hwrite:1, Hrdata:0, Hreadyin:1, Hreadyout:0, Hsel:0, type_name:"ahb_xtn"}
UVM_INFO ../tb/scoreboard.sv(179) @ 150: uvm_test_top.envh.sb [SB] Address compared successfully
UVM_INFO ../tb/scoreboard.sv(189) @ 150: uvm_test_top.envh.sb [SB] write data mismatched
UVM_INFO ../ahb_agent_top/ahb_seqs.sv(199) @ 150: uvm_test_top.envh.ahb_top.hagnt[0].hseqr@@wrap_seq [UNSPECIFIED_INCREMENT] Printing from seqs /n ------------------------------------------------------------------------------------------------
Name                           Type      Size  Value                                            
------------------------------------------------------------------------------------------------
req                            ahb_xtn   -     @971                                             
  begin_time                   time      64    150                                              
  end_time                     time      64    150                                              
  depth                        int       32    'd2                                              
  parent sequence (name)       string    8     wrap_seq                                         
  parent sequence (full name)  string    49    uvm_test_top.envh.ahb_top.hagnt[0].hseqr.wrap_seq
  sequencer                    string    40    uvm_test_top.envh.ahb_top.hagnt[0].hseqr         
  Htrans                       integral  2     3                                                
  Hburst                       integral  3     6                                                
  Hsize                        integral  3     'd0                                              
  Haddr                        integral  32    'h84000252                                       
  Hwdata                       integral  32    'h67d6228f                                       
  Hrdata                       integral  32    'h0                                              
  Hwrite                       integral  1     1                                                
------------------------------------------------------------------------------------------------

                 160 ENTERED:&&
@@@@@@@@@@@@@@@@@@@@@@@@@@@@@@@@@@@@@@@@@@@@@@@@@@@@@@@@@@@@----/Top/in0@@@@@@@@@@@
Width = 32, size 8 bits
                 170 ENTERED:&&
                 170BYTE0_endian1
                 170 ENTERED:&&
                 170BYTE1_endian1
UVM_INFO ../apb_agent_top/apb_monitor.sv(61) @ 170: uvm_test_top.envh.apb_top.hagnt[0].hmon [APB_MONITOR] Printing from apb_monitor /n "-------------------------------------
Name       Type      Size  Value     
-------------------------------------
xtn        apb_xtn   -     @1056     
  Pwrite   integral  1     1         
  Penable  integral  1     1         
  Pselx    integral  4     'd2       
  Paddr    integral  32    'h84000250
  Pwdata   integral  32    'h1b      
  Prdata   integral  32    'h0       
-------------------------------------
"
------------------------------------
Name      Type      Size  Value     
------------------------------------
xtn       ahb_xtn   -     @1052     
  Htrans  integral  2     3         
  Hburst  integral  3     6         
  Hsize   integral  3     'd0       
  Haddr   integral  32    'h84000251
  Hwdata  integral  32    'h8adc9157
  Hrdata  integral  32    'h0       
  Hwrite  integral  1     1         
------------------------------------
-------------------------------------
Name       Type      Size  Value     
-------------------------------------
xtn        apb_xtn   -     @1056     
  Pwrite   integral  1     1         
  Penable  integral  1     1         
  Pselx    integral  4     'd2       
  Paddr    integral  32    'h84000250
  Pwdata   integral  32    'h1b      
  Prdata   integral  32    'h0       
-------------------------------------
i am in scorbd '{m_leaf_name:"xtn", m_inst_id:1052, use_uvm_seeding:1, m_inst_count:1064, __m_uvm_status_container:@uvm_status_container@1, events:@uvm_object_string_pool__1@70, begin_event:@uvm_event@28, end_event:@uvm_event@29, m_transaction_id:-1, begin_time:18446744073709551615, end_time:18446744073709551615, accept_time:18446744073709551615, initiator:null, stream_handle:0, tr_handle:0, record_enable:0, m_recorder:null, m_sequence_id:-1, m_use_sequence_info:0, m_depth:1, m_sequencer:null, m_parent_sequence:null, print_sequence_info:0, m_client_str:"", m_client:null, m_rh:null, issued1:0, issued2:0, Haddr:2214593105, Hwdata:2329710935, Htrans:3, Hburst:6, Hsize:0, length:0, Hwrite:1, Hrdata:0, Hreadyin:1, Hreadyout:0, Hsel:0, type_name:"ahb_xtn"}
UVM_INFO ../tb/scoreboard.sv(182) @ 170: uvm_test_top.envh.sb [SB] Address not compared successfully
UVM_INFO ../tb/scoreboard.sv(189) @ 170: uvm_test_top.envh.sb [SB] write data mismatched
UVM_INFO ../ahb_agent_top/ahb_seqs.sv(199) @ 170: uvm_test_top.envh.ahb_top.hagnt[0].hseqr@@wrap_seq [UNSPECIFIED_INCREMENT] Printing from seqs /n ------------------------------------------------------------------------------------------------
Name                           Type      Size  Value                                            
------------------------------------------------------------------------------------------------
req                            ahb_xtn   -     @971                                             
  begin_time                   time      64    170                                              
  end_time                     time      64    170                                              
  depth                        int       32    'd2                                              
  parent sequence (name)       string    8     wrap_seq                                         
  parent sequence (full name)  string    49    uvm_test_top.envh.ahb_top.hagnt[0].hseqr.wrap_seq
  sequencer                    string    40    uvm_test_top.envh.ahb_top.hagnt[0].hseqr         
  Htrans                       integral  2     3                                                
  Hburst                       integral  3     6                                                
  Hsize                        integral  3     'd0                                              
  Haddr                        integral  32    'h84000253                                       
  Hwdata                       integral  32    'hc4cff133                                       
  Hrdata                       integral  32    'h0                                              
  Hwrite                       integral  1     1                                                
------------------------------------------------------------------------------------------------

                 180 ENTERED:&&
@@@@@@@@@@@@@@@@@@@@@@@@@@@@@@@@@@@@@@@@@@@@@@@@@@@@@@@@@@@@----/Top/in0@@@@@@@@@@@
Width = 32, size 8 bits
                 190 ENTERED:&&
                 190BYTE1_endian1
                 190 ENTERED:&&
                 190BYTE2_endian1
UVM_INFO ../apb_agent_top/apb_monitor.sv(61) @ 190: uvm_test_top.envh.apb_top.hagnt[0].hmon [APB_MONITOR] Printing from apb_monitor /n "-------------------------------------
Name       Type      Size  Value     
-------------------------------------
xtn        apb_xtn   -     @1064     
  Pwrite   integral  1     1         
  Penable  integral  1     1         
  Pselx    integral  4     'd2       
  Paddr    integral  32    'h84000251
  Pwdata   integral  32    'h91      
  Prdata   integral  32    'h0       
-------------------------------------
"
------------------------------------
Name      Type      Size  Value     
------------------------------------
xtn       ahb_xtn   -     @1060     
  Htrans  integral  2     3         
  Hburst  integral  3     6         
  Hsize   integral  3     'd0       
  Haddr   integral  32    'h84000252
  Hwdata  integral  32    'h67d6228f
  Hrdata  integral  32    'h0       
  Hwrite  integral  1     1         
------------------------------------
-------------------------------------
Name       Type      Size  Value     
-------------------------------------
xtn        apb_xtn   -     @1064     
  Pwrite   integral  1     1         
  Penable  integral  1     1         
  Pselx    integral  4     'd2       
  Paddr    integral  32    'h84000251
  Pwdata   integral  32    'h91      
  Prdata   integral  32    'h0       
-------------------------------------
i am in scorbd '{m_leaf_name:"xtn", m_inst_id:1060, use_uvm_seeding:1, m_inst_count:1072, __m_uvm_status_container:@uvm_status_container@1, events:@uvm_object_string_pool__1@72, begin_event:@uvm_event@32, end_event:@uvm_event@33, m_transaction_id:-1, begin_time:18446744073709551615, end_time:18446744073709551615, accept_time:18446744073709551615, initiator:null, stream_handle:0, tr_handle:0, record_enable:0, m_recorder:null, m_sequence_id:-1, m_use_sequence_info:0, m_depth:1, m_sequencer:null, m_parent_sequence:null, print_sequence_info:0, m_client_str:"", m_client:null, m_rh:null, issued1:0, issued2:0, Haddr:2214593106, Hwdata:1742086799, Htrans:3, Hburst:6, Hsize:0, length:0, Hwrite:1, Hrdata:0, Hreadyin:1, Hreadyout:0, Hsel:0, type_name:"ahb_xtn"}
UVM_INFO ../tb/scoreboard.sv(182) @ 190: uvm_test_top.envh.sb [SB] Address not compared successfully
UVM_INFO ../tb/scoreboard.sv(189) @ 190: uvm_test_top.envh.sb [SB] write data mismatched
UVM_INFO ../ahb_agent_top/ahb_seqs.sv(199) @ 190: uvm_test_top.envh.ahb_top.hagnt[0].hseqr@@wrap_seq [UNSPECIFIED_INCREMENT] Printing from seqs /n ------------------------------------------------------------------------------------------------
Name                           Type      Size  Value                                            
------------------------------------------------------------------------------------------------
req                            ahb_xtn   -     @971                                             
  begin_time                   time      64    190                                              
  end_time                     time      64    190                                              
  depth                        int       32    'd2                                              
  parent sequence (name)       string    8     wrap_seq                                         
  parent sequence (full name)  string    49    uvm_test_top.envh.ahb_top.hagnt[0].hseqr.wrap_seq
  sequencer                    string    40    uvm_test_top.envh.ahb_top.hagnt[0].hseqr         
  Htrans                       integral  2     3                                                
  Hburst                       integral  3     6                                                
  Hsize                        integral  3     'd0                                              
  Haddr                        integral  32    'h84000254                                       
  Hwdata                       integral  32    'hf60035c2                                       
  Hrdata                       integral  32    'h0                                              
  Hwrite                       integral  1     1                                                
------------------------------------------------------------------------------------------------

                 200 ENTERED:&&
@@@@@@@@@@@@@@@@@@@@@@@@@@@@@@@@@@@@@@@@@@@@@@@@@@@@@@@@@@@@----/Top/in0@@@@@@@@@@@
Width = 32, size 8 bits
                 210 ENTERED:&&
                 210BYTE2_endian1
                 210 ENTERED:&&
                 210BYTE3_endian1
UVM_INFO ../apb_agent_top/apb_monitor.sv(61) @ 210: uvm_test_top.envh.apb_top.hagnt[0].hmon [APB_MONITOR] Printing from apb_monitor /n "-------------------------------------
Name       Type      Size  Value     
-------------------------------------
xtn        apb_xtn   -     @1072     
  Pwrite   integral  1     1         
  Penable  integral  1     1         
  Pselx    integral  4     'd2       
  Paddr    integral  32    'h84000252
  Pwdata   integral  32    'hd6      
  Prdata   integral  32    'h0       
-------------------------------------
"
------------------------------------
Name      Type      Size  Value     
------------------------------------
xtn       ahb_xtn   -     @1068     
  Htrans  integral  2     3         
  Hburst  integral  3     6         
  Hsize   integral  3     'd0       
  Haddr   integral  32    'h84000253
  Hwdata  integral  32    'hc4cff133
  Hrdata  integral  32    'h0       
  Hwrite  integral  1     1         
------------------------------------
-------------------------------------
Name       Type      Size  Value     
-------------------------------------
xtn        apb_xtn   -     @1072     
  Pwrite   integral  1     1         
  Penable  integral  1     1         
  Pselx    integral  4     'd2       
  Paddr    integral  32    'h84000252
  Pwdata   integral  32    'hd6      
  Prdata   integral  32    'h0       
-------------------------------------
i am in scorbd '{m_leaf_name:"xtn", m_inst_id:1068, use_uvm_seeding:1, m_inst_count:1080, __m_uvm_status_container:@uvm_status_container@1, events:@uvm_object_string_pool__1@74, begin_event:@uvm_event@36, end_event:@uvm_event@37, m_transaction_id:-1, begin_time:18446744073709551615, end_time:18446744073709551615, accept_time:18446744073709551615, initiator:null, stream_handle:0, tr_handle:0, record_enable:0, m_recorder:null, m_sequence_id:-1, m_use_sequence_info:0, m_depth:1, m_sequencer:null, m_parent_sequence:null, print_sequence_info:0, m_client_str:"", m_client:null, m_rh:null, issued1:0, issued2:0, Haddr:2214593107, Hwdata:3301962035, Htrans:3, Hburst:6, Hsize:0, length:0, Hwrite:1, Hrdata:0, Hreadyin:1, Hreadyout:0, Hsel:0, type_name:"ahb_xtn"}
UVM_INFO ../tb/scoreboard.sv(182) @ 210: uvm_test_top.envh.sb [SB] Address not compared successfully
UVM_INFO ../tb/scoreboard.sv(189) @ 210: uvm_test_top.envh.sb [SB] write data mismatched
UVM_INFO ../ahb_agent_top/ahb_seqs.sv(199) @ 210: uvm_test_top.envh.ahb_top.hagnt[0].hseqr@@wrap_seq [UNSPECIFIED_INCREMENT] Printing from seqs /n ------------------------------------------------------------------------------------------------
Name                           Type      Size  Value                                            
------------------------------------------------------------------------------------------------
req                            ahb_xtn   -     @971                                             
  begin_time                   time      64    210                                              
  end_time                     time      64    210                                              
  depth                        int       32    'd2                                              
  parent sequence (name)       string    8     wrap_seq                                         
  parent sequence (full name)  string    49    uvm_test_top.envh.ahb_top.hagnt[0].hseqr.wrap_seq
  sequencer                    string    40    uvm_test_top.envh.ahb_top.hagnt[0].hseqr         
  Htrans                       integral  2     3                                                
  Hburst                       integral  3     6                                                
  Hsize                        integral  3     'd0                                              
  Haddr                        integral  32    'h84000255                                       
  Hwdata                       integral  32    'h95cb3020                                       
  Hrdata                       integral  32    'h0                                              
  Hwrite                       integral  1     1                                                
------------------------------------------------------------------------------------------------

                 220 ENTERED:&&
@@@@@@@@@@@@@@@@@@@@@@@@@@@@@@@@@@@@@@@@@@@@@@@@@@@@@@@@@@@@----/Top/in0@@@@@@@@@@@
Width = 32, size 8 bits
                 230 ENTERED:&&
                 230BYTE3_endian1
                 230 ENTERED:&&
                 230BYTE0_endian1
UVM_INFO ../apb_agent_top/apb_monitor.sv(61) @ 230: uvm_test_top.envh.apb_top.hagnt[0].hmon [APB_MONITOR] Printing from apb_monitor /n "-------------------------------------
Name       Type      Size  Value     
-------------------------------------
xtn        apb_xtn   -     @1080     
  Pwrite   integral  1     1         
  Penable  integral  1     1         
  Pselx    integral  4     'd2       
  Paddr    integral  32    'h84000253
  Pwdata   integral  32    'hc4      
  Prdata   integral  32    'h0       
-------------------------------------
"
------------------------------------
Name      Type      Size  Value     
------------------------------------
xtn       ahb_xtn   -     @1076     
  Htrans  integral  2     3         
  Hburst  integral  3     6         
  Hsize   integral  3     'd0       
  Haddr   integral  32    'h84000254
  Hwdata  integral  32    'hf60035c2
  Hrdata  integral  32    'h0       
  Hwrite  integral  1     1         
------------------------------------
-------------------------------------
Name       Type      Size  Value     
-------------------------------------
xtn        apb_xtn   -     @1080     
  Pwrite   integral  1     1         
  Penable  integral  1     1         
  Pselx    integral  4     'd2       
  Paddr    integral  32    'h84000253
  Pwdata   integral  32    'hc4      
  Prdata   integral  32    'h0       
-------------------------------------
i am in scorbd '{m_leaf_name:"xtn", m_inst_id:1076, use_uvm_seeding:1, m_inst_count:1088, __m_uvm_status_container:@uvm_status_container@1, events:@uvm_object_string_pool__1@76, begin_event:@uvm_event@40, end_event:@uvm_event@41, m_transaction_id:-1, begin_time:18446744073709551615, end_time:18446744073709551615, accept_time:18446744073709551615, initiator:null, stream_handle:0, tr_handle:0, record_enable:0, m_recorder:null, m_sequence_id:-1, m_use_sequence_info:0, m_depth:1, m_sequencer:null, m_parent_sequence:null, print_sequence_info:0, m_client_str:"", m_client:null, m_rh:null, issued1:0, issued2:0, Haddr:2214593108, Hwdata:4127208898, Htrans:3, Hburst:6, Hsize:0, length:0, Hwrite:1, Hrdata:0, Hreadyin:1, Hreadyout:0, Hsel:0, type_name:"ahb_xtn"}
UVM_INFO ../tb/scoreboard.sv(182) @ 230: uvm_test_top.envh.sb [SB] Address not compared successfully
UVM_INFO ../tb/scoreboard.sv(189) @ 230: uvm_test_top.envh.sb [SB] write data mismatched
UVM_INFO ../ahb_agent_top/ahb_seqs.sv(199) @ 230: uvm_test_top.envh.ahb_top.hagnt[0].hseqr@@wrap_seq [UNSPECIFIED_INCREMENT] Printing from seqs /n ------------------------------------------------------------------------------------------------
Name                           Type      Size  Value                                            
------------------------------------------------------------------------------------------------
req                            ahb_xtn   -     @971                                             
  begin_time                   time      64    230                                              
  end_time                     time      64    230                                              
  depth                        int       32    'd2                                              
  parent sequence (name)       string    8     wrap_seq                                         
  parent sequence (full name)  string    49    uvm_test_top.envh.ahb_top.hagnt[0].hseqr.wrap_seq
  sequencer                    string    40    uvm_test_top.envh.ahb_top.hagnt[0].hseqr         
  Htrans                       integral  2     3                                                
  Hburst                       integral  3     6                                                
  Hsize                        integral  3     'd0                                              
  Haddr                        integral  32    'h84000256                                       
  Hwdata                       integral  32    'ha7ea46d9                                       
  Hrdata                       integral  32    'h0                                              
  Hwrite                       integral  1     1                                                
------------------------------------------------------------------------------------------------

                 240 ENTERED:&&
@@@@@@@@@@@@@@@@@@@@@@@@@@@@@@@@@@@@@@@@@@@@@@@@@@@@@@@@@@@@----/Top/in0@@@@@@@@@@@
Width = 32, size 8 bits
                 250 ENTERED:&&
                 250BYTE0_endian1
                 250 ENTERED:&&
                 250BYTE1_endian1
UVM_INFO ../apb_agent_top/apb_monitor.sv(61) @ 250: uvm_test_top.envh.apb_top.hagnt[0].hmon [APB_MONITOR] Printing from apb_monitor /n "-------------------------------------
Name       Type      Size  Value     
-------------------------------------
xtn        apb_xtn   -     @1088     
  Pwrite   integral  1     1         
  Penable  integral  1     1         
  Pselx    integral  4     'd2       
  Paddr    integral  32    'h84000254
  Pwdata   integral  32    'hc2      
  Prdata   integral  32    'h0       
-------------------------------------
"
------------------------------------
Name      Type      Size  Value     
------------------------------------
xtn       ahb_xtn   -     @1084     
  Htrans  integral  2     3         
  Hburst  integral  3     6         
  Hsize   integral  3     'd0       
  Haddr   integral  32    'h84000255
  Hwdata  integral  32    'h95cb3020
  Hrdata  integral  32    'h0       
  Hwrite  integral  1     1         
------------------------------------
-------------------------------------
Name       Type      Size  Value     
-------------------------------------
xtn        apb_xtn   -     @1088     
  Pwrite   integral  1     1         
  Penable  integral  1     1         
  Pselx    integral  4     'd2       
  Paddr    integral  32    'h84000254
  Pwdata   integral  32    'hc2      
  Prdata   integral  32    'h0       
-------------------------------------
i am in scorbd '{m_leaf_name:"xtn", m_inst_id:1084, use_uvm_seeding:1, m_inst_count:1096, __m_uvm_status_container:@uvm_status_container@1, events:@uvm_object_string_pool__1@78, begin_event:@uvm_event@44, end_event:@uvm_event@45, m_transaction_id:-1, begin_time:18446744073709551615, end_time:18446744073709551615, accept_time:18446744073709551615, initiator:null, stream_handle:0, tr_handle:0, record_enable:0, m_recorder:null, m_sequence_id:-1, m_use_sequence_info:0, m_depth:1, m_sequencer:null, m_parent_sequence:null, print_sequence_info:0, m_client_str:"", m_client:null, m_rh:null, issued1:0, issued2:0, Haddr:2214593109, Hwdata:2513121312, Htrans:3, Hburst:6, Hsize:0, length:0, Hwrite:1, Hrdata:0, Hreadyin:1, Hreadyout:0, Hsel:0, type_name:"ahb_xtn"}
UVM_INFO ../tb/scoreboard.sv(182) @ 250: uvm_test_top.envh.sb [SB] Address not compared successfully
UVM_INFO ../tb/scoreboard.sv(189) @ 250: uvm_test_top.envh.sb [SB] write data mismatched
UVM_INFO ../ahb_agent_top/ahb_seqs.sv(199) @ 250: uvm_test_top.envh.ahb_top.hagnt[0].hseqr@@wrap_seq [UNSPECIFIED_INCREMENT] Printing from seqs /n ------------------------------------------------------------------------------------------------
Name                           Type      Size  Value                                            
------------------------------------------------------------------------------------------------
req                            ahb_xtn   -     @971                                             
  begin_time                   time      64    250                                              
  end_time                     time      64    250                                              
  depth                        int       32    'd2                                              
  parent sequence (name)       string    8     wrap_seq                                         
  parent sequence (full name)  string    49    uvm_test_top.envh.ahb_top.hagnt[0].hseqr.wrap_seq
  sequencer                    string    40    uvm_test_top.envh.ahb_top.hagnt[0].hseqr         
  Htrans                       integral  2     3                                                
  Hburst                       integral  3     6                                                
  Hsize                        integral  3     'd0                                              
  Haddr                        integral  32    'h84000257                                       
  Hwdata                       integral  32    'hc8930c69                                       
  Hrdata                       integral  32    'h0                                              
  Hwrite                       integral  1     1                                                
------------------------------------------------------------------------------------------------

                 260 ENTERED:&&
@@@@@@@@@@@@@@@@@@@@@@@@@@@@@@@@@@@@@@@@@@@@@@@@@@@@@@@@@@@@----/Top/in0@@@@@@@@@@@
Width = 32, size 8 bits
                 270 ENTERED:&&
                 270BYTE1_endian1
                 270 ENTERED:&&
                 270BYTE2_endian1
UVM_INFO ../apb_agent_top/apb_monitor.sv(61) @ 270: uvm_test_top.envh.apb_top.hagnt[0].hmon [APB_MONITOR] Printing from apb_monitor /n "-------------------------------------
Name       Type      Size  Value     
-------------------------------------
xtn        apb_xtn   -     @1096     
  Pwrite   integral  1     1         
  Penable  integral  1     1         
  Pselx    integral  4     'd2       
  Paddr    integral  32    'h84000255
  Pwdata   integral  32    'h30      
  Prdata   integral  32    'h0       
-------------------------------------
"
------------------------------------
Name      Type      Size  Value     
------------------------------------
xtn       ahb_xtn   -     @1092     
  Htrans  integral  2     3         
  Hburst  integral  3     6         
  Hsize   integral  3     'd0       
  Haddr   integral  32    'h84000256
  Hwdata  integral  32    'ha7ea46d9
  Hrdata  integral  32    'h0       
  Hwrite  integral  1     1         
------------------------------------
-------------------------------------
Name       Type      Size  Value     
-------------------------------------
xtn        apb_xtn   -     @1096     
  Pwrite   integral  1     1         
  Penable  integral  1     1         
  Pselx    integral  4     'd2       
  Paddr    integral  32    'h84000255
  Pwdata   integral  32    'h30      
  Prdata   integral  32    'h0       
-------------------------------------
i am in scorbd '{m_leaf_name:"xtn", m_inst_id:1092, use_uvm_seeding:1, m_inst_count:1104, __m_uvm_status_container:@uvm_status_container@1, events:@uvm_object_string_pool__1@80, begin_event:@uvm_event@48, end_event:@uvm_event@49, m_transaction_id:-1, begin_time:18446744073709551615, end_time:18446744073709551615, accept_time:18446744073709551615, initiator:null, stream_handle:0, tr_handle:0, record_enable:0, m_recorder:null, m_sequence_id:-1, m_use_sequence_info:0, m_depth:1, m_sequencer:null, m_parent_sequence:null, print_sequence_info:0, m_client_str:"", m_client:null, m_rh:null, issued1:0, issued2:0, Haddr:2214593110, Hwdata:2817148633, Htrans:3, Hburst:6, Hsize:0, length:0, Hwrite:1, Hrdata:0, Hreadyin:1, Hreadyout:0, Hsel:0, type_name:"ahb_xtn"}
UVM_INFO ../tb/scoreboard.sv(182) @ 270: uvm_test_top.envh.sb [SB] Address not compared successfully
UVM_INFO ../tb/scoreboard.sv(189) @ 270: uvm_test_top.envh.sb [SB] write data mismatched
UVM_INFO ../ahb_agent_top/ahb_seqs.sv(199) @ 270: uvm_test_top.envh.ahb_top.hagnt[0].hseqr@@wrap_seq [UNSPECIFIED_INCREMENT] Printing from seqs /n ------------------------------------------------------------------------------------------------
Name                           Type      Size  Value                                            
------------------------------------------------------------------------------------------------
req                            ahb_xtn   -     @971                                             
  begin_time                   time      64    270                                              
  end_time                     time      64    270                                              
  depth                        int       32    'd2                                              
  parent sequence (name)       string    8     wrap_seq                                         
  parent sequence (full name)  string    49    uvm_test_top.envh.ahb_top.hagnt[0].hseqr.wrap_seq
  sequencer                    string    40    uvm_test_top.envh.ahb_top.hagnt[0].hseqr         
  Htrans                       integral  2     3                                                
  Hburst                       integral  3     6                                                
  Hsize                        integral  3     'd0                                              
  Haddr                        integral  32    'h84000258                                       
  Hwdata                       integral  32    'hba440ead                                       
  Hrdata                       integral  32    'h0                                              
  Hwrite                       integral  1     1                                                
------------------------------------------------------------------------------------------------

                 280 ENTERED:&&
@@@@@@@@@@@@@@@@@@@@@@@@@@@@@@@@@@@@@@@@@@@@@@@@@@@@@@@@@@@@----/Top/in0@@@@@@@@@@@
Width = 32, size 8 bits
                 290 ENTERED:&&
                 290BYTE2_endian1
                 290 ENTERED:&&
                 290BYTE3_endian1
UVM_INFO ../apb_agent_top/apb_monitor.sv(61) @ 290: uvm_test_top.envh.apb_top.hagnt[0].hmon [APB_MONITOR] Printing from apb_monitor /n "-------------------------------------
Name       Type      Size  Value     
-------------------------------------
xtn        apb_xtn   -     @1104     
  Pwrite   integral  1     1         
  Penable  integral  1     1         
  Pselx    integral  4     'd2       
  Paddr    integral  32    'h84000256
  Pwdata   integral  32    'hea      
  Prdata   integral  32    'h0       
-------------------------------------
"
------------------------------------
Name      Type      Size  Value     
------------------------------------
xtn       ahb_xtn   -     @1100     
  Htrans  integral  2     3         
  Hburst  integral  3     6         
  Hsize   integral  3     'd0       
  Haddr   integral  32    'h84000257
  Hwdata  integral  32    'hc8930c69
  Hrdata  integral  32    'h0       
  Hwrite  integral  1     1         
------------------------------------
-------------------------------------
Name       Type      Size  Value     
-------------------------------------
xtn        apb_xtn   -     @1104     
  Pwrite   integral  1     1         
  Penable  integral  1     1         
  Pselx    integral  4     'd2       
  Paddr    integral  32    'h84000256
  Pwdata   integral  32    'hea      
  Prdata   integral  32    'h0       
-------------------------------------
i am in scorbd '{m_leaf_name:"xtn", m_inst_id:1100, use_uvm_seeding:1, m_inst_count:1112, __m_uvm_status_container:@uvm_status_container@1, events:@uvm_object_string_pool__1@82, begin_event:@uvm_event@52, end_event:@uvm_event@53, m_transaction_id:-1, begin_time:18446744073709551615, end_time:18446744073709551615, accept_time:18446744073709551615, initiator:null, stream_handle:0, tr_handle:0, record_enable:0, m_recorder:null, m_sequence_id:-1, m_use_sequence_info:0, m_depth:1, m_sequencer:null, m_parent_sequence:null, print_sequence_info:0, m_client_str:"", m_client:null, m_rh:null, issued1:0, issued2:0, Haddr:2214593111, Hwdata:3365080169, Htrans:3, Hburst:6, Hsize:0, length:0, Hwrite:1, Hrdata:0, Hreadyin:1, Hreadyout:0, Hsel:0, type_name:"ahb_xtn"}
UVM_INFO ../tb/scoreboard.sv(182) @ 290: uvm_test_top.envh.sb [SB] Address not compared successfully
UVM_INFO ../tb/scoreboard.sv(189) @ 290: uvm_test_top.envh.sb [SB] write data mismatched
UVM_INFO ../ahb_agent_top/ahb_seqs.sv(199) @ 290: uvm_test_top.envh.ahb_top.hagnt[0].hseqr@@wrap_seq [UNSPECIFIED_INCREMENT] Printing from seqs /n ------------------------------------------------------------------------------------------------
Name                           Type      Size  Value                                            
------------------------------------------------------------------------------------------------
req                            ahb_xtn   -     @971                                             
  begin_time                   time      64    290                                              
  end_time                     time      64    290                                              
  depth                        int       32    'd2                                              
  parent sequence (name)       string    8     wrap_seq                                         
  parent sequence (full name)  string    49    uvm_test_top.envh.ahb_top.hagnt[0].hseqr.wrap_seq
  sequencer                    string    40    uvm_test_top.envh.ahb_top.hagnt[0].hseqr         
  Htrans                       integral  2     3                                                
  Hburst                       integral  3     6                                                
  Hsize                        integral  3     'd0                                              
  Haddr                        integral  32    'h84000259                                       
  Hwdata                       integral  32    'h8b9c2ae8                                       
  Hrdata                       integral  32    'h0                                              
  Hwrite                       integral  1     1                                                
------------------------------------------------------------------------------------------------

                 300 ENTERED:&&
@@@@@@@@@@@@@@@@@@@@@@@@@@@@@@@@@@@@@@@@@@@@@@@@@@@@@@@@@@@@----/Top/in0@@@@@@@@@@@
Width = 32, size 8 bits
                 310 ENTERED:&&
                 310BYTE3_endian1
                 310 ENTERED:&&
                 310BYTE0_endian1
UVM_INFO ../apb_agent_top/apb_monitor.sv(61) @ 310: uvm_test_top.envh.apb_top.hagnt[0].hmon [APB_MONITOR] Printing from apb_monitor /n "-------------------------------------
Name       Type      Size  Value     
-------------------------------------
xtn        apb_xtn   -     @1112     
  Pwrite   integral  1     1         
  Penable  integral  1     1         
  Pselx    integral  4     'd2       
  Paddr    integral  32    'h84000257
  Pwdata   integral  32    'hc8      
  Prdata   integral  32    'h0       
-------------------------------------
"
------------------------------------
Name      Type      Size  Value     
------------------------------------
xtn       ahb_xtn   -     @1108     
  Htrans  integral  2     3         
  Hburst  integral  3     6         
  Hsize   integral  3     'd0       
  Haddr   integral  32    'h84000258
  Hwdata  integral  32    'hba440ead
  Hrdata  integral  32    'h0       
  Hwrite  integral  1     1         
------------------------------------
-------------------------------------
Name       Type      Size  Value     
-------------------------------------
xtn        apb_xtn   -     @1112     
  Pwrite   integral  1     1         
  Penable  integral  1     1         
  Pselx    integral  4     'd2       
  Paddr    integral  32    'h84000257
  Pwdata   integral  32    'hc8      
  Prdata   integral  32    'h0       
-------------------------------------
i am in scorbd '{m_leaf_name:"xtn", m_inst_id:1108, use_uvm_seeding:1, m_inst_count:1120, __m_uvm_status_container:@uvm_status_container@1, events:@uvm_object_string_pool__1@84, begin_event:@uvm_event@56, end_event:@uvm_event@57, m_transaction_id:-1, begin_time:18446744073709551615, end_time:18446744073709551615, accept_time:18446744073709551615, initiator:null, stream_handle:0, tr_handle:0, record_enable:0, m_recorder:null, m_sequence_id:-1, m_use_sequence_info:0, m_depth:1, m_sequencer:null, m_parent_sequence:null, print_sequence_info:0, m_client_str:"", m_client:null, m_rh:null, issued1:0, issued2:0, Haddr:2214593112, Hwdata:3125022381, Htrans:3, Hburst:6, Hsize:0, length:0, Hwrite:1, Hrdata:0, Hreadyin:1, Hreadyout:0, Hsel:0, type_name:"ahb_xtn"}
UVM_INFO ../tb/scoreboard.sv(182) @ 310: uvm_test_top.envh.sb [SB] Address not compared successfully
UVM_INFO ../tb/scoreboard.sv(189) @ 310: uvm_test_top.envh.sb [SB] write data mismatched
UVM_INFO ../ahb_agent_top/ahb_seqs.sv(199) @ 310: uvm_test_top.envh.ahb_top.hagnt[0].hseqr@@wrap_seq [UNSPECIFIED_INCREMENT] Printing from seqs /n ------------------------------------------------------------------------------------------------
Name                           Type      Size  Value                                            
------------------------------------------------------------------------------------------------
req                            ahb_xtn   -     @971                                             
  begin_time                   time      64    310                                              
  end_time                     time      64    310                                              
  depth                        int       32    'd2                                              
  parent sequence (name)       string    8     wrap_seq                                         
  parent sequence (full name)  string    49    uvm_test_top.envh.ahb_top.hagnt[0].hseqr.wrap_seq
  sequencer                    string    40    uvm_test_top.envh.ahb_top.hagnt[0].hseqr         
  Htrans                       integral  2     3                                                
  Hburst                       integral  3     6                                                
  Hsize                        integral  3     'd0                                              
  Haddr                        integral  32    'h8400025a                                       
  Hwdata                       integral  32    'h326f61a7                                       
  Hrdata                       integral  32    'h0                                              
  Hwrite                       integral  1     1                                                
------------------------------------------------------------------------------------------------

                 320 ENTERED:&&
@@@@@@@@@@@@@@@@@@@@@@@@@@@@@@@@@@@@@@@@@@@@@@@@@@@@@@@@@@@@----/Top/in0@@@@@@@@@@@
Width = 32, size 8 bits
                 330 ENTERED:&&
                 330BYTE0_endian1
                 330 ENTERED:&&
                 330BYTE1_endian1
UVM_INFO ../apb_agent_top/apb_monitor.sv(61) @ 330: uvm_test_top.envh.apb_top.hagnt[0].hmon [APB_MONITOR] Printing from apb_monitor /n "-------------------------------------
Name       Type      Size  Value     
-------------------------------------
xtn        apb_xtn   -     @1120     
  Pwrite   integral  1     1         
  Penable  integral  1     1         
  Pselx    integral  4     'd2       
  Paddr    integral  32    'h84000258
  Pwdata   integral  32    'had      
  Prdata   integral  32    'h0       
-------------------------------------
"
------------------------------------
Name      Type      Size  Value     
------------------------------------
xtn       ahb_xtn   -     @1116     
  Htrans  integral  2     3         
  Hburst  integral  3     6         
  Hsize   integral  3     'd0       
  Haddr   integral  32    'h84000259
  Hwdata  integral  32    'h8b9c2ae8
  Hrdata  integral  32    'h0       
  Hwrite  integral  1     1         
------------------------------------
-------------------------------------
Name       Type      Size  Value     
-------------------------------------
xtn        apb_xtn   -     @1120     
  Pwrite   integral  1     1         
  Penable  integral  1     1         
  Pselx    integral  4     'd2       
  Paddr    integral  32    'h84000258
  Pwdata   integral  32    'had      
  Prdata   integral  32    'h0       
-------------------------------------
i am in scorbd '{m_leaf_name:"xtn", m_inst_id:1116, use_uvm_seeding:1, m_inst_count:1128, __m_uvm_status_container:@uvm_status_container@1, events:@uvm_object_string_pool__1@86, begin_event:@uvm_event@60, end_event:@uvm_event@61, m_transaction_id:-1, begin_time:18446744073709551615, end_time:18446744073709551615, accept_time:18446744073709551615, initiator:null, stream_handle:0, tr_handle:0, record_enable:0, m_recorder:null, m_sequence_id:-1, m_use_sequence_info:0, m_depth:1, m_sequencer:null, m_parent_sequence:null, print_sequence_info:0, m_client_str:"", m_client:null, m_rh:null, issued1:0, issued2:0, Haddr:2214593113, Hwdata:2342267624, Htrans:3, Hburst:6, Hsize:0, length:0, Hwrite:1, Hrdata:0, Hreadyin:1, Hreadyout:0, Hsel:0, type_name:"ahb_xtn"}
UVM_INFO ../tb/scoreboard.sv(182) @ 330: uvm_test_top.envh.sb [SB] Address not compared successfully
UVM_INFO ../tb/scoreboard.sv(189) @ 330: uvm_test_top.envh.sb [SB] write data mismatched
UVM_INFO ../ahb_agent_top/ahb_seqs.sv(199) @ 330: uvm_test_top.envh.ahb_top.hagnt[0].hseqr@@wrap_seq [UNSPECIFIED_INCREMENT] Printing from seqs /n ------------------------------------------------------------------------------------------------
Name                           Type      Size  Value                                            
------------------------------------------------------------------------------------------------
req                            ahb_xtn   -     @971                                             
  begin_time                   time      64    330                                              
  end_time                     time      64    330                                              
  depth                        int       32    'd2                                              
  parent sequence (name)       string    8     wrap_seq                                         
  parent sequence (full name)  string    49    uvm_test_top.envh.ahb_top.hagnt[0].hseqr.wrap_seq
  sequencer                    string    40    uvm_test_top.envh.ahb_top.hagnt[0].hseqr         
  Htrans                       integral  2     3                                                
  Hburst                       integral  3     6                                                
  Hsize                        integral  3     'd0                                              
  Haddr                        integral  32    'h8400025b                                       
  Hwdata                       integral  32    'h6f6f7003                                       
  Hrdata                       integral  32    'h0                                              
  Hwrite                       integral  1     1                                                
------------------------------------------------------------------------------------------------

                 340 ENTERED:&&
@@@@@@@@@@@@@@@@@@@@@@@@@@@@@@@@@@@@@@@@@@@@@@@@@@@@@@@@@@@@----/Top/in0@@@@@@@@@@@
Width = 32, size 8 bits
                 350 ENTERED:&&
                 350BYTE1_endian1
                 350 ENTERED:&&
                 350BYTE2_endian1
UVM_INFO ../apb_agent_top/apb_monitor.sv(61) @ 350: uvm_test_top.envh.apb_top.hagnt[0].hmon [APB_MONITOR] Printing from apb_monitor /n "-------------------------------------
Name       Type      Size  Value     
-------------------------------------
xtn        apb_xtn   -     @1128     
  Pwrite   integral  1     1         
  Penable  integral  1     1         
  Pselx    integral  4     'd2       
  Paddr    integral  32    'h84000259
  Pwdata   integral  32    'h2a      
  Prdata   integral  32    'h0       
-------------------------------------
"
------------------------------------
Name      Type      Size  Value     
------------------------------------
xtn       ahb_xtn   -     @1124     
  Htrans  integral  2     3         
  Hburst  integral  3     6         
  Hsize   integral  3     'd0       
  Haddr   integral  32    'h8400025a
  Hwdata  integral  32    'h326f61a7
  Hrdata  integral  32    'h0       
  Hwrite  integral  1     1         
------------------------------------
-------------------------------------
Name       Type      Size  Value     
-------------------------------------
xtn        apb_xtn   -     @1128     
  Pwrite   integral  1     1         
  Penable  integral  1     1         
  Pselx    integral  4     'd2       
  Paddr    integral  32    'h84000259
  Pwdata   integral  32    'h2a      
  Prdata   integral  32    'h0       
-------------------------------------
i am in scorbd '{m_leaf_name:"xtn", m_inst_id:1124, use_uvm_seeding:1, m_inst_count:1136, __m_uvm_status_container:@uvm_status_container@1, events:@uvm_object_string_pool__1@88, begin_event:@uvm_event@64, end_event:@uvm_event@65, m_transaction_id:-1, begin_time:18446744073709551615, end_time:18446744073709551615, accept_time:18446744073709551615, initiator:null, stream_handle:0, tr_handle:0, record_enable:0, m_recorder:null, m_sequence_id:-1, m_use_sequence_info:0, m_depth:1, m_sequencer:null, m_parent_sequence:null, print_sequence_info:0, m_client_str:"", m_client:null, m_rh:null, issued1:0, issued2:0, Haddr:2214593114, Hwdata:846160295, Htrans:3, Hburst:6, Hsize:0, length:0, Hwrite:1, Hrdata:0, Hreadyin:1, Hreadyout:0, Hsel:0, type_name:"ahb_xtn"}
UVM_INFO ../tb/scoreboard.sv(182) @ 350: uvm_test_top.envh.sb [SB] Address not compared successfully
UVM_INFO ../tb/scoreboard.sv(189) @ 350: uvm_test_top.envh.sb [SB] write data mismatched
UVM_INFO ../ahb_agent_top/ahb_seqs.sv(269) @ 350: uvm_test_top.envh.ahb_top.hagnt[0].hseqr@@wrap_seq [UNSPECIFIED_INCREMENT] Printing from seqs /n ------------------------------------------------------------------------------------------------
Name                           Type      Size  Value                                            
------------------------------------------------------------------------------------------------
req                            ahb_xtn   -     @971                                             
  begin_time                   time      64    350                                              
  end_time                     time      64    350                                              
  depth                        int       32    'd2                                              
  parent sequence (name)       string    8     wrap_seq                                         
  parent sequence (full name)  string    49    uvm_test_top.envh.ahb_top.hagnt[0].hseqr.wrap_seq
  sequencer                    string    40    uvm_test_top.envh.ahb_top.hagnt[0].hseqr         
  Htrans                       integral  2     'd0                                              
  Hburst                       integral  3     6                                                
  Hsize                        integral  3     'd0                                              
  Haddr                        integral  32    'h8400025b                                       
  Hwdata                       integral  32    'h4b513445                                       
  Hrdata                       integral  32    'h0                                              
  Hwrite                       integral  1     1                                                
------------------------------------------------------------------------------------------------

                 360 ENTERED:&&
@@@@@@@@@@@@@@@@@@@@@@@@@@@@@@@@@@@@@@@@@@@@@@@@@@@@@@@@@@@@----/Top/in0@@@@@@@@@@@
Width = 32, size 8 bits
                 370 ENTERED:&&
                 370BYTE2_endian1
                 370 ENTERED:&&
                 370BYTE3_endian1
UVM_INFO ../apb_agent_top/apb_monitor.sv(61) @ 370: uvm_test_top.envh.apb_top.hagnt[0].hmon [APB_MONITOR] Printing from apb_monitor /n "-------------------------------------
Name       Type      Size  Value     
-------------------------------------
xtn        apb_xtn   -     @1136     
  Pwrite   integral  1     1         
  Penable  integral  1     1         
  Pselx    integral  4     'd2       
  Paddr    integral  32    'h8400025a
  Pwdata   integral  32    'h6f      
  Prdata   integral  32    'h0       
-------------------------------------
"
------------------------------------
Name      Type      Size  Value     
------------------------------------
xtn       ahb_xtn   -     @1132     
  Htrans  integral  2     3         
  Hburst  integral  3     6         
  Hsize   integral  3     'd0       
  Haddr   integral  32    'h8400025b
  Hwdata  integral  32    'h6f6f7003
  Hrdata  integral  32    'h0       
  Hwrite  integral  1     1         
------------------------------------
-------------------------------------
Name       Type      Size  Value     
-------------------------------------
xtn        apb_xtn   -     @1136     
  Pwrite   integral  1     1         
  Penable  integral  1     1         
  Pselx    integral  4     'd2       
  Paddr    integral  32    'h8400025a
  Pwdata   integral  32    'h6f      
  Prdata   integral  32    'h0       
-------------------------------------
i am in scorbd '{m_leaf_name:"xtn", m_inst_id:1132, use_uvm_seeding:1, m_inst_count:1144, __m_uvm_status_container:@uvm_status_container@1, events:@uvm_object_string_pool__1@90, begin_event:@uvm_event@68, end_event:@uvm_event@69, m_transaction_id:-1, begin_time:18446744073709551615, end_time:18446744073709551615, accept_time:18446744073709551615, initiator:null, stream_handle:0, tr_handle:0, record_enable:0, m_recorder:null, m_sequence_id:-1, m_use_sequence_info:0, m_depth:1, m_sequencer:null, m_parent_sequence:null, print_sequence_info:0, m_client_str:"", m_client:null, m_rh:null, issued1:0, issued2:0, Haddr:2214593115, Hwdata:1869574147, Htrans:3, Hburst:6, Hsize:0, length:0, Hwrite:1, Hrdata:0, Hreadyin:1, Hreadyout:0, Hsel:0, type_name:"ahb_xtn"}
UVM_INFO ../tb/scoreboard.sv(182) @ 370: uvm_test_top.envh.sb [SB] Address not compared successfully
UVM_INFO ../tb/scoreboard.sv(187) @ 370: uvm_test_top.envh.sb [SB] write data matched successfully
UVM_INFO ../ahb_agent_top/ahb_seqs.sv(168) @ 370: uvm_test_top.envh.ahb_top.hagnt[0].hseqr@@wrap_seq [UNSPECIFIED_INCREMENT] Printing from seqs /n ------------------------------------------------------------------------------------------------
Name                           Type      Size  Value                                            
------------------------------------------------------------------------------------------------
req                            ahb_xtn   -     @971                                             
  begin_time                   time      64    370                                              
  end_time                     time      64    370                                              
  depth                        int       32    'd2                                              
  parent sequence (name)       string    8     wrap_seq                                         
  parent sequence (full name)  string    49    uvm_test_top.envh.ahb_top.hagnt[0].hseqr.wrap_seq
  sequencer                    string    40    uvm_test_top.envh.ahb_top.hagnt[0].hseqr         
  Htrans                       integral  2     'd0                                              
  Hburst                       integral  3     6                                                
  Hsize                        integral  3     'd0                                              
  Haddr                        integral  32    'h880003e2                                       
  Hwdata                       integral  32    'hf2522ec2                                       
  Hrdata                       integral  32    'h0                                              
  Hwrite                       integral  1     1                                                
------------------------------------------------------------------------------------------------

                 380 ENTERED:&&
@@@@@@@@@@@@@@@@@@@@@@@@@@@@@@@@@@@@@@@@@@@@@@@@@@@@@@@@@@@@----/Top/in0@@@@@@@@@@@
                 390 ENTERED:&&
UVM_INFO ../apb_agent_top/apb_monitor.sv(61) @ 390: uvm_test_top.envh.apb_top.hagnt[0].hmon [APB_MONITOR] Printing from apb_monitor /n "-------------------------------------
Name       Type      Size  Value     
-------------------------------------
xtn        apb_xtn   -     @1144     
  Pwrite   integral  1     1         
  Penable  integral  1     1         
  Pselx    integral  4     'd6       
  Paddr    integral  32    'h8400025b
  Pwdata   integral  32    'h6f      
  Prdata   integral  32    'h0       
-------------------------------------
"
-------------------------------------
Name       Type      Size  Value     
-------------------------------------
xtn        apb_xtn   -     @1144     
  Pwrite   integral  1     1         
  Penable  integral  1     1         
  Pselx    integral  4     'd6       
  Paddr    integral  32    'h8400025b
  Pwdata   integral  32    'h6f      
  Prdata   integral  32    'h0       
-------------------------------------
i am in scorbd '{m_leaf_name:"xtn", m_inst_id:1132, use_uvm_seeding:1, m_inst_count:1148, __m_uvm_status_container:@uvm_status_container@1, events:@uvm_object_string_pool__1@90, begin_event:@uvm_event@68, end_event:@uvm_event@69, m_transaction_id:-1, begin_time:18446744073709551615, end_time:18446744073709551615, accept_time:18446744073709551615, initiator:null, stream_handle:0, tr_handle:0, record_enable:0, m_recorder:null, m_sequence_id:-1, m_use_sequence_info:0, m_depth:1, m_sequencer:null, m_parent_sequence:null, print_sequence_info:0, m_client_str:"", m_client:null, m_rh:null, issued1:0, issued2:0, Haddr:2214593115, Hwdata:1869574147, Htrans:3, Hburst:6, Hsize:0, length:0, Hwrite:1, Hrdata:0, Hreadyin:1, Hreadyout:0, Hsel:0, type_name:"ahb_xtn"}
UVM_INFO ../tb/scoreboard.sv(179) @ 390: uvm_test_top.envh.sb [SB] Address compared successfully
UVM_INFO ../tb/scoreboard.sv(187) @ 390: uvm_test_top.envh.sb [SB] write data matched successfully
@@@@@@@@@@@@@@@@@@@@@@@@@@@@@@@@@@@@@@@@@@@@@@@@@@@@@@@@@@@@----/Top/in0@@@@@@@@@@@
------------------------------------
Name      Type      Size  Value     
------------------------------------
xtn       ahb_xtn   -     @1140     
  Htrans  integral  2     'd0       
  Hburst  integral  3     6         
  Hsize   integral  3     'd0       
  Haddr   integral  32    'h8400025b
  Hwdata  integral  32    'h4b513445
  Hrdata  integral  32    'h0       
  Hwrite  integral  1     1         
------------------------------------
UVM_INFO ../ahb_agent_top/ahb_seqs.sv(199) @ 410: uvm_test_top.envh.ahb_top.hagnt[0].hseqr@@wrap_seq [UNSPECIFIED_INCREMENT] Printing from seqs /n ------------------------------------------------------------------------------------------------
Name                           Type      Size  Value                                            
------------------------------------------------------------------------------------------------
req                            ahb_xtn   -     @971                                             
  begin_time                   time      64    410                                              
  end_time                     time      64    410                                              
  depth                        int       32    'd2                                              
  parent sequence (name)       string    8     wrap_seq                                         
  parent sequence (full name)  string    49    uvm_test_top.envh.ahb_top.hagnt[0].hseqr.wrap_seq
  sequencer                    string    40    uvm_test_top.envh.ahb_top.hagnt[0].hseqr         
  Htrans                       integral  2     3                                                
  Hburst                       integral  3     6                                                
  Hsize                        integral  3     'd0                                              
  Haddr                        integral  32    'h880003e3                                       
  Hwdata                       integral  32    'h2e348bed                                       
  Hrdata                       integral  32    'h0                                              
  Hwrite                       integral  1     1                                                
------------------------------------------------------------------------------------------------

                 420 ENTERED:&&
------------------------------------
Name      Type      Size  Value     
------------------------------------
xtn       ahb_xtn   -     @1152     
  Htrans  integral  2     'd0       
  Hburst  integral  3     6         
  Hsize   integral  3     'd0       
  Haddr   integral  32    'h880003e2
  Hwdata  integral  32    'hf2522ec2
  Hrdata  integral  32    'h0       
  Hwrite  integral  1     1         
------------------------------------
UVM_INFO ../ahb_agent_top/ahb_seqs.sv(199) @ 420: uvm_test_top.envh.ahb_top.hagnt[0].hseqr@@wrap_seq [UNSPECIFIED_INCREMENT] Printing from seqs /n ------------------------------------------------------------------------------------------------
Name                           Type      Size  Value                                            
------------------------------------------------------------------------------------------------
req                            ahb_xtn   -     @971                                             
  begin_time                   time      64    420                                              
  end_time                     time      64    420                                              
  depth                        int       32    'd2                                              
  parent sequence (name)       string    8     wrap_seq                                         
  parent sequence (full name)  string    49    uvm_test_top.envh.ahb_top.hagnt[0].hseqr.wrap_seq
  sequencer                    string    40    uvm_test_top.envh.ahb_top.hagnt[0].hseqr         
  Htrans                       integral  2     3                                                
  Hburst                       integral  3     6                                                
  Hsize                        integral  3     'd0                                              
  Haddr                        integral  32    'h880003e4                                       
  Hwdata                       integral  32    'h859475e4                                       
  Hrdata                       integral  32    'h0                                              
  Hwrite                       integral  1     1                                                
------------------------------------------------------------------------------------------------

                 430Error due to sequence SEQ after IDLE &&&&&&&&&&&&&&&& 
                 430 ENTERED:&&
------------------------------------
Name      Type      Size  Value     
------------------------------------
xtn       ahb_xtn   -     @1156     
  Htrans  integral  2     'd0       
  Hburst  integral  3     6         
  Hsize   integral  3     'd0       
  Haddr   integral  32    'h880003e2
  Hwdata  integral  32    'h2e348bed
  Hrdata  integral  32    'h0       
  Hwrite  integral  1     1         
------------------------------------
UVM_INFO ../ahb_agent_top/ahb_seqs.sv(199) @ 430: uvm_test_top.envh.ahb_top.hagnt[0].hseqr@@wrap_seq [UNSPECIFIED_INCREMENT] Printing from seqs /n ------------------------------------------------------------------------------------------------
Name                           Type      Size  Value                                            
------------------------------------------------------------------------------------------------
req                            ahb_xtn   -     @971                                             
  begin_time                   time      64    430                                              
  end_time                     time      64    430                                              
  depth                        int       32    'd2                                              
  parent sequence (name)       string    8     wrap_seq                                         
  parent sequence (full name)  string    49    uvm_test_top.envh.ahb_top.hagnt[0].hseqr.wrap_seq
  sequencer                    string    40    uvm_test_top.envh.ahb_top.hagnt[0].hseqr         
  Htrans                       integral  2     3                                                
  Hburst                       integral  3     6                                                
  Hsize                        integral  3     'd0                                              
  Haddr                        integral  32    'h880003e5                                       
  Hwdata                       integral  32    'hdc52e883                                       
  Hrdata                       integral  32    'h0                                              
  Hwrite                       integral  1     1                                                
------------------------------------------------------------------------------------------------

Width = 32, size 8 bits
                 440 ENTERED:&&
                 440BYTE3_endian1
inside 2'B01 state                 440
------------------------------------
Name      Type      Size  Value     
------------------------------------
xtn       ahb_xtn   -     @1160     
  Htrans  integral  2     3         
  Hburst  integral  3     6         
  Hsize   integral  3     'd0       
  Haddr   integral  32    'h880003e3
  Hwdata  integral  32    'h859475e4
  Hrdata  integral  32    'h0       
  Hwrite  integral  1     1         
------------------------------------
UVM_INFO ../ahb_agent_top/ahb_seqs.sv(199) @ 440: uvm_test_top.envh.ahb_top.hagnt[0].hseqr@@wrap_seq [UNSPECIFIED_INCREMENT] Printing from seqs /n ------------------------------------------------------------------------------------------------
Name                           Type      Size  Value                                            
------------------------------------------------------------------------------------------------
req                            ahb_xtn   -     @971                                             
  begin_time                   time      64    440                                              
  end_time                     time      64    440                                              
  depth                        int       32    'd2                                              
  parent sequence (name)       string    8     wrap_seq                                         
  parent sequence (full name)  string    49    uvm_test_top.envh.ahb_top.hagnt[0].hseqr.wrap_seq
  sequencer                    string    40    uvm_test_top.envh.ahb_top.hagnt[0].hseqr         
  Htrans                       integral  2     3                                                
