vsim -vopt -voptargs="+acc" -coverage -sva -c -do " log -r /* ;coverage save -onexit mem_cov3;run -all; exit" -wlf wave_file3.wlf -l test3.log -sv_seed random work.top "+UVM_TESTNAME=wrap_seq_test" 
Start time: 11:59:24 on Sep 27,2024
** Note: (vsim-8009) Loading existing optimized design _opt
//  Questa Sim-64
//  Version 2019.2 linux_x86_64 Apr 16 2019
//
//  Copyright 1991-2019 Mentor Graphics Corporation
//  All Rights Reserved.
//
//  QuestaSim and its associated documentation contain trade
//  secrets and commercial or financial information that are the property of
//  Mentor Graphics Corporation and are privileged, confidential,
//  and exempt from disclosure under the Freedom of Information Act,
//  5 U.S.C. Section 552. Furthermore, this information
//  is prohibited from disclosure under the Trade Secrets Act,
//  18 U.S.C. Section 1905.
//
Loading sv_std.std
Loading work.axi_if(fast)
Loading work.ahb_if(fast)
Loading mtiUvm.uvm_pkg
Loading work.axi_test_pkg(fast)
Loading mtiUvm.questa_uvm_pkg(fast)
Loading work.top(fast)
Loading work.axi_if(fast)
Loading work.ahb_if(fast)
Loading work.axi2ahb_bridge_top(fast)
Loading work.axi_controller(fast)
Loading work.axi2fifo(fast)
Loading work.fifo2axi(fast)
Loading work.fifo_wrapper(fast)
Loading work.id_resp_fifo(fast)
Loading work.resp_fifo(fast)
Loading work.rdata_fifo(fast)
Loading work.size_fifo(fast)
Loading work.id_send_fifo(fast)
Loading work.write_fifo(fast)
Loading work.data_fifo(fast)
Loading work.addr_fifo(fast)
Loading work.ahb_controller(fast)
** Warning: (vsim-3015) [PCDPC] - Port size (64) does not match connection size (32) for port 'hwdata'. The port definition is at: ../rtl/axi2ahb_bridge_top.v(51).
   Time: 0 ps  Iteration: 0  Instance: /top/DUV File: ../tb/axi_top.sv Line: 17
** Warning: (vsim-3015) [PCDPC] - Port size (64) does not match connection size (32) for port 'hrdata'. The port definition is at: ../rtl/axi2ahb_bridge_top.v(55).
   Time: 0 ps  Iteration: 0  Instance: /top/DUV File: ../tb/axi_top.sv Line: 17
** Warning: (vsim-3015) [PCDPC] - Port size (4) does not match connection size (1) for port 'hmaster'. The port definition is at: ../rtl/axi2ahb_bridge_top.v(59).
   Time: 0 ps  Iteration: 0  Instance: /top/DUV File: ../tb/axi_top.sv Line: 17
# Loading /home/cad/eda/Questa_2019/questasim/uvm-1.1d/linux_x86_64/uvm_dpi.so
** Warning: (vsim-8634) Code was not compiled with coverage options.
Sv_Seed = 2603337985
 log -r /* 
coverage save -onexit mem_cov3
run -all
----------------------------------------------------------------
UVM-1.1d
(C) 2007-2013 Mentor Graphics Corporation
(C) 2007-2013 Cadence Design Systems, Inc.
(C) 2006-2013 Synopsys, Inc.
(C) 2011-2013 Cypress Semiconductor Corp.
----------------------------------------------------------------

  ***********       IMPORTANT RELEASE NOTES         ************

  You are using a version of the UVM library that has been compiled
  with `UVM_NO_DEPRECATED undefined.
  See http://www.eda.org/svdb/view.php?id=3313 for more details.

  You are using a version of the UVM library that has been compiled
  with `UVM_OBJECT_MUST_HAVE_CONSTRUCTOR undefined.
  See http://www.eda.org/svdb/view.php?id=3770 for more details.

      (Specify +UVM_NO_RELNOTES to turn off this notice)

UVM_INFO verilog_src/questa_uvm_pkg-1.2/src/questa_uvm_pkg.sv(277) @ 0: reporter [Questa UVM] QUESTA_UVM-1.2.3
UVM_INFO verilog_src/questa_uvm_pkg-1.2/src/questa_uvm_pkg.sv(278) @ 0: reporter [Questa UVM]  questa_uvm::init(+struct)
UVM_INFO @ 0: reporter [RNTST] Running test wrap_seq_test...
UVM_INFO @ 0: reporter [UVMTOP] UVM testbench topology:
----------------------------------------------------------------
Name                         Type                    Size  Value
----------------------------------------------------------------
uvm_test_top                 wrap_seq_test           -     @479 
  env_h                      axi_env                 -     @495 
    mst_agt_top              master_agent_top        -     @507 
      mst_agt_h[0]           master_agent            -     @636 
        mst_drv_h            master_driver           -     @651 
          rsp_port           uvm_analysis_port       -     @666 
          seq_item_port      uvm_seq_item_pull_port  -     @658 
        mst_mon_h            master_monitor          -     @644 
          mst_mon_port       uvm_analysis_port       -     @786 
        mst_seqr_h           master_sequencer        -     @674 
          rsp_export         uvm_analysis_export     -     @681 
          seq_item_export    uvm_seq_item_pull_imp   -     @775 
          arbitration_queue  array                   0     -    
          lock_queue         array                   0     -    
          num_last_reqs      integral                32    'd1  
          num_last_rsps      integral                32    'd1  
    slv_agt_top              ahb_agent_top           -     @518 
      agnth                  ahb_agt                 -     @799 
        drvh                 ahb_drv                 -     @826 
          rsp_port           uvm_analysis_port       -     @841 
          seq_item_port      uvm_seq_item_pull_port  -     @833 
        monitor              ahb_mon                 -     @811 
          monitor_port       uvm_analysis_port       -     @818 
        seqrh                ahb_seqr                -     @849 
          rsp_export         uvm_analysis_export     -     @856 
          seq_item_export    uvm_seq_item_pull_imp   -     @950 
          arbitration_queue  array                   0     -    
          lock_queue         array                   0     -    
          num_last_reqs      integral                32    'd1  
          num_last_rsps      integral                32    'd1  
    vseqr_h                  virtual_sequencer       -     @525 
      rsp_export             uvm_analysis_export     -     @532 
      seq_item_export        uvm_seq_item_pull_imp   -     @626 
      arbitration_queue      array                   0     -    
      lock_queue             array                   0     -    
      num_last_reqs          integral                32    'd1  
      num_last_rsps          integral                32    'd1  
----------------------------------------------------------------

start of drive_awaddr
start of drive_raddr
end of drive_awaddr
start of drive_wdata
start of drive_awaddr
UVM_INFO ../master_agent_top/master_driver.sv(153) @ 6500: uvm_test_top.env_h.mst_agt_top.mst_agt_h[0].mst_drv_h [DRV] DRV= -----------------------------------------------------------------------------------------------------------
Name                           Type      Size  Value                                                       
-----------------------------------------------------------------------------------------------------------
req                            axi_xtn   -     @993                                                        
  begin_time                   time      64    2500                                                        
  end_time                     time      64    4500                                                        
  depth                        int       32    'd2                                                         
  parent sequence (name)       string    5     m_seq                                                       
  parent sequence (full name)  string    60    uvm_test_top.env_h.mst_agt_top.mst_agt_h[0].mst_seqr_h.m_seq
  sequencer                    string    54    uvm_test_top.env_h.mst_agt_top.mst_agt_h[0].mst_seqr_h      
  AWID                         integral  4     12                                                          
  AWADDR                       integral  32    'he6e9e088                                                  
  AWLEN                        integral  4     'd3                                                         
  AWSIZE                       integral  3     'd3                                                         
  AWBURST                      integral  2     2                                                           
  WID                          integral  4     12                                                          
  WDATA                        integral  64    'he433fa7ef38d8655                                          
  WSTRB                        integral  8     'b11111111                                                  
  WLAST                        integral  1     'dX                                                         
  WDATA                        integral  64    'hc324e19e30ddd5fc                                          
  WSTRB                        integral  8     'b11111111                                                  
  WLAST                        integral  1     'dX                                                         
  WDATA                        integral  64    'h7e71eb9f7b03ce62                                          
  WSTRB                        integral  8     'b11111111                                                  
  WLAST                        integral  1     'dX                                                         
  WDATA                        integral  64    'ha9feef228f85fb5d                                          
  WSTRB                        integral  8     'b11111111                                                  
  WLAST                        integral  1     'dX                                                         
  BID                          integral  4     12                                                          
  BRESP                        integral  2     'd0                                                         
  ARID                         integral  4     12                                                          
  ARADDR                       integral  32    'hfc5c49b8                                                  
  ARLEN                        integral  8     'd15                                                        
  ARSIZE                       integral  3     'd2                                                         
  ARBURST                      integral  2     2                                                           
  RID                          integral  4     12                                                          
  RDATA                        integral  64    'hefdee78d23aad27a                                          
  RRESP                        integral  2     'd0                                                         
  RDATA                        integral  64    'h4caaaa0da119b90a                                          
  RRESP                        integral  2     'd0                                                         
  RDATA                        integral  64    'h6d7350d49b76c60                                           
  RRESP                        integral  2     'd0                                                         
  RDATA                        integral  64    'h5f62e4ae41d0a6e9                                          
  RRESP                        integral  2     'd0                                                         
  RDATA                        integral  64    'h28c67d64e03108c4                                          
  RRESP                        integral  2     'd0                                                         
  RDATA                        integral  64    'h42e4a7bee6be8952                                          
  RRESP                        integral  2     'd0                                                         
  RDATA                        integral  64    'hdf7af9050963b5a2                                          
  RRESP                        integral  2     'd0                                                         
  RDATA                        integral  64    'h87c2d8641cc0a214                                          
  RRESP                        integral  2     'd0                                                         
  RDATA                        integral  64    'h7c9397335f392069                                          
  RRESP                        integral  2     'd0                                                         
  RDATA                        integral  64    'h12a65206f1e0ae57                                          
  RRESP                        integral  2     'd0                                                         
  RDATA                        integral  64    'hb2f9eb3f67028268                                          
  RRESP                        integral  2     'd0                                                         
  RDATA                        integral  64    'h228167647d1a4ca3                                          
  RRESP                        integral  2     'd0                                                         
  RDATA                        integral  64    'h7dd3a949b99df4b6                                          
  RRESP                        integral  2     'd0                                                         
  RDATA                        integral  64    'hd5fb0c556c3ccb74                                          
  RRESP                        integral  2     'd0                                                         
  RDATA                        integral  64    'h82d01658c0a0923a                                          
  RRESP                        integral  2     'd0                                                         
  RDATA                        integral  64    'h14be2c65dc187b0a                                          
  RRESP                        integral  2     'd0                                                         
-----------------------------------------------------------------------------------------------------------

end of drive_awaddr
start of drive_awaddr
inside drive_raddr before wait ARREADY
UVM_INFO ../master_agent_top/master_driver.sv(153) @ 8500: uvm_test_top.env_h.mst_agt_top.mst_agt_h[0].mst_drv_h [DRV] DRV= -----------------------------------------------------------------------------------------------------------
Name                           Type      Size  Value                                                       
-----------------------------------------------------------------------------------------------------------
req                            axi_xtn   -     @993                                                        
  begin_time                   time      64    2500                                                        
  end_time                     time      64    4500                                                        
  depth                        int       32    'd2                                                         
  parent sequence (name)       string    5     m_seq                                                       
  parent sequence (full name)  string    60    uvm_test_top.env_h.mst_agt_top.mst_agt_h[0].mst_seqr_h.m_seq
  sequencer                    string    54    uvm_test_top.env_h.mst_agt_top.mst_agt_h[0].mst_seqr_h      
  AWID                         integral  4     12                                                          
  AWADDR                       integral  32    'he6e9e088                                                  
  AWLEN                        integral  4     'd3                                                         
  AWSIZE                       integral  3     'd3                                                         
  AWBURST                      integral  2     2                                                           
  WID                          integral  4     12                                                          
  WDATA                        integral  64    'he433fa7ef38d8655                                          
  WSTRB                        integral  8     'b11111111                                                  
  WLAST                        integral  1     'dX                                                         
  WDATA                        integral  64    'hc324e19e30ddd5fc                                          
  WSTRB                        integral  8     'b11111111                                                  
  WLAST                        integral  1     'dX                                                         
  WDATA                        integral  64    'h7e71eb9f7b03ce62                                          
  WSTRB                        integral  8     'b11111111                                                  
  WLAST                        integral  1     'dX                                                         
  WDATA                        integral  64    'ha9feef228f85fb5d                                          
  WSTRB                        integral  8     'b11111111                                                  
  WLAST                        integral  1     'dX                                                         
  BID                          integral  4     12                                                          
  BRESP                        integral  2     'd0                                                         
  ARID                         integral  4     12                                                          
  ARADDR                       integral  32    'hfc5c49b8                                                  
  ARLEN                        integral  8     'd15                                                        
  ARSIZE                       integral  3     'd2                                                         
  ARBURST                      integral  2     2                                                           
  RID                          integral  4     12                                                          
  RDATA                        integral  64    'hefdee78d23aad27a                                          
  RRESP                        integral  2     'd0                                                         
  RDATA                        integral  64    'h4caaaa0da119b90a                                          
  RRESP                        integral  2     'd0                                                         
  RDATA                        integral  64    'h6d7350d49b76c60                                           
  RRESP                        integral  2     'd0                                                         
  RDATA                        integral  64    'h5f62e4ae41d0a6e9                                          
  RRESP                        integral  2     'd0                                                         
  RDATA                        integral  64    'h28c67d64e03108c4                                          
  RRESP                        integral  2     'd0                                                         
  RDATA                        integral  64    'h42e4a7bee6be8952                                          
  RRESP                        integral  2     'd0                                                         
  RDATA                        integral  64    'hdf7af9050963b5a2                                          
  RRESP                        integral  2     'd0                                                         
  RDATA                        integral  64    'h87c2d8641cc0a214                                          
  RRESP                        integral  2     'd0                                                         
  RDATA                        integral  64    'h7c9397335f392069                                          
  RRESP                        integral  2     'd0                                                         
  RDATA                        integral  64    'h12a65206f1e0ae57                                          
  RRESP                        integral  2     'd0                                                         
  RDATA                        integral  64    'hb2f9eb3f67028268                                          
  RRESP                        integral  2     'd0                                                         
  RDATA                        integral  64    'h228167647d1a4ca3                                          
  RRESP                        integral  2     'd0                                                         
  RDATA                        integral  64    'h7dd3a949b99df4b6                                          
  RRESP                        integral  2     'd0                                                         
  RDATA                        integral  64    'hd5fb0c556c3ccb74                                          
  RRESP                        integral  2     'd0                                                         
  RDATA                        integral  64    'h82d01658c0a0923a                                          
  RRESP                        integral  2     'd0                                                         
  RDATA                        integral  64    'h14be2c65dc187b0a                                          
  RRESP                        integral  2     'd0                                                         
-----------------------------------------------------------------------------------------------------------

end of drive_awaddr
start of drive_awaddr
UVM_INFO ../master_agent_top/master_driver.sv(153) @ 10500: uvm_test_top.env_h.mst_agt_top.mst_agt_h[0].mst_drv_h [DRV] DRV= -----------------------------------------------------------------------------------------------------------
Name                           Type      Size  Value                                                       
-----------------------------------------------------------------------------------------------------------
req                            axi_xtn   -     @993                                                        
  begin_time                   time      64    2500                                                        
  end_time                     time      64    4500                                                        
  depth                        int       32    'd2                                                         
  parent sequence (name)       string    5     m_seq                                                       
  parent sequence (full name)  string    60    uvm_test_top.env_h.mst_agt_top.mst_agt_h[0].mst_seqr_h.m_seq
  sequencer                    string    54    uvm_test_top.env_h.mst_agt_top.mst_agt_h[0].mst_seqr_h      
  AWID                         integral  4     12                                                          
  AWADDR                       integral  32    'he6e9e088                                                  
  AWLEN                        integral  4     'd3                                                         
  AWSIZE                       integral  3     'd3                                                         
  AWBURST                      integral  2     2                                                           
  WID                          integral  4     12                                                          
  WDATA                        integral  64    'he433fa7ef38d8655                                          
  WSTRB                        integral  8     'b11111111                                                  
  WLAST                        integral  1     'dX                                                         
  WDATA                        integral  64    'hc324e19e30ddd5fc                                          
  WSTRB                        integral  8     'b11111111                                                  
  WLAST                        integral  1     'dX                                                         
  WDATA                        integral  64    'h7e71eb9f7b03ce62                                          
  WSTRB                        integral  8     'b11111111                                                  
  WLAST                        integral  1     'dX                                                         
  WDATA                        integral  64    'ha9feef228f85fb5d                                          
  WSTRB                        integral  8     'b11111111                                                  
  WLAST                        integral  1     'dX                                                         
  BID                          integral  4     12                                                          
  BRESP                        integral  2     'd0                                                         
  ARID                         integral  4     12                                                          
  ARADDR                       integral  32    'hfc5c49b8                                                  
  ARLEN                        integral  8     'd15                                                        
  ARSIZE                       integral  3     'd2                                                         
  ARBURST                      integral  2     2                                                           
  RID                          integral  4     12                                                          
  RDATA                        integral  64    'hefdee78d23aad27a                                          
  RRESP                        integral  2     'd0                                                         
  RDATA                        integral  64    'h4caaaa0da119b90a                                          
  RRESP                        integral  2     'd0                                                         
  RDATA                        integral  64    'h6d7350d49b76c60                                           
  RRESP                        integral  2     'd0                                                         
  RDATA                        integral  64    'h5f62e4ae41d0a6e9                                          
  RRESP                        integral  2     'd0                                                         
  RDATA                        integral  64    'h28c67d64e03108c4                                          
  RRESP                        integral  2     'd0                                                         
  RDATA                        integral  64    'h42e4a7bee6be8952                                          
  RRESP                        integral  2     'd0                                                         
  RDATA                        integral  64    'hdf7af9050963b5a2                                          
  RRESP                        integral  2     'd0                                                         
  RDATA                        integral  64    'h87c2d8641cc0a214                                          
  RRESP                        integral  2     'd0                                                         
  RDATA                        integral  64    'h7c9397335f392069                                          
  RRESP                        integral  2     'd0                                                         
  RDATA                        integral  64    'h12a65206f1e0ae57                                          
  RRESP                        integral  2     'd0                                                         
  RDATA                        integral  64    'hb2f9eb3f67028268                                          
  RRESP                        integral  2     'd0                                                         
  RDATA                        integral  64    'h228167647d1a4ca3                                          
  RRESP                        integral  2     'd0                                                         
  RDATA                        integral  64    'h7dd3a949b99df4b6                                          
  RRESP                        integral  2     'd0                                                         
  RDATA                        integral  64    'hd5fb0c556c3ccb74                                          
  RRESP                        integral  2     'd0                                                         
  RDATA                        integral  64    'h82d01658c0a0923a                                          
  RRESP                        integral  2     'd0                                                         
  RDATA                        integral  64    'h14be2c65dc187b0a                                          
  RRESP                        integral  2     'd0                                                         
-----------------------------------------------------------------------------------------------------------

end of drive_awaddr
start of drive_awaddr
UVM_INFO ../master_agent_top/master_driver.sv(153) @ 12500: uvm_test_top.env_h.mst_agt_top.mst_agt_h[0].mst_drv_h [DRV] DRV= -----------------------------------------------------------------------------------------------------------
Name                           Type      Size  Value                                                       
-----------------------------------------------------------------------------------------------------------
req                            axi_xtn   -     @993                                                        
  begin_time                   time      64    2500                                                        
  end_time                     time      64    4500                                                        
  depth                        int       32    'd2                                                         
  parent sequence (name)       string    5     m_seq                                                       
  parent sequence (full name)  string    60    uvm_test_top.env_h.mst_agt_top.mst_agt_h[0].mst_seqr_h.m_seq
  sequencer                    string    54    uvm_test_top.env_h.mst_agt_top.mst_agt_h[0].mst_seqr_h      
  AWID                         integral  4     12                                                          
  AWADDR                       integral  32    'he6e9e088                                                  
  AWLEN                        integral  4     'd3                                                         
  AWSIZE                       integral  3     'd3                                                         
  AWBURST                      integral  2     2                                                           
  WID                          integral  4     12                                                          
  WDATA                        integral  64    'he433fa7ef38d8655                                          
  WSTRB                        integral  8     'b11111111                                                  
  WLAST                        integral  1     'dX                                                         
  WDATA                        integral  64    'hc324e19e30ddd5fc                                          
  WSTRB                        integral  8     'b11111111                                                  
  WLAST                        integral  1     'dX                                                         
  WDATA                        integral  64    'h7e71eb9f7b03ce62                                          
  WSTRB                        integral  8     'b11111111                                                  
  WLAST                        integral  1     'dX                                                         
  WDATA                        integral  64    'ha9feef228f85fb5d                                          
  WSTRB                        integral  8     'b11111111                                                  
  WLAST                        integral  1     'dX                                                         
  BID                          integral  4     12                                                          
  BRESP                        integral  2     'd0                                                         
  ARID                         integral  4     12                                                          
  ARADDR                       integral  32    'hfc5c49b8                                                  
  ARLEN                        integral  8     'd15                                                        
  ARSIZE                       integral  3     'd2                                                         
  ARBURST                      integral  2     2                                                           
  RID                          integral  4     12                                                          
  RDATA                        integral  64    'hefdee78d23aad27a                                          
  RRESP                        integral  2     'd0                                                         
  RDATA                        integral  64    'h4caaaa0da119b90a                                          
  RRESP                        integral  2     'd0                                                         
  RDATA                        integral  64    'h6d7350d49b76c60                                           
  RRESP                        integral  2     'd0                                                         
  RDATA                        integral  64    'h5f62e4ae41d0a6e9                                          
  RRESP                        integral  2     'd0                                                         
  RDATA                        integral  64    'h28c67d64e03108c4                                          
  RRESP                        integral  2     'd0                                                         
  RDATA                        integral  64    'h42e4a7bee6be8952                                          
  RRESP                        integral  2     'd0                                                         
  RDATA                        integral  64    'hdf7af9050963b5a2                                          
  RRESP                        integral  2     'd0                                                         
  RDATA                        integral  64    'h87c2d8641cc0a214                                          
  RRESP                        integral  2     'd0                                                         
  RDATA                        integral  64    'h7c9397335f392069                                          
  RRESP                        integral  2     'd0                                                         
  RDATA                        integral  64    'h12a65206f1e0ae57                                          
  RRESP                        integral  2     'd0                                                         
  RDATA                        integral  64    'hb2f9eb3f67028268                                          
  RRESP                        integral  2     'd0                                                         
  RDATA                        integral  64    'h228167647d1a4ca3                                          
  RRESP                        integral  2     'd0                                                         
  RDATA                        integral  64    'h7dd3a949b99df4b6                                          
  RRESP                        integral  2     'd0                                                         
  RDATA                        integral  64    'hd5fb0c556c3ccb74                                          
  RRESP                        integral  2     'd0                                                         
  RDATA                        integral  64    'h82d01658c0a0923a                                          
  RRESP                        integral  2     'd0                                                         
  RDATA                        integral  64    'h14be2c65dc187b0a                                          
  RRESP                        integral  2     'd0                                                         
-----------------------------------------------------------------------------------------------------------

end of drive_wdata
end of drive_awaddr
start of drive_wdata
start of drive_bresp
start of drive_awaddr
end of drive_raddr
start of drive_raddr
start of drive_rdata
UVM_INFO ../master_agent_top/master_driver.sv(153) @ 14500: uvm_test_top.env_h.mst_agt_top.mst_agt_h[0].mst_drv_h [DRV] DRV= -----------------------------------------------------------------------------------------------------------
Name                           Type      Size  Value                                                       
-----------------------------------------------------------------------------------------------------------
req                            axi_xtn   -     @1070                                                       
  begin_time                   time      64    4500                                                        
  end_time                     time      64    6500                                                        
  depth                        int       32    'd2                                                         
  parent sequence (name)       string    5     m_seq                                                       
  parent sequence (full name)  string    60    uvm_test_top.env_h.mst_agt_top.mst_agt_h[0].mst_seqr_h.m_seq
  sequencer                    string    54    uvm_test_top.env_h.mst_agt_top.mst_agt_h[0].mst_seqr_h      
  AWID                         integral  4     13                                                          
  AWADDR                       integral  32    'h69db82ec                                                  
  AWLEN                        integral  4     'd7                                                         
  AWSIZE                       integral  3     'd2                                                         
  AWBURST                      integral  2     2                                                           
  WID                          integral  4     13                                                          
  WDATA                        integral  64    'h9bde4a6a029a05b                                           
  WSTRB                        integral  8     'b11110000                                                  
  WLAST                        integral  1     'dX                                                         
  WDATA                        integral  64    'h883ea4283cd75e41                                          
  WSTRB                        integral  8     'b1111                                                      
  WLAST                        integral  1     'dX                                                         
  WDATA                        integral  64    'h2487067a4107097c                                          
  WSTRB                        integral  8     'b1111                                                      
  WLAST                        integral  1     'dX                                                         
  WDATA                        integral  64    'ha17bb5b2e0351f35                                          
  WSTRB                        integral  8     'b1111                                                      
  WLAST                        integral  1     'dX                                                         
  WDATA                        integral  64    'h698cf171c2a7d9de                                          
  WSTRB                        integral  8     'b1111                                                      
  WLAST                        integral  1     'dX                                                         
  WDATA                        integral  64    'h4639abac5734f5a5                                          
  WSTRB                        integral  8     'b1111                                                      
  WLAST                        integral  1     'dX                                                         
  WDATA                        integral  64    'h13fbd7ce7deebc17                                          
  WSTRB                        integral  8     'b1111                                                      
  WLAST                        integral  1     'dX                                                         
  WDATA                        integral  64    'h482abaea28f61753                                          
  WSTRB                        integral  8     'b1111                                                      
  WLAST                        integral  1     'dX                                                         
  BID                          integral  4     13                                                          
  BRESP                        integral  2     'd0                                                         
  ARID                         integral  4     'd0                                                         
  ARADDR                       integral  32    'hb0942f30                                                  
  ARLEN                        integral  8     'd15                                                        
  ARSIZE                       integral  3     'd1                                                         
  ARBURST                      integral  2     2                                                           
  RID                          integral  4     'd0                                                         
  RDATA                        integral  64    'h5875a58f0218c2b5                                          
  RRESP                        integral  2     'd0                                                         
  RDATA                        integral  64    'h820661bb65ddadc6                                          
  RRESP                        integral  2     'd0                                                         
  RDATA                        integral  64    'h2393b432b872f7b2                                          
  RRESP                        integral  2     'd0                                                         
  RDATA                        integral  64    'hd236afa662d5be7b                                          
  RRESP                        integral  2     'd0                                                         
  RDATA                        integral  64    'ha7281ff71e415f87                                          
  RRESP                        integral  2     'd0                                                         
  RDATA                        integral  64    'h807fb408e0da68d2                                          
  RRESP                        integral  2     'd0                                                         
  RDATA                        integral  64    'hede88092b7277643                                          
  RRESP                        integral  2     'd0                                                         
  RDATA                        integral  64    'hab7708c0aad28080                                          
  RRESP                        integral  2     'd0                                                         
  RDATA                        integral  64    'hd7ddb399574feb31                                          
  RRESP                        integral  2     'd0                                                         
  RDATA                        integral  64    'h2080000b863c36ed                                          
  RRESP                        integral  2     'd0                                                         
  RDATA                        integral  64    'hf679033d38a20c9f                                          
  RRESP                        integral  2     'd0                                                         
  RDATA                        integral  64    'h9ae2c8cb40850f5e                                          
  RRESP                        integral  2     'd0                                                         
  RDATA                        integral  64    'h8c6ffd4179cb5256                                          
  RRESP                        integral  2     'd0                                                         
  RDATA                        integral  64    'h790041b7db0628e4                                          
  RRESP                        integral  2     'd0                                                         
  RDATA                        integral  64    'h8a9a4f854379b864                                          
  RRESP                        integral  2     'd0                                                         
  RDATA                        integral  64    'h94e042d8650db091                                          
  RRESP                        integral  2     'd0                                                         
-----------------------------------------------------------------------------------------------------------

end of drive_awaddr
start of drive_awaddr
inside drive_raddr before wait ARREADY
UVM_INFO ../master_agent_top/master_driver.sv(153) @ 16500: uvm_test_top.env_h.mst_agt_top.mst_agt_h[0].mst_drv_h [DRV] DRV= -----------------------------------------------------------------------------------------------------------
Name                           Type      Size  Value                                                       
-----------------------------------------------------------------------------------------------------------
req                            axi_xtn   -     @1070                                                       
  begin_time                   time      64    4500                                                        
  end_time                     time      64    6500                                                        
  depth                        int       32    'd2                                                         
  parent sequence (name)       string    5     m_seq                                                       
  parent sequence (full name)  string    60    uvm_test_top.env_h.mst_agt_top.mst_agt_h[0].mst_seqr_h.m_seq
  sequencer                    string    54    uvm_test_top.env_h.mst_agt_top.mst_agt_h[0].mst_seqr_h      
  AWID                         integral  4     13                                                          
  AWADDR                       integral  32    'h69db82ec                                                  
  AWLEN                        integral  4     'd7                                                         
  AWSIZE                       integral  3     'd2                                                         
  AWBURST                      integral  2     2                                                           
  WID                          integral  4     13                                                          
  WDATA                        integral  64    'h9bde4a6a029a05b                                           
  WSTRB                        integral  8     'b11110000                                                  
  WLAST                        integral  1     'dX                                                         
  WDATA                        integral  64    'h883ea4283cd75e41                                          
  WSTRB                        integral  8     'b1111                                                      
  WLAST                        integral  1     'dX                                                         
  WDATA                        integral  64    'h2487067a4107097c                                          
  WSTRB                        integral  8     'b1111                                                      
  WLAST                        integral  1     'dX                                                         
  WDATA                        integral  64    'ha17bb5b2e0351f35                                          
  WSTRB                        integral  8     'b1111                                                      
  WLAST                        integral  1     'dX                                                         
  WDATA                        integral  64    'h698cf171c2a7d9de                                          
  WSTRB                        integral  8     'b1111                                                      
  WLAST                        integral  1     'dX                                                         
  WDATA                        integral  64    'h4639abac5734f5a5                                          
  WSTRB                        integral  8     'b1111                                                      
  WLAST                        integral  1     'dX                                                         
  WDATA                        integral  64    'h13fbd7ce7deebc17                                          
  WSTRB                        integral  8     'b1111                                                      
  WLAST                        integral  1     'dX                                                         
  WDATA                        integral  64    'h482abaea28f61753                                          
  WSTRB                        integral  8     'b1111                                                      
  WLAST                        integral  1     'dX                                                         
  BID                          integral  4     13                                                          
  BRESP                        integral  2     'd0                                                         
  ARID                         integral  4     'd0                                                         
  ARADDR                       integral  32    'hb0942f30                                                  
  ARLEN                        integral  8     'd15                                                        
  ARSIZE                       integral  3     'd1                                                         
  ARBURST                      integral  2     2                                                           
  RID                          integral  4     'd0                                                         
  RDATA                        integral  64    'h5875a58f0218c2b5                                          
  RRESP                        integral  2     'd0                                                         
  RDATA                        integral  64    'h820661bb65ddadc6                                          
  RRESP                        integral  2     'd0                                                         
  RDATA                        integral  64    'h2393b432b872f7b2                                          
  RRESP                        integral  2     'd0                                                         
  RDATA                        integral  64    'hd236afa662d5be7b                                          
  RRESP                        integral  2     'd0                                                         
  RDATA                        integral  64    'ha7281ff71e415f87                                          
  RRESP                        integral  2     'd0                                                         
  RDATA                        integral  64    'h807fb408e0da68d2                                          
  RRESP                        integral  2     'd0                                                         
  RDATA                        integral  64    'hede88092b7277643                                          
  RRESP                        integral  2     'd0                                                         
  RDATA                        integral  64    'hab7708c0aad28080                                          
  RRESP                        integral  2     'd0                                                         
  RDATA                        integral  64    'hd7ddb399574feb31                                          
  RRESP                        integral  2     'd0                                                         
  RDATA                        integral  64    'h2080000b863c36ed                                          
  RRESP                        integral  2     'd0                                                         
  RDATA                        integral  64    'hf679033d38a20c9f                                          
  RRESP                        integral  2     'd0                                                         
  RDATA                        integral  64    'h9ae2c8cb40850f5e                                          
  RRESP                        integral  2     'd0                                                         
  RDATA                        integral  64    'h8c6ffd4179cb5256                                          
  RRESP                        integral  2     'd0                                                         
  RDATA                        integral  64    'h790041b7db0628e4                                          
  RRESP                        integral  2     'd0                                                         
  RDATA                        integral  64    'h8a9a4f854379b864                                          
  RRESP                        integral  2     'd0                                                         
  RDATA                        integral  64    'h94e042d8650db091                                          
  RRESP                        integral  2     'd0                                                         
-----------------------------------------------------------------------------------------------------------

end of drive_awaddr
start of drive_awaddr
UVM_INFO ../master_agent_top/master_driver.sv(153) @ 18500: uvm_test_top.env_h.mst_agt_top.mst_agt_h[0].mst_drv_h [DRV] DRV= -----------------------------------------------------------------------------------------------------------
Name                           Type      Size  Value                                                       
-----------------------------------------------------------------------------------------------------------
req                            axi_xtn   -     @1070                                                       
  begin_time                   time      64    4500                                                        
  end_time                     time      64    6500                                                        
  depth                        int       32    'd2                                                         
  parent sequence (name)       string    5     m_seq                                                       
  parent sequence (full name)  string    60    uvm_test_top.env_h.mst_agt_top.mst_agt_h[0].mst_seqr_h.m_seq
  sequencer                    string    54    uvm_test_top.env_h.mst_agt_top.mst_agt_h[0].mst_seqr_h      
  AWID                         integral  4     13                                                          
  AWADDR                       integral  32    'h69db82ec                                                  
  AWLEN                        integral  4     'd7                                                         
  AWSIZE                       integral  3     'd2                                                         
  AWBURST                      integral  2     2                                                           
  WID                          integral  4     13                                                          
  WDATA                        integral  64    'h9bde4a6a029a05b                                           
  WSTRB                        integral  8     'b11110000                                                  
  WLAST                        integral  1     'dX                                                         
  WDATA                        integral  64    'h883ea4283cd75e41                                          
  WSTRB                        integral  8     'b1111                                                      
  WLAST                        integral  1     'dX                                                         
  WDATA                        integral  64    'h2487067a4107097c                                          
  WSTRB                        integral  8     'b1111                                                      
  WLAST                        integral  1     'dX                                                         
  WDATA                        integral  64    'ha17bb5b2e0351f35                                          
  WSTRB                        integral  8     'b1111                                                      
  WLAST                        integral  1     'dX                                                         
  WDATA                        integral  64    'h698cf171c2a7d9de                                          
  WSTRB                        integral  8     'b1111                                                      
  WLAST                        integral  1     'dX                                                         
  WDATA                        integral  64    'h4639abac5734f5a5                                          
  WSTRB                        integral  8     'b1111                                                      
  WLAST                        integral  1     'dX                                                         
  WDATA                        integral  64    'h13fbd7ce7deebc17                                          
  WSTRB                        integral  8     'b1111                                                      
  WLAST                        integral  1     'dX                                                         
  WDATA                        integral  64    'h482abaea28f61753                                          
  WSTRB                        integral  8     'b1111                                                      
  WLAST                        integral  1     'dX                                                         
  BID                          integral  4     13                                                          
  BRESP                        integral  2     'd0                                                         
  ARID                         integral  4     'd0                                                         
  ARADDR                       integral  32    'hb0942f30                                                  
  ARLEN                        integral  8     'd15                                                        
  ARSIZE                       integral  3     'd1                                                         
  ARBURST                      integral  2     2                                                           
  RID                          integral  4     'd0                                                         
  RDATA                        integral  64    'h5875a58f0218c2b5                                          
  RRESP                        integral  2     'd0                                                         
  RDATA                        integral  64    'h820661bb65ddadc6                                          
  RRESP                        integral  2     'd0                                                         
  RDATA                        integral  64    'h2393b432b872f7b2                                          
  RRESP                        integral  2     'd0                                                         
  RDATA                        integral  64    'hd236afa662d5be7b                                          
  RRESP                        integral  2     'd0                                                         
  RDATA                        integral  64    'ha7281ff71e415f87                                          
  RRESP                        integral  2     'd0                                                         
  RDATA                        integral  64    'h807fb408e0da68d2                                          
  RRESP                        integral  2     'd0                                                         
  RDATA                        integral  64    'hede88092b7277643                                          
  RRESP                        integral  2     'd0                                                         
  RDATA                        integral  64    'hab7708c0aad28080                                          
  RRESP                        integral  2     'd0                                                         
  RDATA                        integral  64    'hd7ddb399574feb31                                          
  RRESP                        integral  2     'd0                                                         
  RDATA                        integral  64    'h2080000b863c36ed                                          
  RRESP                        integral  2     'd0                                                         
  RDATA                        integral  64    'hf679033d38a20c9f                                          
  RRESP                        integral  2     'd0                                                         
  RDATA                        integral  64    'h9ae2c8cb40850f5e                                          
  RRESP                        integral  2     'd0                                                         
  RDATA                        integral  64    'h8c6ffd4179cb5256                                          
  RRESP                        integral  2     'd0                                                         
  RDATA                        integral  64    'h790041b7db0628e4                                          
  RRESP                        integral  2     'd0                                                         
  RDATA                        integral  64    'h8a9a4f854379b864                                          
  RRESP                        integral  2     'd0                                                         
  RDATA                        integral  64    'h94e042d8650db091                                          
  RRESP                        integral  2     'd0                                                         
-----------------------------------------------------------------------------------------------------------

end of drive_awaddr
start of drive_awaddr
UVM_INFO ../master_agent_top/master_driver.sv(153) @ 20500: uvm_test_top.env_h.mst_agt_top.mst_agt_h[0].mst_drv_h [DRV] DRV= -----------------------------------------------------------------------------------------------------------
Name                           Type      Size  Value                                                       
-----------------------------------------------------------------------------------------------------------
req                            axi_xtn   -     @1070                                                       
  begin_time                   time      64    4500                                                        
  end_time                     time      64    6500                                                        
  depth                        int       32    'd2                                                         
  parent sequence (name)       string    5     m_seq                                                       
  parent sequence (full name)  string    60    uvm_test_top.env_h.mst_agt_top.mst_agt_h[0].mst_seqr_h.m_seq
  sequencer                    string    54    uvm_test_top.env_h.mst_agt_top.mst_agt_h[0].mst_seqr_h      
  AWID                         integral  4     13                                                          
  AWADDR                       integral  32    'h69db82ec                                                  
  AWLEN                        integral  4     'd7                                                         
  AWSIZE                       integral  3     'd2                                                         
  AWBURST                      integral  2     2                                                           
  WID                          integral  4     13                                                          
  WDATA                        integral  64    'h9bde4a6a029a05b                                           
  WSTRB                        integral  8     'b11110000                                                  
  WLAST                        integral  1     'dX                                                         
  WDATA                        integral  64    'h883ea4283cd75e41                                          
  WSTRB                        integral  8     'b1111                                                      
  WLAST                        integral  1     'dX                                                         
  WDATA                        integral  64    'h2487067a4107097c                                          
  WSTRB                        integral  8     'b1111                                                      
  WLAST                        integral  1     'dX                                                         
  WDATA                        integral  64    'ha17bb5b2e0351f35                                          
  WSTRB                        integral  8     'b1111                                                      
  WLAST                        integral  1     'dX                                                         
  WDATA                        integral  64    'h698cf171c2a7d9de                                          
  WSTRB                        integral  8     'b1111                                                      
  WLAST                        integral  1     'dX                                                         
  WDATA                        integral  64    'h4639abac5734f5a5                                          
  WSTRB                        integral  8     'b1111                                                      
  WLAST                        integral  1     'dX                                                         
  WDATA                        integral  64    'h13fbd7ce7deebc17                                          
  WSTRB                        integral  8     'b1111                                                      
  WLAST                        integral  1     'dX                                                         
  WDATA                        integral  64    'h482abaea28f61753                                          
  WSTRB                        integral  8     'b1111                                                      
  WLAST                        integral  1     'dX                                                         
  BID                          integral  4     13                                                          
  BRESP                        integral  2     'd0                                                         
  ARID                         integral  4     'd0                                                         
  ARADDR                       integral  32    'hb0942f30                                                  
  ARLEN                        integral  8     'd15                                                        
  ARSIZE                       integral  3     'd1                                                         
  ARBURST                      integral  2     2                                                           
  RID                          integral  4     'd0                                                         
  RDATA                        integral  64    'h5875a58f0218c2b5                                          
  RRESP                        integral  2     'd0                                                         
  RDATA                        integral  64    'h820661bb65ddadc6                                          
  RRESP                        integral  2     'd0                                                         
  RDATA                        integral  64    'h2393b432b872f7b2                                          
  RRESP                        integral  2     'd0                                                         
  RDATA                        integral  64    'hd236afa662d5be7b                                          
  RRESP                        integral  2     'd0                                                         
  RDATA                        integral  64    'ha7281ff71e415f87                                          
  RRESP                        integral  2     'd0                                                         
  RDATA                        integral  64    'h807fb408e0da68d2                                          
  RRESP                        integral  2     'd0                                                         
  RDATA                        integral  64    'hede88092b7277643                                          
  RRESP                        integral  2     'd0                                                         
  RDATA                        integral  64    'hab7708c0aad28080                                          
  RRESP                        integral  2     'd0                                                         
  RDATA                        integral  64    'hd7ddb399574feb31                                          
  RRESP                        integral  2     'd0                                                         
  RDATA                        integral  64    'h2080000b863c36ed                                          
  RRESP                        integral  2     'd0                                                         
  RDATA                        integral  64    'hf679033d38a20c9f                                          
  RRESP                        integral  2     'd0                                                         
  RDATA                        integral  64    'h9ae2c8cb40850f5e                                          
  RRESP                        integral  2     'd0                                                         
  RDATA                        integral  64    'h8c6ffd4179cb5256                                          
  RRESP                        integral  2     'd0                                                         
  RDATA                        integral  64    'h790041b7db0628e4                                          
  RRESP                        integral  2     'd0                                                         
  RDATA                        integral  64    'h8a9a4f854379b864                                          
  RRESP                        integral  2     'd0                                                         
  RDATA                        integral  64    'h94e042d8650db091                                          
  RRESP                        integral  2     'd0                                                         
-----------------------------------------------------------------------------------------------------------

end of drive_awaddr
start of drive_awaddr
end of drive_raddr
start of drive_raddr
UVM_INFO ../master_agent_top/master_driver.sv(153) @ 22500: uvm_test_top.env_h.mst_agt_top.mst_agt_h[0].mst_drv_h [DRV] DRV= -----------------------------------------------------------------------------------------------------------
Name                           Type      Size  Value                                                       
-----------------------------------------------------------------------------------------------------------
req                            axi_xtn   -     @1070                                                       
  begin_time                   time      64    4500                                                        
  end_time                     time      64    6500                                                        
  depth                        int       32    'd2                                                         
  parent sequence (name)       string    5     m_seq                                                       
  parent sequence (full name)  string    60    uvm_test_top.env_h.mst_agt_top.mst_agt_h[0].mst_seqr_h.m_seq
  sequencer                    string    54    uvm_test_top.env_h.mst_agt_top.mst_agt_h[0].mst_seqr_h      
  AWID                         integral  4     13                                                          
  AWADDR                       integral  32    'h69db82ec                                                  
  AWLEN                        integral  4     'd7                                                         
  AWSIZE                       integral  3     'd2                                                         
  AWBURST                      integral  2     2                                                           
  WID                          integral  4     13                                                          
  WDATA                        integral  64    'h9bde4a6a029a05b                                           
  WSTRB                        integral  8     'b11110000                                                  
  WLAST                        integral  1     'dX                                                         
  WDATA                        integral  64    'h883ea4283cd75e41                                          
  WSTRB                        integral  8     'b1111                                                      
  WLAST                        integral  1     'dX                                                         
  WDATA                        integral  64    'h2487067a4107097c                                          
  WSTRB                        integral  8     'b1111                                                      
  WLAST                        integral  1     'dX                                                         
  WDATA                        integral  64    'ha17bb5b2e0351f35                                          
  WSTRB                        integral  8     'b1111                                                      
  WLAST                        integral  1     'dX                                                         
  WDATA                        integral  64    'h698cf171c2a7d9de                                          
  WSTRB                        integral  8     'b1111                                                      
  WLAST                        integral  1     'dX                                                         
  WDATA                        integral  64    'h4639abac5734f5a5                                          
  WSTRB                        integral  8     'b1111                                                      
  WLAST                        integral  1     'dX                                                         
  WDATA                        integral  64    'h13fbd7ce7deebc17                                          
  WSTRB                        integral  8     'b1111                                                      
  WLAST                        integral  1     'dX                                                         
  WDATA                        integral  64    'h482abaea28f61753                                          
  WSTRB                        integral  8     'b1111                                                      
  WLAST                        integral  1     'dX                                                         
  BID                          integral  4     13                                                          
  BRESP                        integral  2     'd0                                                         
  ARID                         integral  4     'd0                                                         
  ARADDR                       integral  32    'hb0942f30                                                  
  ARLEN                        integral  8     'd15                                                        
  ARSIZE                       integral  3     'd1                                                         
  ARBURST                      integral  2     2                                                           
  RID                          integral  4     'd0                                                         
  RDATA                        integral  64    'h5875a58f0218c2b5                                          
  RRESP                        integral  2     'd0                                                         
  RDATA                        integral  64    'h820661bb65ddadc6                                          
  RRESP                        integral  2     'd0                                                         
  RDATA                        integral  64    'h2393b432b872f7b2                                          
  RRESP                        integral  2     'd0                                                         
  RDATA                        integral  64    'hd236afa662d5be7b                                          
  RRESP                        integral  2     'd0                                                         
  RDATA                        integral  64    'ha7281ff71e415f87                                          
  RRESP                        integral  2     'd0                                                         
  RDATA                        integral  64    'h807fb408e0da68d2                                          
  RRESP                        integral  2     'd0                                                         
  RDATA                        integral  64    'hede88092b7277643                                          
  RRESP                        integral  2     'd0                                                         
  RDATA                        integral  64    'hab7708c0aad28080                                          
  RRESP                        integral  2     'd0                                                         
  RDATA                        integral  64    'hd7ddb399574feb31                                          
  RRESP                        integral  2     'd0                                                         
  RDATA                        integral  64    'h2080000b863c36ed                                          
  RRESP                        integral  2     'd0                                                         
  RDATA                        integral  64    'hf679033d38a20c9f                                          
  RRESP                        integral  2     'd0                                                         
  RDATA                        integral  64    'h9ae2c8cb40850f5e                                          
  RRESP                        integral  2     'd0                                                         
  RDATA                        integral  64    'h8c6ffd4179cb5256                                          
  RRESP                        integral  2     'd0                                                         
  RDATA                        integral  64    'h790041b7db0628e4                                          
  RRESP                        integral  2     'd0                                                         
  RDATA                        integral  64    'h8a9a4f854379b864                                          
  RRESP                        integral  2     'd0                                                         
  RDATA                        integral  64    'h94e042d8650db091                                          
  RRESP                        integral  2     'd0                                                         
-----------------------------------------------------------------------------------------------------------

end of drive_awaddr
start of drive_awaddr
inside drive_raddr before wait ARREADY
UVM_INFO ../master_agent_top/master_driver.sv(153) @ 24500: uvm_test_top.env_h.mst_agt_top.mst_agt_h[0].mst_drv_h [DRV] DRV= -----------------------------------------------------------------------------------------------------------
Name                           Type      Size  Value                                                       
-----------------------------------------------------------------------------------------------------------
req                            axi_xtn   -     @1070                                                       
  begin_time                   time      64    4500                                                        
  end_time                     time      64    6500                                                        
  depth                        int       32    'd2                                                         
  parent sequence (name)       string    5     m_seq                                                       
  parent sequence (full name)  string    60    uvm_test_top.env_h.mst_agt_top.mst_agt_h[0].mst_seqr_h.m_seq
  sequencer                    string    54    uvm_test_top.env_h.mst_agt_top.mst_agt_h[0].mst_seqr_h      
  AWID                         integral  4     13                                                          
  AWADDR                       integral  32    'h69db82ec                                                  
  AWLEN                        integral  4     'd7                                                         
  AWSIZE                       integral  3     'd2                                                         
  AWBURST                      integral  2     2                                                           
  WID                          integral  4     13                                                          
  WDATA                        integral  64    'h9bde4a6a029a05b                                           
  WSTRB                        integral  8     'b11110000                                                  
  WLAST                        integral  1     'dX                                                         
  WDATA                        integral  64    'h883ea4283cd75e41                                          
  WSTRB                        integral  8     'b1111                                                      
  WLAST                        integral  1     'dX                                                         
  WDATA                        integral  64    'h2487067a4107097c                                          
  WSTRB                        integral  8     'b1111                                                      
  WLAST                        integral  1     'dX                                                         
  WDATA                        integral  64    'ha17bb5b2e0351f35                                          
  WSTRB                        integral  8     'b1111                                                      
  WLAST                        integral  1     'dX                                                         
  WDATA                        integral  64    'h698cf171c2a7d9de                                          
  WSTRB                        integral  8     'b1111                                                      
  WLAST                        integral  1     'dX                                                         
  WDATA                        integral  64    'h4639abac5734f5a5                                          
  WSTRB                        integral  8     'b1111                                                      
  WLAST                        integral  1     'dX                                                         
  WDATA                        integral  64    'h13fbd7ce7deebc17                                          
  WSTRB                        integral  8     'b1111                                                      
  WLAST                        integral  1     'dX                                                         
  WDATA                        integral  64    'h482abaea28f61753                                          
  WSTRB                        integral  8     'b1111                                                      
  WLAST                        integral  1     'dX                                                         
  BID                          integral  4     13                                                          
  BRESP                        integral  2     'd0                                                         
  ARID                         integral  4     'd0                                                         
  ARADDR                       integral  32    'hb0942f30                                                  
  ARLEN                        integral  8     'd15                                                        
  ARSIZE                       integral  3     'd1                                                         
  ARBURST                      integral  2     2                                                           
  RID                          integral  4     'd0                                                         
  RDATA                        integral  64    'h5875a58f0218c2b5                                          
  RRESP                        integral  2     'd0                                                         
  RDATA                        integral  64    'h820661bb65ddadc6                                          
  RRESP                        integral  2     'd0                                                         
  RDATA                        integral  64    'h2393b432b872f7b2                                          
  RRESP                        integral  2     'd0                                                         
  RDATA                        integral  64    'hd236afa662d5be7b                                          
  RRESP                        integral  2     'd0                                                         
  RDATA                        integral  64    'ha7281ff71e415f87                                          
  RRESP                        integral  2     'd0                                                         
  RDATA                        integral  64    'h807fb408e0da68d2                                          
  RRESP                        integral  2     'd0                                                         
  RDATA                        integral  64    'hede88092b7277643                                          
  RRESP                        integral  2     'd0                                                         
  RDATA                        integral  64    'hab7708c0aad28080                                          
  RRESP                        integral  2     'd0                                                         
  RDATA                        integral  64    'hd7ddb399574feb31                                          
  RRESP                        integral  2     'd0                                                         
  RDATA                        integral  64    'h2080000b863c36ed                                          
  RRESP                        integral  2     'd0                                                         
  RDATA                        integral  64    'hf679033d38a20c9f                                          
  RRESP                        integral  2     'd0                                                         
  RDATA                        integral  64    'h9ae2c8cb40850f5e                                          
  RRESP                        integral  2     'd0                                                         
  RDATA                        integral  64    'h8c6ffd4179cb5256                                          
  RRESP                        integral  2     'd0                                                         
  RDATA                        integral  64    'h790041b7db0628e4                                          
  RRESP                        integral  2     'd0                                                         
  RDATA                        integral  64    'h8a9a4f854379b864                                          
  RRESP                        integral  2     'd0                                                         
  RDATA                        integral  64    'h94e042d8650db091                                          
  RRESP                        integral  2     'd0                                                         
-----------------------------------------------------------------------------------------------------------

end of drive_awaddr
start of drive_awaddr
UVM_INFO ../master_agent_top/master_driver.sv(153) @ 26500: uvm_test_top.env_h.mst_agt_top.mst_agt_h[0].mst_drv_h [DRV] DRV= -----------------------------------------------------------------------------------------------------------
Name                           Type      Size  Value                                                       
-----------------------------------------------------------------------------------------------------------
req                            axi_xtn   -     @1070                                                       
  begin_time                   time      64    4500                                                        
  end_time                     time      64    6500                                                        
  depth                        int       32    'd2                                                         
  parent sequence (name)       string    5     m_seq                                                       
  parent sequence (full name)  string    60    uvm_test_top.env_h.mst_agt_top.mst_agt_h[0].mst_seqr_h.m_seq
  sequencer                    string    54    uvm_test_top.env_h.mst_agt_top.mst_agt_h[0].mst_seqr_h      
  AWID                         integral  4     13                                                          
  AWADDR                       integral  32    'h69db82ec                                                  
  AWLEN                        integral  4     'd7                                                         
  AWSIZE                       integral  3     'd2                                                         
  AWBURST                      integral  2     2                                                           
  WID                          integral  4     13                                                          
  WDATA                        integral  64    'h9bde4a6a029a05b                                           
  WSTRB                        integral  8     'b11110000                                                  
  WLAST                        integral  1     'dX                                                         
  WDATA                        integral  64    'h883ea4283cd75e41                                          
  WSTRB                        integral  8     'b1111                                                      
  WLAST                        integral  1     'dX                                                         
  WDATA                        integral  64    'h2487067a4107097c                                          
  WSTRB                        integral  8     'b1111                                                      
  WLAST                        integral  1     'dX                                                         
  WDATA                        integral  64    'ha17bb5b2e0351f35                                          
  WSTRB                        integral  8     'b1111                                                      
  WLAST                        integral  1     'dX                                                         
  WDATA                        integral  64    'h698cf171c2a7d9de                                          
  WSTRB                        integral  8     'b1111                                                      
  WLAST                        integral  1     'dX                                                         
  WDATA                        integral  64    'h4639abac5734f5a5                                          
  WSTRB                        integral  8     'b1111                                                      
  WLAST                        integral  1     'dX                                                         
  WDATA                        integral  64    'h13fbd7ce7deebc17                                          
  WSTRB                        integral  8     'b1111                                                      
  WLAST                        integral  1     'dX                                                         
  WDATA                        integral  64    'h482abaea28f61753                                          
  WSTRB                        integral  8     'b1111                                                      
  WLAST                        integral  1     'dX                                                         
  BID                          integral  4     13                                                          
  BRESP                        integral  2     'd0                                                         
  ARID                         integral  4     'd0                                                         
  ARADDR                       integral  32    'hb0942f30                                                  
  ARLEN                        integral  8     'd15                                                        
  ARSIZE                       integral  3     'd1                                                         
  ARBURST                      integral  2     2                                                           
  RID                          integral  4     'd0                                                         
  RDATA                        integral  64    'h5875a58f0218c2b5                                          
  RRESP                        integral  2     'd0                                                         
  RDATA                        integral  64    'h820661bb65ddadc6                                          
  RRESP                        integral  2     'd0                                                         
  RDATA                        integral  64    'h2393b432b872f7b2                                          
  RRESP                        integral  2     'd0                                                         
  RDATA                        integral  64    'hd236afa662d5be7b                                          
  RRESP                        integral  2     'd0                                                         
  RDATA                        integral  64    'ha7281ff71e415f87                                          
  RRESP                        integral  2     'd0                                                         
  RDATA                        integral  64    'h807fb408e0da68d2                                          
  RRESP                        integral  2     'd0                                                         
  RDATA                        integral  64    'hede88092b7277643                                          
  RRESP                        integral  2     'd0                                                         
  RDATA                        integral  64    'hab7708c0aad28080                                          
  RRESP                        integral  2     'd0                                                         
  RDATA                        integral  64    'hd7ddb399574feb31                                          
  RRESP                        integral  2     'd0                                                         
  RDATA                        integral  64    'h2080000b863c36ed                                          
  RRESP                        integral  2     'd0                                                         
  RDATA                        integral  64    'hf679033d38a20c9f                                          
  RRESP                        integral  2     'd0                                                         
  RDATA                        integral  64    'h9ae2c8cb40850f5e                                          
  RRESP                        integral  2     'd0                                                         
  RDATA                        integral  64    'h8c6ffd4179cb5256                                          
  RRESP                        integral  2     'd0                                                         
  RDATA                        integral  64    'h790041b7db0628e4                                          
  RRESP                        integral  2     'd0                                                         
  RDATA                        integral  64    'h8a9a4f854379b864                                          
  RRESP                        integral  2     'd0                                                         
  RDATA                        integral  64    'h94e042d8650db091                                          
  RRESP                        integral  2     'd0                                                         
-----------------------------------------------------------------------------------------------------------

end of drive_awaddr
start of drive_awaddr
end of drive_raddr
UVM_INFO ../master_agent_top/master_driver.sv(153) @ 28500: uvm_test_top.env_h.mst_agt_top.mst_agt_h[0].mst_drv_h [DRV] DRV= -----------------------------------------------------------------------------------------------------------
Name                           Type      Size  Value                                                       
