# vsim -cvgperinstance -vopt -voptargs="+acc" -coverage -sva -c -do " log -r /* ;coverage save -onexit mem_cov7;run -all; exit" -wlf wave_file7.wlf -l test7.log -sv_seed random work.top "+UVM_TESTNAME=apb_uart_oe_test" 
# Start time: 12:42:34 on Apr 11,2026
# ** Note: (vsim-8009) Loading existing optimized design _opt
# //  Questa Sim-64
# //  Version 2022.1_2 linux_x86_64 Apr  2 2022
# //
# //  Copyright 1991-2022 Mentor Graphics Corporation
# //  All Rights Reserved.
# //
# //  QuestaSim and its associated documentation contain trade
# //  secrets and commercial or financial information that are the property of
# //  Mentor Graphics Corporation and are privileged, confidential,
# //  and exempt from disclosure under the Freedom of Information Act,
# //  5 U.S.C. Section 552. Furthermore, this information
# //  is prohibited from disclosure under the Trade Secrets Act,
# //  18 U.S.C. Section 1905.
# //
# Loading sv_std.std
# Loading work.uart_if(fast)
# Loading mtiUvm.uvm_pkg(fast)
# Loading work.apb_uart_pkg(fast)
# Loading mtiUvm.questa_uvm_pkg(fast)
# Loading work.top(fast)
# Loading work.uart_if(fast__2)
# Loading work.uart_16550(fast)
# Loading work.uart_register_file(fast)
# Loading work.uart_tx(fast)
# Loading work.uart_fifo(fast)
# Loading work.uart_rx(fast)
# Loading /home/cad/eda/Mentor_Graphics/Questasim/questasim/uvm-1.1d/linux_x86_64/uvm_dpi.so
# ** Warning: (vsim-8634) Code was not compiled with coverage options.
# Sv_Seed = 3597222929
#  log -r /* 
# coverage save -onexit mem_cov7
# run -all
# ----------------------------------------------------------------
# UVM-1.1d
# (C) 2007-2013 Mentor Graphics Corporation
# (C) 2007-2013 Cadence Design Systems, Inc.
# (C) 2006-2013 Synopsys, Inc.
# (C) 2011-2013 Cypress Semiconductor Corp.
# ----------------------------------------------------------------
# 
#   ***********       IMPORTANT RELEASE NOTES         ************
# 
#   You are using a version of the UVM library that has been compiled
#   with `UVM_NO_DEPRECATED undefined.
#   See http://www.eda.org/svdb/view.php?id=3313 for more details.
# 
#   You are using a version of the UVM library that has been compiled
#   with `UVM_OBJECT_MUST_HAVE_CONSTRUCTOR undefined.
#   See http://www.eda.org/svdb/view.php?id=3770 for more details.
# 
#       (Specify +UVM_NO_RELNOTES to turn off this notice)
# 
# UVM_INFO verilog_src/questa_uvm_pkg-1.2/src/questa_uvm_pkg.sv(277) @ 0: reporter [Questa UVM] QUESTA_UVM-1.2.3
# UVM_INFO verilog_src/questa_uvm_pkg-1.2/src/questa_uvm_pkg.sv(278) @ 0: reporter [Questa UVM]  questa_uvm::init(+struct)
# UVM_INFO @ 0: reporter [RNTST] Running test apb_uart_oe_test...
# ----------------------------------------------------------------------
# Name                           Type                        Size  Value
# ----------------------------------------------------------------------
# <unnamed>                      uvm_root                    -     @13  
#   uvm_test_top                 apb_uart_oe_test            -     @475 
#     apb_uart_env               apb_uart_environment        -     @564 
#       apb_uart_agt_top         apb_uart_agent_top          -     @572 
#         apb_uart_agt[0]        apb_uart_agent              -     @587 
#           apb_uart_drv         apb_uart_driver             -     @610 
#             rsp_port           uvm_analysis_port           -     @625 
#             seq_item_port      uvm_seq_item_pull_port      -     @617 
#           apb_uart_mon         apb_uart_monitor            -     @603 
#             mon2sb             uvm_analysis_port           -     @748 
#           apb_uart_seqr        apb_uart_sequencer          -     @633 
#             rsp_export         uvm_analysis_export         -     @640 
#             seq_item_export    uvm_seq_item_pull_imp       -     @734 
#             arbitration_queue  array                       0     -    
#             lock_queue         array                       0     -    
#             num_last_reqs      integral                    32    'd1  
#             num_last_rsps      integral                    32    'd1  
#         apb_uart_agt[1]        apb_uart_agent              -     @594 
#           apb_uart_drv         apb_uart_driver             -     @770 
#             rsp_port           uvm_analysis_port           -     @785 
#             seq_item_port      uvm_seq_item_pull_port      -     @777 
#           apb_uart_mon         apb_uart_monitor            -     @763 
#             mon2sb             uvm_analysis_port           -     @908 
#           apb_uart_seqr        apb_uart_sequencer          -     @793 
#             rsp_export         uvm_analysis_export         -     @800 
#             seq_item_export    uvm_seq_item_pull_imp       -     @894 
#             arbitration_queue  array                       0     -    
#             lock_queue         array                       0     -    
#             num_last_reqs      integral                    32    'd1  
#             num_last_rsps      integral                    32    'd1  
#       apb_uart_sb              apb_uart_scoreboard         -     @579 
#         fifo0                  uvm_tlm_analysis_fifo #(T)  -     @922 
#           analysis_export      uvm_analysis_imp            -     @961 
#           get_ap               uvm_analysis_port           -     @953 
#           get_peek_export      uvm_get_peek_imp            -     @937 
#           put_ap               uvm_analysis_port           -     @945 
#           put_export           uvm_put_imp                 -     @929 
#         fifo1                  uvm_tlm_analysis_fifo #(T)  -     @969 
#           analysis_export      uvm_analysis_imp            -     @1008
#           get_ap               uvm_analysis_port           -     @1000
#           get_peek_export      uvm_get_peek_imp            -     @984 
#           put_ap               uvm_analysis_port           -     @992 
#           put_export           uvm_put_imp                 -     @976 
# ----------------------------------------------------------------------
# UVM_INFO ../tb/apb_uart_scoreboard.sv(257) @ 0: uvm_test_top.apb_uart_env.apb_uart_sb [SCOREBOARD] UART 2 DATAS
# ------------------------------------------
# Name           Type            Size  Value
# ------------------------------------------
# t1             apb_uart_trans  -     @904 
#   Presetn      integral        1     'b0  
#   Pwrite       integral        1     'b0  
#   Paddr        integral        32    'h0  
#   Pwdata       integral        32    'd0  
#   Prdata       integral        32    'd0  
#   Psel         integral        1     'b0  
#   Penable      integral        1     'b0  
#   Pready       integral        1     'b0  
#   Pslverr      integral        1     'b0  
#   IRQ          integral        1     'b0  
#   IER          integral        8     'b0  
#   IIR          integral        8     'b0  
#   FCR          integral        8     'b0  
#   LCR          integral        8     'b0  
#   LSR          integral        8     'b0  
#   MCR          integral        8     'b0  
#   MSR          integral        8     'b0  
#   dl_access    integral        1     'b0  
#   data_in_thr  integral        1     'b0  
#   data_in_rbr  integral        1     'b0  
# ------------------------------------------
# UVM_INFO ../tb/apb_uart_scoreboard.sv(240) @ 0: uvm_test_top.apb_uart_env.apb_uart_sb [SCOREBOARD] UART 1 DATAS
# ------------------------------------------
# Name           Type            Size  Value
# ------------------------------------------
# t1             apb_uart_trans  -     @744 
#   Presetn      integral        1     'b0  
#   Pwrite       integral        1     'b0  
#   Paddr        integral        32    'h0  
#   Pwdata       integral        32    'd0  
#   Prdata       integral        32    'd0  
#   Psel         integral        1     'b0  
#   Penable      integral        1     'b0  
#   Pready       integral        1     'b0  
#   Pslverr      integral        1     'b0  
#   IRQ          integral        1     'b0  
#   IER          integral        8     'b0  
#   IIR          integral        8     'b0  
#   FCR          integral        8     'b0  
#   LCR          integral        8     'b0  
#   LSR          integral        8     'b0  
#   MCR          integral        8     'b0  
#   MSR          integral        8     'b0  
#   dl_access    integral        1     'b0  
#   data_in_thr  integral        1     'b0  
#   data_in_rbr  integral        1     'b0  
# ------------------------------------------
# LCR = 0
# lcr = 0
# LCR REGISTER VERIFIED
# 
# LSR = 0
# lsr = 0
# LSR REGISTER VERIFIED
# 
# IER = 0
# ier = 0
# IER REGISTER VERIFIED
# 
# MCR = 0
# mcr = 0
# MCR REGISTER VERIFIED
# 
# FCR = 0
# fcr = 0
# FCR REGISTER VERIFIED
# 
# MSR = 0
# msr = 0
# MSR REGISTER VERIFIED
# 
# UVM_INFO ../tb/apb_uart_scoreboard.sv(240) @ 65: uvm_test_top.apb_uart_env.apb_uart_sb [SCOREBOARD] UART 1 DATAS
# ------------------------------------------
# Name           Type            Size  Value
# ------------------------------------------
# t1             apb_uart_trans  -     @744 
#   Presetn      integral        1     'b1  
#   Pwrite       integral        1     'b1  
#   Paddr        integral        32    'h20 
#   Pwdata       integral        32    'd0  
#   Prdata       integral        32    'd0  
#   Psel         integral        1     'b1  
#   Penable      integral        1     'b1  
#   Pready       integral        1     'b0  
#   Pslverr      integral        1     'b0  
#   IRQ          integral        1     'b0  
#   IER          integral        8     'b0  
#   IIR          integral        8     'b0  
#   FCR          integral        8     'b0  
#   LCR          integral        8     'b0  
#   LSR          integral        8     'b0  
#   MCR          integral        8     'b0  
#   MSR          integral        8     'b0  
#   dl_access    integral        1     'b1  
#   data_in_thr  integral        1     'b0  
#   data_in_rbr  integral        1     'b0  
# ------------------------------------------
# UVM_INFO ../tb/apb_uart_scoreboard.sv(257) @ 130: uvm_test_top.apb_uart_env.apb_uart_sb [SCOREBOARD] UART 2 DATAS
# ------------------------------------------
# Name           Type            Size  Value
# ------------------------------------------
# t1             apb_uart_trans  -     @904 
#   Presetn      integral        1     'b1  
#   Pwrite       integral        1     'b1  
#   Paddr        integral        32    'h20 
#   Pwdata       integral        32    'd0  
#   Prdata       integral        32    'd0  
#   Psel         integral        1     'b1  
#   Penable      integral        1     'b1  
#   Pready       integral        1     'b0  
#   Pslverr      integral        1     'b0  
#   IRQ          integral        1     'b0  
#   IER          integral        8     'b0  
#   IIR          integral        8     'b0  
#   FCR          integral        8     'b0  
#   LCR          integral        8     'b0  
#   LSR          integral        8     'b0  
#   MCR          integral        8     'b0  
#   MSR          integral        8     'b0  
#   dl_access    integral        1     'b1  
#   data_in_thr  integral        1     'b0  
#   data_in_rbr  integral        1     'b0  
# ------------------------------------------
# LCR = 0
# lcr = 0
# LCR REGISTER VERIFIED
# 
# LSR = 0
# lsr = 0
# LSR REGISTER VERIFIED
# 
# IER = 0
# ier = 0
# IER REGISTER VERIFIED
# 
# MCR = 0
# mcr = 0
# MCR REGISTER VERIFIED
# 
# FCR = 11000000
# fcr = 0
# FCR VERIFICATION FAILED
# 
# MSR = 0
# msr = 0
# MSR REGISTER VERIFIED
# 
# UVM_INFO ../tb/apb_uart_scoreboard.sv(240) @ 130: uvm_test_top.apb_uart_env.apb_uart_sb [SCOREBOARD] UART 1 DATAS
# ------------------------------------------
# Name           Type            Size  Value
# ------------------------------------------
# t1             apb_uart_trans  -     @744 
#   Presetn      integral        1     'b1  
#   Pwrite       integral        1     'b1  
#   Paddr        integral        32    'hc  
#   Pwdata       integral        32    'd3  
#   Prdata       integral        32    'd3  
#   Psel         integral        1     'b1  
#   Penable      integral        1     'b1  
#   Pready       integral        1     'b0  
#   Pslverr      integral        1     'b0  
#   IRQ          integral        1     'b0  
#   IER          integral        8     'b0  
#   IIR          integral        8     'b0  
#   FCR          integral        8     'b0  
#   LCR          integral        8     'b11 
#   LSR          integral        8     'b0  
#   MCR          integral        8     'b0  
#   MSR          integral        8     'b0  
#   dl_access    integral        1     'b1  
#   data_in_thr  integral        1     'b0  
#   data_in_rbr  integral        1     'b0  
# ------------------------------------------
# UVM_INFO ../tb/apb_uart_scoreboard.sv(257) @ 190: uvm_test_top.apb_uart_env.apb_uart_sb [SCOREBOARD] UART 2 DATAS
# ------------------------------------------
# Name           Type            Size  Value
# ------------------------------------------
# t1             apb_uart_trans  -     @904 
#   Presetn      integral        1     'b1  
#   Pwrite       integral        1     'b1  
#   Paddr        integral        32    'h1c 
#   Pwdata       integral        32    'd27 
#   Prdata       integral        32    'd27 
#   Psel         integral        1     'b1  
#   Penable      integral        1     'b1  
#   Pready       integral        1     'b0  
#   Pslverr      integral        1     'b0  
#   IRQ          integral        1     'b0  
#   IER          integral        8     'b0  
#   IIR          integral        8     'b0  
#   FCR          integral        8     'b0  
#   LCR          integral        8     'b0  
#   LSR          integral        8     'b0  
#   MCR          integral        8     'b0  
#   MSR          integral        8     'b0  
#   dl_access    integral        1     'b1  
#   data_in_thr  integral        1     'b0  
#   data_in_rbr  integral        1     'b0  
# ------------------------------------------
# LCR = 0
# lcr = 0
# LCR REGISTER VERIFIED
# 
# LSR = 0
# lsr = 0
# LSR REGISTER VERIFIED
# 
# IER = 0
# ier = 0
# IER REGISTER VERIFIED
# 
# MCR = 0
# mcr = 0
# MCR REGISTER VERIFIED
# 
# FCR = 11000000
# fcr = 0
# FCR VERIFICATION FAILED
# 
# MSR = 0
# msr = 0
# MSR REGISTER VERIFIED
# 
# UVM_INFO ../tb/apb_uart_scoreboard.sv(240) @ 190: uvm_test_top.apb_uart_env.apb_uart_sb [SCOREBOARD] UART 1 DATAS
# -----------------------------------------------
# Name           Type            Size  Value     
# -----------------------------------------------
# t1             apb_uart_trans  -     @744      
#   Presetn      integral        1     'b1       
#   Pwrite       integral        1     'b1       
#   Paddr        integral        32    'h4       
#   Pwdata       integral        32    'd4       
#   Prdata       integral        32    'd4       
#   Psel         integral        1     'b1       
#   Penable      integral        1     'b1       
#   Pready       integral        1     'b0       
#   Pslverr      integral        1     'b0       
#   IRQ          integral        1     'b0       
#   IER          integral        8     'b100     
#   IIR          integral        8     'b0       
#   FCR          integral        8     'b11000110
#   LCR          integral        8     'b11      
#   LSR          integral        8     'b0       
#   MCR          integral        8     'b0       
#   MSR          integral        8     'b0       
#   dl_access    integral        1     'b1       
#   data_in_thr  integral        1     'b0       
#   data_in_rbr  integral        1     'b0       
# -----------------------------------------------
# UVM_INFO ../tb/apb_uart_scoreboard.sv(257) @ 250: uvm_test_top.apb_uart_env.apb_uart_sb [SCOREBOARD] UART 2 DATAS
# ------------------------------------------
# Name           Type            Size  Value
# ------------------------------------------
# t1             apb_uart_trans  -     @904 
#   Presetn      integral        1     'b1  
#   Pwrite       integral        1     'b1  
#   Paddr        integral        32    'hc  
#   Pwdata       integral        32    'd3  
#   Prdata       integral        32    'd3  
#   Psel         integral        1     'b1  
#   Penable      integral        1     'b1  
#   Pready       integral        1     'b0  
#   Pslverr      integral        1     'b0  
#   IRQ          integral        1     'b0  
#   IER          integral        8     'b0  
#   IIR          integral        8     'b0  
#   FCR          integral        8     'b0  
#   LCR          integral        8     'b11 
#   LSR          integral        8     'b0  
#   MCR          integral        8     'b0  
#   MSR          integral        8     'b0  
#   dl_access    integral        1     'b1  
#   data_in_thr  integral        1     'b0  
#   data_in_rbr  integral        1     'b0  
# ------------------------------------------
# LCR = 11
# lcr = 11
# LCR REGISTER VERIFIED
# 
# LSR = 0
# lsr = 0
# LSR REGISTER VERIFIED
# 
# IER = 0
# ier = 0
# IER REGISTER VERIFIED
# 
# MCR = 0
# mcr = 0
# MCR REGISTER VERIFIED
# 
# FCR = 11000000
# fcr = 0
# FCR VERIFICATION FAILED
# 
# MSR = 0
# msr = 0
# MSR REGISTER VERIFIED
# 
# UVM_INFO ../tb/apb_uart_scoreboard.sv(240) @ 250: uvm_test_top.apb_uart_env.apb_uart_sb [SCOREBOARD] UART 1 DATAS
# -----------------------------------------------
# Name           Type            Size  Value     
# -----------------------------------------------
# t1             apb_uart_trans  -     @744      
#   Presetn      integral        1     'b1       
#   Pwrite       integral        1     'b1       
#   Paddr        integral        32    'h0       
#   Pwdata       integral        32    'd100     
#   Prdata       integral        32    'd0       
#   Psel         integral        1     'b1       
#   Penable      integral        1     'b1       
#   Pready       integral        1     'b0       
#   Pslverr      integral        1     'b0       
#   IRQ          integral        1     'b0       
#   IER          integral        8     'b100     
#   IIR          integral        8     'b0       
#   FCR          integral        8     'b11000110
#   LCR          integral        8     'b11      
#   LSR          integral        8     'b0       
#   MCR          integral        8     'b0       
#   MSR          integral        8     'b0       
#   dl_access    integral        1     'b1       
#   data_in_thr  integral        1     'b1       
#   data_in_rbr  integral        1     'b0       
#   THR[0]       integral        8     'd100     
# -----------------------------------------------
# UVM_INFO ../tb/apb_uart_scoreboard.sv(257) @ 310: uvm_test_top.apb_uart_env.apb_uart_sb [SCOREBOARD] UART 2 DATAS
# -----------------------------------------------
# Name           Type            Size  Value     
# -----------------------------------------------
# t1             apb_uart_trans  -     @904      
#   Presetn      integral        1     'b1       
#   Pwrite       integral        1     'b1       
#   Paddr        integral        32    'h8       
#   Pwdata       integral        32    'd198     
#   Prdata       integral        32    'd193     
#   Psel         integral        1     'b1       
#   Penable      integral        1     'b1       
#   Pready       integral        1     'b0       
#   Pslverr      integral        1     'b0       
#   IRQ          integral        1     'b0       
#   IER          integral        8     'b0       
#   IIR          integral        8     'b0       
#   FCR          integral        8     'b11000110
#   LCR          integral        8     'b11      
#   LSR          integral        8     'b0       
#   MCR          integral        8     'b0       
#   MSR          integral        8     'b0       
#   dl_access    integral        1     'b1       
#   data_in_thr  integral        1     'b0       
#   data_in_rbr  integral        1     'b0       
# -----------------------------------------------
# LCR = 11
# lcr = 11
# LCR REGISTER VERIFIED
# 
# LSR = 0
# lsr = 0
# LSR REGISTER VERIFIED
# 
# IER = 0
# ier = 0
# IER REGISTER VERIFIED
# 
# MCR = 0
# mcr = 0
# MCR REGISTER VERIFIED
# 
# FCR = 11000110
# fcr = 11000110
# FCR REGISTER VERIFIED
# 
# MSR = 0
# msr = 0
# MSR REGISTER VERIFIED
# 
# UVM_INFO ../tb/apb_uart_scoreboard.sv(240) @ 310: uvm_test_top.apb_uart_env.apb_uart_sb [SCOREBOARD] UART 1 DATAS
# -----------------------------------------------
# Name           Type            Size  Value     
# -----------------------------------------------
# t1             apb_uart_trans  -     @744      
#   Presetn      integral        1     'b1       
#   Pwrite       integral        1     'b1       
#   Paddr        integral        32    'h0       
#   Pwdata       integral        32    'd100     
#   Prdata       integral        32    'd0       
#   Psel         integral        1     'b1       
#   Penable      integral        1     'b1       
#   Pready       integral        1     'b0       
#   Pslverr      integral        1     'b0       
#   IRQ          integral        1     'b0       
#   IER          integral        8     'b100     
#   IIR          integral        8     'b0       
#   FCR          integral        8     'b11000110
#   LCR          integral        8     'b11      
#   LSR          integral        8     'b0       
#   MCR          integral        8     'b0       
#   MSR          integral        8     'b0       
#   dl_access    integral        1     'b1       
#   data_in_thr  integral        1     'b1       
#   data_in_rbr  integral        1     'b0       
#   THR[0]       integral        8     'd100     
# -----------------------------------------------
# UVM_INFO ../tb/apb_uart_scoreboard.sv(257) @ 370: uvm_test_top.apb_uart_env.apb_uart_sb [SCOREBOARD] UART 2 DATAS
# -----------------------------------------------
# Name           Type            Size  Value     
# -----------------------------------------------
# t1             apb_uart_trans  -     @904      
#   Presetn      integral        1     'b1       
#   Pwrite       integral        1     'b1       
#   Paddr        integral        32    'h4       
#   Pwdata       integral        32    'd4       
#   Prdata       integral        32    'd4       
#   Psel         integral        1     'b1       
#   Penable      integral        1     'b1       
#   Pready       integral        1     'b0       
#   Pslverr      integral        1     'b0       
#   IRQ          integral        1     'b0       
#   IER          integral        8     'b100     
#   IIR          integral        8     'b0       
#   FCR          integral        8     'b11000110
#   LCR          integral        8     'b11      
#   LSR          integral        8     'b0       
#   MCR          integral        8     'b0       
#   MSR          integral        8     'b0       
#   dl_access    integral        1     'b1       
#   data_in_thr  integral        1     'b0       
#   data_in_rbr  integral        1     'b0       
# -----------------------------------------------
# LCR = 11
# lcr = 11
# LCR REGISTER VERIFIED
# 
# LSR = 0
# lsr = 0
# LSR REGISTER VERIFIED
# 
# IER = 100
# ier = 100
# IER REGISTER VERIFIED
# 
# MCR = 0
# mcr = 0
# MCR REGISTER VERIFIED
# 
# FCR = 11000110
# fcr = 11000110
# FCR REGISTER VERIFIED
# 
# MSR = 0
# msr = 0
# MSR REGISTER VERIFIED
# 
# UVM_INFO ../tb/apb_uart_scoreboard.sv(240) @ 370: uvm_test_top.apb_uart_env.apb_uart_sb [SCOREBOARD] UART 1 DATAS
# -----------------------------------------------
# Name           Type            Size  Value     
# -----------------------------------------------
# t1             apb_uart_trans  -     @744      
#   Presetn      integral        1     'b1       
#   Pwrite       integral        1     'b1       
#   Paddr        integral        32    'h0       
#   Pwdata       integral        32    'd100     
#   Prdata       integral        32    'd0       
#   Psel         integral        1     'b1       
#   Penable      integral        1     'b1       
#   Pready       integral        1     'b0       
#   Pslverr      integral        1     'b0       
#   IRQ          integral        1     'b0       
#   IER          integral        8     'b100     
#   IIR          integral        8     'b0       
#   FCR          integral        8     'b11000110
#   LCR          integral        8     'b11      
#   LSR          integral        8     'b0       
#   MCR          integral        8     'b0       
#   MSR          integral        8     'b0       
#   dl_access    integral        1     'b1       
#   data_in_thr  integral        1     'b1       
#   data_in_rbr  integral        1     'b0       
#   THR[0]       integral        8     'd100     
# -----------------------------------------------
# UVM_INFO ../tb/apb_uart_scoreboard.sv(257) @ 430: uvm_test_top.apb_uart_env.apb_uart_sb [SCOREBOARD] UART 2 DATAS
# -----------------------------------------------
# Name           Type            Size  Value     
# -----------------------------------------------
# t1             apb_uart_trans  -     @904      
#   Presetn      integral        1     'b1       
#   Pwrite       integral        1     'b1       
#   Paddr        integral        32    'h0       
#   Pwdata       integral        32    'd200     
#   Prdata       integral        32    'd0       
#   Psel         integral        1     'b1       
#   Penable      integral        1     'b1       
#   Pready       integral        1     'b0       
#   Pslverr      integral        1     'b0       
#   IRQ          integral        1     'b0       
#   IER          integral        8     'b100     
#   IIR          integral        8     'b0       
#   FCR          integral        8     'b11000110
#   LCR          integral        8     'b11      
#   LSR          integral        8     'b0       
#   MCR          integral        8     'b0       
#   MSR          integral        8     'b0       
#   dl_access    integral        1     'b1       
#   data_in_thr  integral        1     'b1       
#   data_in_rbr  integral        1     'b0       
#   THR[0]       integral        8     200       
# -----------------------------------------------
# LCR = 11
# lcr = 11
# LCR REGISTER VERIFIED
# 
# LSR = 0
# lsr = 0
# LSR REGISTER VERIFIED
# 
# IER = 100
# ier = 100
# IER REGISTER VERIFIED
# 
# MCR = 0
# mcr = 0
# MCR REGISTER VERIFIED
# 
# FCR = 11000110
# fcr = 11000110
# FCR REGISTER VERIFIED
# 
# MSR = 0
# msr = 0
# MSR REGISTER VERIFIED
# 
# UVM_INFO ../tb/apb_uart_scoreboard.sv(240) @ 430: uvm_test_top.apb_uart_env.apb_uart_sb [SCOREBOARD] UART 1 DATAS
# -----------------------------------------------
# Name           Type            Size  Value     
# -----------------------------------------------
# t1             apb_uart_trans  -     @744      
#   Presetn      integral        1     'b1       
#   Pwrite       integral        1     'b1       
#   Paddr        integral        32    'h0       
#   Pwdata       integral        32    'd100     
#   Prdata       integral        32    'd0       
#   Psel         integral        1     'b1       
#   Penable      integral        1     'b1       
#   Pready       integral        1     'b0       
#   Pslverr      integral        1     'b0       
#   IRQ          integral        1     'b0       
#   IER          integral        8     'b100     
#   IIR          integral        8     'b0       
#   FCR          integral        8     'b11000110
#   LCR          integral        8     'b11      
#   LSR          integral        8     'b0       
#   MCR          integral        8     'b0       
#   MSR          integral        8     'b0       
#   dl_access    integral        1     'b1       
#   data_in_thr  integral        1     'b1       
#   data_in_rbr  integral        1     'b0       
#   THR[0]       integral        8     'd100     
# -----------------------------------------------
# UVM_INFO ../tb/apb_uart_scoreboard.sv(257) @ 490: uvm_test_top.apb_uart_env.apb_uart_sb [SCOREBOARD] UART 2 DATAS
# -----------------------------------------------
# Name           Type            Size  Value     
# -----------------------------------------------
# t1             apb_uart_trans  -     @904      
#   Presetn      integral        1     'b1       
#   Pwrite       integral        1     'b1       
#   Paddr        integral        32    'h0       
#   Pwdata       integral        32    'd200     
#   Prdata       integral        32    'd0       
#   Psel         integral        1     'b1       
#   Penable      integral        1     'b1       
#   Pready       integral        1     'b0       
#   Pslverr      integral        1     'b0       
#   IRQ          integral        1     'b0       
#   IER          integral        8     'b100     
#   IIR          integral        8     'b0       
#   FCR          integral        8     'b11000110
#   LCR          integral        8     'b11      
#   LSR          integral        8     'b0       
#   MCR          integral        8     'b0       
#   MSR          integral        8     'b0       
#   dl_access    integral        1     'b1       
#   data_in_thr  integral        1     'b1       
#   data_in_rbr  integral        1     'b0       
#   THR[0]       integral        8     200       
# -----------------------------------------------
# LCR = 11
# lcr = 11
# LCR REGISTER VERIFIED
# 
# LSR = 0
# lsr = 0
# LSR REGISTER VERIFIED
# 
# IER = 100
# ier = 100
# IER REGISTER VERIFIED
# 
# MCR = 0
# mcr = 0
# MCR REGISTER VERIFIED
# 
# FCR = 11000110
# fcr = 11000110
# FCR REGISTER VERIFIED
# 
# MSR = 0
# msr = 0
# MSR REGISTER VERIFIED
# 
# UVM_INFO ../tb/apb_uart_scoreboard.sv(240) @ 490: uvm_test_top.apb_uart_env.apb_uart_sb [SCOREBOARD] UART 1 DATAS
# -----------------------------------------------
# Name           Type            Size  Value     
# -----------------------------------------------
# t1             apb_uart_trans  -     @744      
#   Presetn      integral        1     'b1       
#   Pwrite       integral        1     'b1       
#   Paddr        integral        32    'h0       
#   Pwdata       integral        32    'd100     
#   Prdata       integral        32    'd0       
#   Psel         integral        1     'b1       
#   Penable      integral        1     'b1       
#   Pready       integral        1     'b0       
#   Pslverr      integral        1     'b0       
#   IRQ          integral        1     'b0       
#   IER          integral        8     'b100     
#   IIR          integral        8     'b0       
#   FCR          integral        8     'b11000110
#   LCR          integral        8     'b11      
#   LSR          integral        8     'b0       
#   MCR          integral        8     'b0       
#   MSR          integral        8     'b0       
#   dl_access    integral        1     'b1       
#   data_in_thr  integral        1     'b1       
#   data_in_rbr  integral        1     'b0       
#   THR[0]       integral        8     'd100     
# -----------------------------------------------
# UVM_INFO ../tb/apb_uart_scoreboard.sv(257) @ 550: uvm_test_top.apb_uart_env.apb_uart_sb [SCOREBOARD] UART 2 DATAS
# -----------------------------------------------
# Name           Type            Size  Value     
# -----------------------------------------------
# t1             apb_uart_trans  -     @904      
#   Presetn      integral        1     'b1       
#   Pwrite       integral        1     'b1       
#   Paddr        integral        32    'h0       
#   Pwdata       integral        32    'd200     
#   Prdata       integral        32    'd0       
#   Psel         integral        1     'b1       
#   Penable      integral        1     'b1       
#   Pready       integral        1     'b0       
#   Pslverr      integral        1     'b0       
#   IRQ          integral        1     'b0       
#   IER          integral        8     'b100     
#   IIR          integral        8     'b0       
#   FCR          integral        8     'b11000110
#   LCR          integral        8     'b11      
#   LSR          integral        8     'b0       
#   MCR          integral        8     'b0       
#   MSR          integral        8     'b0       
#   dl_access    integral        1     'b1       
#   data_in_thr  integral        1     'b1       
#   data_in_rbr  integral        1     'b0       
#   THR[0]       integral        8     200       
# -----------------------------------------------
# LCR = 11
# lcr = 11
# LCR REGISTER VERIFIED
# 
# LSR = 0
# lsr = 0
# LSR REGISTER VERIFIED
# 
# IER = 100
# ier = 100
# IER REGISTER VERIFIED
# 
# MCR = 0
# mcr = 0
# MCR REGISTER VERIFIED
# 
# FCR = 11000110
# fcr = 11000110
# FCR REGISTER VERIFIED
# 
# MSR = 0
# msr = 0
# MSR REGISTER VERIFIED
# 
# UVM_INFO ../tb/apb_uart_scoreboard.sv(240) @ 550: uvm_test_top.apb_uart_env.apb_uart_sb [SCOREBOARD] UART 1 DATAS
# -----------------------------------------------
# Name           Type            Size  Value     
# -----------------------------------------------
# t1             apb_uart_trans  -     @744      
#   Presetn      integral        1     'b1       
#   Pwrite       integral        1     'b1       
#   Paddr        integral        32    'h0       
#   Pwdata       integral        32    'd100     
#   Prdata       integral        32    'd0       
#   Psel         integral        1     'b1       
#   Penable      integral        1     'b1       
#   Pready       integral        1     'b0       
#   Pslverr      integral        1     'b0       
#   IRQ          integral        1     'b0       
#   IER          integral        8     'b100     
#   IIR          integral        8     'b0       
#   FCR          integral        8     'b11000110
#   LCR          integral        8     'b11      
#   LSR          integral        8     'b0       
#   MCR          integral        8     'b0       
#   MSR          integral        8     'b0       
#   dl_access    integral        1     'b1       
#   data_in_thr  integral        1     'b1       
#   data_in_rbr  integral        1     'b0       
#   THR[0]       integral        8     'd100     
# -----------------------------------------------
# UVM_INFO ../tb/apb_uart_scoreboard.sv(257) @ 610: uvm_test_top.apb_uart_env.apb_uart_sb [SCOREBOARD] UART 2 DATAS
# -----------------------------------------------
# Name           Type            Size  Value     
# -----------------------------------------------
# t1             apb_uart_trans  -     @904      
#   Presetn      integral        1     'b1       
#   Pwrite       integral        1     'b1       
#   Paddr        integral        32    'h0       
#   Pwdata       integral        32    'd200     
#   Prdata       integral        32    'd0       
#   Psel         integral        1     'b1       
#   Penable      integral        1     'b1       
#   Pready       integral        1     'b0       
#   Pslverr      integral        1     'b0       
#   IRQ          integral        1     'b0       
#   IER          integral        8     'b100     
#   IIR          integral        8     'b0       
#   FCR          integral        8     'b11000110
#   LCR          integral        8     'b11      
#   LSR          integral        8     'b0       
#   MCR          integral        8     'b0       
#   MSR          integral        8     'b0       
#   dl_access    integral        1     'b1       
#   data_in_thr  integral        1     'b1       
#   data_in_rbr  integral        1     'b0       
#   THR[0]       integral        8     200       
# -----------------------------------------------
# LCR = 11
# lcr = 11
# LCR REGISTER VERIFIED
# 
# LSR = 0
# lsr = 0
# LSR REGISTER VERIFIED
# 
# IER = 100
# ier = 100
# IER REGISTER VERIFIED
# 
# MCR = 0
# mcr = 0
# MCR REGISTER VERIFIED
# 
# FCR = 11000110
# fcr = 11000110
# FCR REGISTER VERIFIED
# 
# MSR = 0
# msr = 0
# MSR REGISTER VERIFIED
# 
# UVM_INFO ../tb/apb_uart_scoreboard.sv(240) @ 610: uvm_test_top.apb_uart_env.apb_uart_sb [SCOREBOARD] UART 1 DATAS
# -----------------------------------------------
# Name           Type            Size  Value     
# -----------------------------------------------
# t1             apb_uart_trans  -     @744      
#   Presetn      integral        1     'b1       
#   Pwrite       integral        1     'b1       
#   Paddr        integral        32    'h0       
#   Pwdata       integral        32    'd100     
#   Prdata       integral        32    'd0       
#   Psel         integral        1     'b1       
#   Penable      integral        1     'b1       
#   Pready       integral        1     'b0       
#   Pslverr      integral        1     'b0       
#   IRQ          integral        1     'b0       
#   IER          integral        8     'b100     
#   IIR          integral        8     'b0       
#   FCR          integral        8     'b11000110
#   LCR          integral        8     'b11      
#   LSR          integral        8     'b0       
#   MCR          integral        8     'b0       
#   MSR          integral        8     'b0       
#   dl_access    integral        1     'b1       
#   data_in_thr  integral        1     'b1       
#   data_in_rbr  integral        1     'b0       
#   THR[0]       integral        8     'd100     
# -----------------------------------------------
# UVM_INFO ../tb/apb_uart_scoreboard.sv(257) @ 670: uvm_test_top.apb_uart_env.apb_uart_sb [SCOREBOARD] UART 2 DATAS
# -----------------------------------------------
# Name           Type            Size  Value     
# -----------------------------------------------
# t1             apb_uart_trans  -     @904      
#   Presetn      integral        1     'b1       
#   Pwrite       integral        1     'b1       
#   Paddr        integral        32    'h0       
#   Pwdata       integral        32    'd200     
#   Prdata       integral        32    'd0       
#   Psel         integral        1     'b1       
#   Penable      integral        1     'b1       
#   Pready       integral        1     'b0       
#   Pslverr      integral        1     'b0       
#   IRQ          integral        1     'b0       
#   IER          integral        8     'b100     
#   IIR          integral        8     'b0       
#   FCR          integral        8     'b11000110
#   LCR          integral        8     'b11      
#   LSR          integral        8     'b0       
#   MCR          integral        8     'b0       
#   MSR          integral        8     'b0       
#   dl_access    integral        1     'b1       
#   data_in_thr  integral        1     'b1       
#   data_in_rbr  integral        1     'b0       
#   THR[0]       integral        8     200       
# -----------------------------------------------
# LCR = 11
# lcr = 11
# LCR REGISTER VERIFIED
# 
# LSR = 0
# lsr = 0
# LSR REGISTER VERIFIED
# 
# IER = 100
# ier = 100
# IER REGISTER VERIFIED
# 
# MCR = 0
# mcr = 0
# MCR REGISTER VERIFIED
# 
# FCR = 11000110
# fcr = 11000110
# FCR REGISTER VERIFIED
# 
# MSR = 0
# msr = 0
# MSR REGISTER VERIFIED
# 
# UVM_INFO ../tb/apb_uart_scoreboard.sv(240) @ 670: uvm_test_top.apb_uart_env.apb_uart_sb [SCOREBOARD] UART 1 DATAS
# -----------------------------------------------
# Name           Type            Size  Value     
# -----------------------------------------------
# t1             apb_uart_trans  -     @744      
#   Presetn      integral        1     'b1       
#   Pwrite       integral        1     'b1       
#   Paddr        integral        32    'h0       
#   Pwdata       integral        32    'd100     
#   Prdata       integral        32    'd0       
#   Psel         integral        1     'b1       
#   Penable      integral        1     'b1       
#   Pready       integral        1     'b0       
#   Pslverr      integral        1     'b0       
#   IRQ          integral        1     'b0       
#   IER          integral        8     'b100     
#   IIR          integral        8     'b0       
#   FCR          integral        8     'b11000110
#   LCR          integral        8     'b11      
#   LSR          integral        8     'b0       
#   MCR          integral        8     'b0       
#   MSR          integral        8     'b0       
#   dl_access    integral        1     'b1       
#   data_in_thr  integral        1     'b1       
#   data_in_rbr  integral        1     'b0       
#   THR[0]       integral        8     'd100     
# -----------------------------------------------
# UVM_INFO ../tb/apb_uart_scoreboard.sv(257) @ 730: uvm_test_top.apb_uart_env.apb_uart_sb [SCOREBOARD] UART 2 DATAS
# -----------------------------------------------
# Name           Type            Size  Value     
# -----------------------------------------------
# t1             apb_uart_trans  -     @904      
#   Presetn      integral        1     'b1       
#   Pwrite       integral        1     'b1       
#   Paddr        integral        32    'h0       
#   Pwdata       integral        32    'd200     
#   Prdata       integral        32    'd0       
#   Psel         integral        1     'b1       
#   Penable      integral        1     'b1       
#   Pready       integral        1     'b0       
#   Pslverr      integral        1     'b0       
#   IRQ          integral        1     'b0       
#   IER          integral        8     'b100     
#   IIR          integral        8     'b0       
#   FCR          integral        8     'b11000110
#   LCR          integral        8     'b11      
#   LSR          integral        8     'b0       
#   MCR          integral        8     'b0       
#   MSR          integral        8     'b0       
#   dl_access    integral        1     'b1       
#   data_in_thr  integral        1     'b1       
#   data_in_rbr  integral        1     'b0       
#   THR[0]       integral        8     200       
# -----------------------------------------------
# LCR = 11
# lcr = 11
# LCR REGISTER VERIFIED
# 
# LSR = 0
# lsr = 0
# LSR REGISTER VERIFIED
# 
# IER = 100
# ier = 100
# IER REGISTER VERIFIED
# 
# MCR = 0
# mcr = 0
# MCR REGISTER VERIFIED
# 
# FCR = 11000110
# fcr = 11000110
# FCR REGISTER VERIFIED
# 
# MSR = 0
# msr = 0
# MSR REGISTER VERIFIED
# 
# UVM_INFO ../tb/apb_uart_scoreboard.sv(240) @ 730: uvm_test_top.apb_uart_env.apb_uart_sb [SCOREBOARD] UART 1 DATAS
# -----------------------------------------------
# Name           Type            Size  Value     
# -----------------------------------------------
# t1             apb_uart_trans  -     @744      
#   Presetn      integral        1     'b1       
#   Pwrite       integral        1     'b0       
#   Paddr        integral        32    'h8       
#   Pwdata       integral        32    3079972410
#   Prdata       integral        32    'd193     
#   Psel         integral        1     'b1       
#   Penable      integral        1     'b1       
#   Pready       integral        1     'b0       
#   Pslverr      integral        1     'b0       
#   IRQ          integral        1     'b0       
#   IER          integral        8     'b100     
#   IIR          integral        8     'b0       
#   FCR          integral        8     'b11000110
#   LCR          integral        8     'b11      
#   LSR          integral        8     'b0       
#   MCR          integral        8     'b0       
#   MSR          integral        8     'b0       
#   dl_access    integral        1     'b1       
#   data_in_thr  integral        1     'b1       
#   data_in_rbr  integral        1     'b0       
#   THR[0]       integral        8     'd100     
# -----------------------------------------------
# UVM_INFO ../tb/apb_uart_scoreboard.sv(257) @ 790: uvm_test_top.apb_uart_env.apb_uart_sb [SCOREBOARD] UART 2 DATAS
# -----------------------------------------------
# Name           Type            Size  Value     
# -----------------------------------------------
# t1             apb_uart_trans  -     @904      
#   Presetn      integral        1     'b1       
#   Pwrite       integral        1     'b1       
#   Paddr        integral        32    'h0       
#   Pwdata       integral        32    'd200     
#   Prdata       integral        32    'd0       
#   Psel         integral        1     'b1       
#   Penable      integral        1     'b1       
#   Pready       integral        1     'b0       
#   Pslverr      integral        1     'b0       
#   IRQ          integral        1     'b0       
#   IER          integral        8     'b100     
#   IIR          integral        8     'b0       
#   FCR          integral        8     'b11000110
#   LCR          integral        8     'b11      
#   LSR          integral        8     'b0       
#   MCR          integral        8     'b0       
#   MSR          integral        8     'b0       
#   dl_access    integral        1     'b1       
#   data_in_thr  integral        1     'b1       
#   data_in_rbr  integral        1     'b0       
#   THR[0]       integral        8     200       
# -----------------------------------------------
# LCR = 11
# lcr = 11
# LCR REGISTER VERIFIED
# 
# LSR = 0
# lsr = 0
# LSR REGISTER VERIFIED
# 
# IER = 100
# ier = 100
# IER REGISTER VERIFIED
# 
# MCR = 0
# mcr = 0
# MCR REGISTER VERIFIED
# 
# FCR = 11000110
# fcr = 11000110
# FCR REGISTER VERIFIED
# 
# MSR = 0
# msr = 0
# MSR REGISTER VERIFIED
# 
# UVM_INFO ../tb/apb_uart_scoreboard.sv(240) @ 790: uvm_test_top.apb_uart_env.apb_uart_sb [SCOREBOARD] UART 1 DATAS
# -----------------------------------------------
# Name           Type            Size  Value     
# -----------------------------------------------
# t1             apb_uart_trans  -     @744      
#   Presetn      integral        1     'b1       
#   Pwrite       integral        1     'b0       
#   Paddr        integral        32    'h8       
#   Pwdata       integral        32    3079972410
#   Prdata       integral        32    'd193     
#   Psel         integral        1     'b1       
#   Penable      integral        1     'b1       
#   Pready       integral        1     'b0       
#   Pslverr      integral        1     'b0       
#   IRQ          integral        1     'b0       
#   IER          integral        8     'b100     
#   IIR          integral        8     'b0       
#   FCR          integral        8     'b11000110
#   LCR          integral        8     'b11      
#   LSR          integral        8     'b0       
#   MCR          integral        8     'b0       
#   MSR          integral        8     'b0       
#   dl_access    integral        1     'b1       
#   data_in_thr  integral        1     'b1       
#   data_in_rbr  integral        1     'b0       
#   THR[0]       integral        8     'd100     
# -----------------------------------------------
# UVM_INFO ../tb/apb_uart_scoreboard.sv(257) @ 850: uvm_test_top.apb_uart_env.apb_uart_sb [SCOREBOARD] UART 2 DATAS
# -----------------------------------------------
# Name           Type            Size  Value     
# -----------------------------------------------
# t1             apb_uart_trans  -     @904      
#   Presetn      integral        1     'b1       
#   Pwrite       integral        1     'b1       
#   Paddr        integral        32    'h0       
#   Pwdata       integral        32    'd200     
#   Prdata       integral        32    'd0       
#   Psel         integral        1     'b1       
#   Penable      integral        1     'b1       
#   Pready       integral        1     'b0       
#   Pslverr      integral        1     'b0       
#   IRQ          integral        1     'b0       
#   IER          integral        8     'b100     
#   IIR          integral        8     'b0       
#   FCR          integral        8     'b11000110
#   LCR          integral        8     'b11      
#   LSR          integral        8     'b0       
#   MCR          integral        8     'b0       
#   MSR          integral        8     'b0       
#   dl_access    integral        1     'b1       
#   data_in_thr  integral        1     'b1       
#   data_in_rbr  integral        1     'b0       
#   THR[0]       integral        8     200       
# -----------------------------------------------
# LCR = 11
# lcr = 11
# LCR REGISTER VERIFIED
# 
# LSR = 0
# lsr = 0
# LSR REGISTER VERIFIED
# 
# IER = 100
# ier = 100
# IER REGISTER VERIFIED
# 
# MCR = 0
# mcr = 0
# MCR REGISTER VERIFIED
# 
# FCR = 11000110
# fcr = 11000110
# FCR REGISTER VERIFIED
# 
# MSR = 0
# msr = 0
# MSR REGISTER VERIFIED
# 
# UVM_INFO ../tb/apb_uart_scoreboard.sv(240) @ 850: uvm_test_top.apb_uart_env.apb_uart_sb [SCOREBOARD] UART 1 DATAS
# -----------------------------------------------
# Name           Type            Size  Value     
# -----------------------------------------------
# t1             apb_uart_trans  -     @744      
#   Presetn      integral        1     'b1       
#   Pwrite       integral        1     'b0       
#   Paddr        integral        32    'h8       
#   Pwdata       integral        32    3079972410
#   Prdata       integral        32    'd193     
#   Psel         integral        1     'b1       
#   Penable      integral        1     'b1       
#   Pready       integral        1     'b0       
#   Pslverr      integral        1     'b0       
#   IRQ          integral        1     'b0       
#   IER          integral        8     'b100     
#   IIR          integral        8     'b0       
#   FCR          integral        8     'b11000110
#   LCR          integral        8     'b11      
#   LSR          integral        8     'b0       
#   MCR          integral        8     'b0       
#   MSR          integral        8     'b0       
#   dl_access    integral        1     'b1       
#   data_in_thr  integral        1     'b1       
#   data_in_rbr  integral        1     'b0       
#   THR[0]       integral        8     'd100     
# -----------------------------------------------
# UVM_INFO ../tb/apb_uart_scoreboard.sv(257) @ 910: uvm_test_top.apb_uart_env.apb_uart_sb [SCOREBOARD] UART 2 DATAS
# -----------------------------------------------
# Name           Type            Size  Value     
# -----------------------------------------------
# t1             apb_uart_trans  -     @904      
#   Presetn      integral        1     'b1       
#   Pwrite       integral        1     'b1       
#   Paddr        integral        32    'h0       
#   Pwdata       integral        32    'd200     
#   Prdata       integral        32    'd0       
#   Psel         integral        1     'b1       
#   Penable      integral        1     'b1       
#   Pready       integral        1     'b0       
#   Pslverr      integral        1     'b0       
#   IRQ          integral        1     'b0       
#   IER          integral        8     'b100     
#   IIR          integral        8     'b0       
#   FCR          integral        8     'b11000110
#   LCR          integral        8     'b11      
#   LSR          integral        8     'b0       
#   MCR          integral        8     'b0       
#   MSR          integral        8     'b0       
#   dl_access    integral        1     'b1       
#   data_in_thr  integral        1     'b1       
#   data_in_rbr  integral        1     'b0       
#   THR[0]       integral        8     200       
# -----------------------------------------------
# LCR = 11
# lcr = 11
# LCR REGISTER VERIFIED
# 
# LSR = 0
# lsr = 0
# LSR REGISTER VERIFIED
# 
# IER = 100
# ier = 100
# IER REGISTER VERIFIED
# 
# MCR = 0
# mcr = 0
# MCR REGISTER VERIFIED
# 
# FCR = 11000110
# fcr = 11000110
# FCR REGISTER VERIFIED
# 
# MSR = 0
# msr = 0
# MSR REGISTER VERIFIED
# 
# UVM_INFO ../tb/apb_uart_scoreboard.sv(240) @ 910: uvm_test_top.apb_uart_env.apb_uart_sb [SCOREBOARD] UART 1 DATAS
# -----------------------------------------------
# Name           Type            Size  Value     
# -----------------------------------------------
# t1             apb_uart_trans  -     @744      
#   Presetn      integral        1     'b1       
#   Pwrite       integral        1     'b0       
#   Paddr        integral        32    'h8       
#   Pwdata       integral        32    3079972410
#   Prdata       integral        32    'd193     
#   Psel         integral        1     'b1       
#   Penable      integral        1     'b1       
#   Pready       integral        1     'b0       
#   Pslverr      integral        1     'b0       
#   IRQ          integral        1     'b0       
#   IER          integral        8     'b100     
#   IIR          integral        8     'b0       
#   FCR          integral        8     'b11000110
#   LCR          integral        8     'b11      
#   LSR          integral        8     'b0       
#   MCR          integral        8     'b0       
#   MSR          integral        8     'b0       
#   dl_access    integral        1     'b1       
#   data_in_thr  integral        1     'b1       
#   data_in_rbr  integral        1     'b0       
#   THR[0]       integral        8     'd100     
# -----------------------------------------------
# UVM_INFO ../tb/apb_uart_scoreboard.sv(257) @ 970: uvm_test_top.apb_uart_env.apb_uart_sb [SCOREBOARD] UART 2 DATAS
# -----------------------------------------------
# Name           Type            Size  Value     
# -----------------------------------------------
# t1             apb_uart_trans  -     @904      
#   Presetn      integral        1     'b1       
#   Pwrite       integral        1     'b1       
#   Paddr        integral        32    'h0       
#   Pwdata       integral        32    'd200     
#   Prdata       integral        32    'd0       
#   Psel         integral        1     'b1       
#   Penable      integral        1     'b1       
#   Pready       integral        1     'b0       
#   Pslverr      integral        1     'b0       
#   IRQ          integral        1     'b0       
#   IER          integral        8     'b100     
#   IIR          integral        8     'b0       
#   FCR          integral        8     'b11000110
#   LCR          integral        8     'b11      
#   LSR          integral        8     'b0       
#   MCR          integral        8     'b0       
#   MSR          integral        8     'b0       
#   dl_access    integral        1     'b1       
#   data_in_thr  integral        1     'b1       
#   data_in_rbr  integral        1     'b0       
#   THR[0]       integral        8     200       
# -----------------------------------------------
# LCR = 11
# lcr = 11
# LCR REGISTER VERIFIED
# 
# LSR = 0
# lsr = 0
# LSR REGISTER VERIFIED
# 
# IER = 100
# ier = 100
# IER REGISTER VERIFIED
# 
# MCR = 0
# mcr = 0
# MCR REGISTER VERIFIED
# 
# FCR = 11000110
# fcr = 11000110
# FCR REGISTER VERIFIED
# 
# MSR = 0
# msr = 0
# MSR REGISTER VERIFIED
# 
# UVM_INFO ../tb/apb_uart_scoreboard.sv(240) @ 970: uvm_test_top.apb_uart_env.apb_uart_sb [SCOREBOARD] UART 1 DATAS
# -----------------------------------------------
# Name           Type            Size  Value     
# -----------------------------------------------
# t1             apb_uart_trans  -     @744      
#   Presetn      integral        1     'b1       
#   Pwrite       integral        1     'b0       
#   Paddr        integral        32    'h8       
#   Pwdata       integral        32    3079972410
#   Prdata       integral        32    'd193     
#   Psel         integral        1     'b1       
#   Penable      integral        1     'b1       
#   Pready       integral        1     'b0       
#   Pslverr      integral        1     'b0       
#   IRQ          integral        1     'b0       
#   IER          integral        8     'b100     
#   IIR          integral        8     'b0       
#   FCR          integral        8     'b11000110
#   LCR          integral        8     'b11      
#   LSR          integral        8     'b0       
#   MCR          integral        8     'b0       
#   MSR          integral        8     'b0       
#   dl_access    integral        1     'b1       
#   data_in_thr  integral        1     'b1       
#   data_in_rbr  integral        1     'b0       
#   THR[0]       integral        8     'd100     
# -----------------------------------------------
# UVM_INFO ../tb/apb_uart_scoreboard.sv(257) @ 1030: uvm_test_top.apb_uart_env.apb_uart_sb [SCOREBOARD] UART 2 DATAS
# -----------------------------------------------
# Name           Type            Size  Value     
# -----------------------------------------------
# t1             apb_uart_trans  -     @904      
#   Presetn      integral        1     'b1       
#   Pwrite       integral        1     'b1       
#   Paddr        integral        32    'h0       
#   Pwdata       integral        32    'd200     
#   Prdata       integral        32    'd0       
#   Psel         integral        1     'b1       
#   Penable      integral        1     'b1       
#   Pready       integral        1     'b0       
#   Pslverr      integral        1     'b0       
#   IRQ          integral        1     'b0       
#   IER          integral        8     'b100     
#   IIR          integral        8     'b0       
#   FCR          integral        8     'b11000110
#   LCR          integral        8     'b11      
#   LSR          integral        8     'b0       
#   MCR          integral        8     'b0       
#   MSR          integral        8     'b0       
#   dl_access    integral        1     'b1       
#   data_in_thr  integral        1     'b1       
#   data_in_rbr  integral        1     'b0       
#   THR[0]       integral        8     200       
# -----------------------------------------------
# LCR = 11
# lcr = 11
# LCR REGISTER VERIFIED
# 
# LSR = 0
# lsr = 0
# LSR REGISTER VERIFIED
# 
# IER = 100
# ier = 100
# IER REGISTER VERIFIED
# 
# MCR = 0
# mcr = 0
# MCR REGISTER VERIFIED
# 
# FCR = 11000110
# fcr = 11000110
# FCR REGISTER VERIFIED
# 
# MSR = 0
# msr = 0
# MSR REGISTER VERIFIED
# 
# UVM_INFO ../tb/apb_uart_scoreboard.sv(240) @ 1030: uvm_test_top.apb_uart_env.apb_uart_sb [SCOREBOARD] UART 1 DATAS
# -----------------------------------------------
# Name           Type            Size  Value     
# -----------------------------------------------
# t1             apb_uart_trans  -     @744      
#   Presetn      integral        1     'b1       
#   Pwrite       integral        1     'b0       
#   Paddr        integral        32    'h8       
#   Pwdata       integral        32    3079972410
#   Prdata       integral        32    'd193     
#   Psel         integral        1     'b1       
#   Penable      integral        1     'b1       
#   Pready       integral        1     'b0       
#   Pslverr      integral        1     'b0       
#   IRQ          integral        1     'b0       
#   IER          integral        8     'b100     
#   IIR          integral        8     'b0       
#   FCR          integral        8     'b11000110
#   LCR          integral        8     'b11      
#   LSR          integral        8     'b0       
#   MCR          integral        8     'b0       
#   MSR          integral        8     'b0       
#   dl_access    integral        1     'b1       
#   data_in_thr  integral        1     'b1       
#   data_in_rbr  integral        1     'b0       
#   THR[0]       integral        8     'd100     
# -----------------------------------------------
# UVM_INFO ../tb/apb_uart_scoreboard.sv(257) @ 1090: uvm_test_top.apb_uart_env.apb_uart_sb [SCOREBOARD] UART 2 DATAS
# -----------------------------------------------
# Name           Type            Size  Value     
# -----------------------------------------------
# t1             apb_uart_trans  -     @904      
#   Presetn      integral        1     'b1       
#   Pwrite       integral        1     'b1       
#   Paddr        integral        32    'h0       
#   Pwdata       integral        32    'd200     
#   Prdata       integral        32    'd0       
#   Psel         integral        1     'b1       
#   Penable      integral        1     'b1       
#   Pready       integral        1     'b0       
#   Pslverr      integral        1     'b0       
#   IRQ          integral        1     'b0       
#   IER          integral        8     'b100     
#   IIR          integral        8     'b0       
#   FCR          integral        8     'b11000110
#   LCR          integral        8     'b11      
#   LSR          integral        8     'b0       
#   MCR          integral        8     'b0       
#   MSR          integral        8     'b0       
#   dl_access    integral        1     'b1       
#   data_in_thr  integral        1     'b1       
#   data_in_rbr  integral        1     'b0       
#   THR[0]       integral        8     200       
# -----------------------------------------------
# LCR = 11
# lcr = 11
# LCR REGISTER VERIFIED
# 
# LSR = 0
# lsr = 0
# LSR REGISTER VERIFIED
# 
# IER = 100
# ier = 100
# IER REGISTER VERIFIED
# 
# MCR = 0
# mcr = 0
# MCR REGISTER VERIFIED
# 
# FCR = 11000110
# fcr = 11000110
# FCR REGISTER VERIFIED
# 
# MSR = 0
# msr = 0
# MSR REGISTER VERIFIED
# 
# UVM_INFO ../tb/apb_uart_scoreboard.sv(240) @ 1090: uvm_test_top.apb_uart_env.apb_uart_sb [SCOREBOARD] UART 1 DATAS
# -----------------------------------------------
# Name           Type            Size  Value     
# -----------------------------------------------
# t1             apb_uart_trans  -     @744      
#   Presetn      integral        1     'b1       
#   Pwrite       integral        1     'b0       
#   Paddr        integral        32    'h8       
#   Pwdata       integral        32    3079972410
#   Prdata       integral        32    'd193     
#   Psel         integral        1     'b1       
#   Penable      integral        1     'b1       
#   Pready       integral        1     'b0       
#   Pslverr      integral        1     'b0       
#   IRQ          integral        1     'b0       
#   IER          integral        8     'b100     
#   IIR          integral        8     'b0       
#   FCR          integral        8     'b11000110
#   LCR          integral        8     'b11      
#   LSR          integral        8     'b0       
#   MCR          integral        8     'b0       
#   MSR          integral        8     'b0       
#   dl_access    integral        1     'b1       
#   data_in_thr  integral        1     'b1       
#   data_in_rbr  integral        1     'b0       
#   THR[0]       integral        8     'd100     
# -----------------------------------------------
# UVM_INFO ../tb/apb_uart_scoreboard.sv(257) @ 1150: uvm_test_top.apb_uart_env.apb_uart_sb [SCOREBOARD] UART 2 DATAS
# -----------------------------------------------
# Name           Type            Size  Value     
# -----------------------------------------------
# t1             apb_uart_trans  -     @904      
#   Presetn      integral        1     'b1       
#   Pwrite       integral        1     'b1       
#   Paddr        integral        32    'h0       
#   Pwdata       integral        32    'd200     
#   Prdata       integral        32    'd0       
#   Psel         integral        1     'b1       
#   Penable      integral        1     'b1       
#   Pready       integral        1     'b0       
#   Pslverr      integral        1     'b0       
#   IRQ          integral        1     'b0       
#   IER          integral        8     'b100     
#   IIR          integral        8     'b0       
#   FCR          integral        8     'b11000110
#   LCR          integral        8     'b11      
#   LSR          integral        8     'b0       
#   MCR          integral        8     'b0       
#   MSR          integral        8     'b0       
#   dl_access    integral        1     'b1       
#   data_in_thr  integral        1     'b1       
#   data_in_rbr  integral        1     'b0       
#   THR[0]       integral        8     200       
# -----------------------------------------------
# LCR = 11
# lcr = 11
# LCR REGISTER VERIFIED
# 
# LSR = 0
# lsr = 0
# LSR REGISTER VERIFIED
# 
# IER = 100
# ier = 100
# IER REGISTER VERIFIED
# 
# MCR = 0
# mcr = 0
# MCR REGISTER VERIFIED
# 
# FCR = 11000110
# fcr = 11000110
# FCR REGISTER VERIFIED
# 
# MSR = 0
# msr = 0
# MSR REGISTER VERIFIED
# 
# UVM_INFO ../tb/apb_uart_scoreboard.sv(240) @ 1150: uvm_test_top.apb_uart_env.apb_uart_sb [SCOREBOARD] UART 1 DATAS
# -----------------------------------------------
# Name           Type            Size  Value     
# -----------------------------------------------
# t1             apb_uart_trans  -     @744      
#   Presetn      integral        1     'b1       
#   Pwrite       integral        1     'b0       
#   Paddr        integral        32    'h8       
#   Pwdata       integral        32    3079972410
#   Prdata       integral        32    'd193     
#   Psel         integral        1     'b1       
#   Penable      integral        1     'b1       
#   Pready       integral        1     'b0       
#   Pslverr      integral        1     'b0       
#   IRQ          integral        1     'b0       
#   IER          integral        8     'b100     
#   IIR          integral        8     'b0       
#   FCR          integral        8     'b11000110
#   LCR          integral        8     'b11      
#   LSR          integral        8     'b0       
#   MCR          integral        8     'b0       
#   MSR          integral        8     'b0       
#   dl_access    integral        1     'b1       
#   data_in_thr  integral        1     'b1       
#   data_in_rbr  integral        1     'b0       
#   THR[0]       integral        8     'd100     
# -----------------------------------------------
# UVM_INFO ../tb/apb_uart_scoreboard.sv(257) @ 1210: uvm_test_top.apb_uart_env.apb_uart_sb [SCOREBOARD] UART 2 DATAS
# -----------------------------------------------
# Name           Type            Size  Value     
# -----------------------------------------------
# t1             apb_uart_trans  -     @904      
#   Presetn      integral        1     'b1       
#   Pwrite       integral        1     'b1       
#   Paddr        integral        32    'h0       
#   Pwdata       integral        32    'd200     
#   Prdata       integral        32    'd0       
#   Psel         integral        1     'b1       
#   Penable      integral        1     'b1       
#   Pready       integral        1     'b0       
#   Pslverr      integral        1     'b0       
#   IRQ          integral        1     'b0       
#   IER          integral        8     'b100     
#   IIR          integral        8     'b0       
#   FCR          integral        8     'b11000110
#   LCR          integral        8     'b11      
#   LSR          integral        8     'b0       
#   MCR          integral        8     'b0       
#   MSR          integral        8     'b0       
#   dl_access    integral        1     'b1       
#   data_in_thr  integral        1     'b1       
#   data_in_rbr  integral        1     'b0       
#   THR[0]       integral        8     200       
# -----------------------------------------------
# LCR = 11
# lcr = 11
# LCR REGISTER VERIFIED
# 
# LSR = 0
# lsr = 0
# LSR REGISTER VERIFIED
# 
# IER = 100
# ier = 100
# IER REGISTER VERIFIED
# 
# MCR = 0
# mcr = 0
# MCR REGISTER VERIFIED
# 
# FCR = 11000110
# fcr = 11000110
# FCR REGISTER VERIFIED
# 
# MSR = 0
# msr = 0
# MSR REGISTER VERIFIED
# 
# UVM_INFO ../tb/apb_uart_scoreboard.sv(240) @ 1210: uvm_test_top.apb_uart_env.apb_uart_sb [SCOREBOARD] UART 1 DATAS
# -----------------------------------------------
# Name           Type            Size  Value     
# -----------------------------------------------
# t1             apb_uart_trans  -     @744      
#   Presetn      integral        1     'b1       
#   Pwrite       integral        1     'b0       
#   Paddr        integral        32    'h8       
#   Pwdata       integral        32    3079972410
#   Prdata       integral        32    'd193     
#   Psel         integral        1     'b1       
#   Penable      integral        1     'b1       
#   Pready       integral        1     'b0       
#   Pslverr      integral        1     'b0       
#   IRQ          integral        1     'b0       
#   IER          integral        8     'b100     
#   IIR          integral        8     'b0       
#   FCR          integral        8     'b11000110
#   LCR          integral        8     'b11      
#   LSR          integral        8     'b0       
#   MCR          integral        8     'b0       
#   MSR          integral        8     'b0       
#   dl_access    integral        1     'b1       
#   data_in_thr  integral        1     'b1       
#   data_in_rbr  integral        1     'b0       
#   THR[0]       integral        8     'd100     
# -----------------------------------------------
# UVM_INFO ../tb/apb_uart_scoreboard.sv(257) @ 1270: uvm_test_top.apb_uart_env.apb_uart_sb [SCOREBOARD] UART 2 DATAS
# -----------------------------------------------
# Name           Type            Size  Value     
# -----------------------------------------------
# t1             apb_uart_trans  -     @904      
#   Presetn      integral        1     'b1       
#   Pwrite       integral        1     'b1       
#   Paddr        integral        32    'h0       
#   Pwdata       integral        32    'd200     
#   Prdata       integral        32    'd0       
#   Psel         integral        1     'b1       
#   Penable      integral        1     'b1       
#   Pready       integral        1     'b0       
#   Pslverr      integral        1     'b0       
#   IRQ          integral        1     'b0       
#   IER          integral        8     'b100     
#   IIR          integral        8     'b0       
#   FCR          integral        8     'b11000110
#   LCR          integral        8     'b11      
#   LSR          integral        8     'b0       
#   MCR          integral        8     'b0       
#   MSR          integral        8     'b0       
#   dl_access    integral        1     'b1       
#   data_in_thr  integral        1     'b1       
#   data_in_rbr  integral        1     'b0       
#   THR[0]       integral        8     200       
# -----------------------------------------------
# LCR = 11
# lcr = 11
# LCR REGISTER VERIFIED
# 
# LSR = 0
# lsr = 0
# LSR REGISTER VERIFIED
# 
# IER = 100
# ier = 100
# IER REGISTER VERIFIED
# 
# MCR = 0
# mcr = 0
# MCR REGISTER VERIFIED
# 
# FCR = 11000110
# fcr = 11000110
# FCR REGISTER VERIFIED
# 
# MSR = 0
# msr = 0
# MSR REGISTER VERIFIED
# 
# UVM_INFO ../tb/apb_uart_scoreboard.sv(240) @ 1270: uvm_test_top.apb_uart_env.apb_uart_sb [SCOREBOARD] UART 1 DATAS
# -----------------------------------------------
# Name           Type            Size  Value     
# -----------------------------------------------
# t1             apb_uart_trans  -     @744      
#   Presetn      integral        1     'b1       
#   Pwrite       integral        1     'b0       
#   Paddr        integral        32    'h8       
#   Pwdata       integral        32    3079972410
#   Prdata       integral        32    'd193     
#   Psel         integral        1     'b1       
#   Penable      integral        1     'b1       
#   Pready       integral        1     'b0       
#   Pslverr      integral        1     'b0       
#   IRQ          integral        1     'b0       
#   IER          integral        8     'b100     
#   IIR          integral        8     'b0       
#   FCR          integral        8     'b11000110
#   LCR          integral        8     'b11      
#   LSR          integral        8     'b0       
#   MCR          integral        8     'b0       
#   MSR          integral        8     'b0       
#   dl_access    integral        1     'b1       
#   data_in_thr  integral        1     'b1       
#   data_in_rbr  integral        1     'b0       
#   THR[0]       integral        8     'd100     
# -----------------------------------------------
# UVM_INFO ../tb/apb_uart_scoreboard.sv(257) @ 1330: uvm_test_top.apb_uart_env.apb_uart_sb [SCOREBOARD] UART 2 DATAS
# -----------------------------------------------
# Name           Type            Size  Value     
# -----------------------------------------------
# t1             apb_uart_trans  -     @904      
#   Presetn      integral        1     'b1       
#   Pwrite       integral        1     'b1       
#   Paddr        integral        32    'h0       
#   Pwdata       integral        32    'd200     
#   Prdata       integral        32    'd0       
#   Psel         integral        1     'b1       
#   Penable      integral        1     'b1       
#   Pready       integral        1     'b0       
#   Pslverr      integral        1     'b0       
#   IRQ          integral        1     'b0       
#   IER          integral        8     'b100     
#   IIR          integral        8     'b0       
#   FCR          integral        8     'b11000110
#   LCR          integral        8     'b11      
#   LSR          integral        8     'b0       
#   MCR          integral        8     'b0       
#   MSR          integral        8     'b0       
#   dl_access    integral        1     'b1       
#   data_in_thr  integral        1     'b1       
#   data_in_rbr  integral        1     'b0       
#   THR[0]       integral        8     200       
# -----------------------------------------------
# LCR = 11
# lcr = 11
# LCR REGISTER VERIFIED
# 
# LSR = 0
# lsr = 0
# LSR REGISTER VERIFIED
# 
# IER = 100
# ier = 100
# IER REGISTER VERIFIED
# 
# MCR = 0
# mcr = 0
# MCR REGISTER VERIFIED
# 
# FCR = 11000110
# fcr = 11000110
# FCR REGISTER VERIFIED
# 
# MSR = 0
# msr = 0
# MSR REGISTER VERIFIED
# 
# UVM_INFO ../tb/apb_uart_scoreboard.sv(240) @ 1330: uvm_test_top.apb_uart_env.apb_uart_sb [SCOREBOARD] UART 1 DATAS
# -----------------------------------------------
# Name           Type            Size  Value     
# -----------------------------------------------
# t1             apb_uart_trans  -     @744      
#   Presetn      integral        1     'b1       
#   Pwrite       integral        1     'b0       
#   Paddr        integral        32    'h8       
#   Pwdata       integral        32    3079972410
#   Prdata       integral        32    'd193     
#   Psel         integral        1     'b1       
#   Penable      integral        1     'b1       
#   Pready       integral        1     'b0       
#   Pslverr      integral        1     'b0       
#   IRQ          integral        1     'b0       
#   IER          integral        8     'b100     
#   IIR          integral        8     'b0       
#   FCR          integral        8     'b11000110
#   LCR          integral        8     'b11      
#   LSR          integral        8     'b0       
#   MCR          integral        8     'b0       
#   MSR          integral        8     'b0       
#   dl_access    integral        1     'b1       
#   data_in_thr  integral        1     'b1       
#   data_in_rbr  integral        1     'b0       
#   THR[0]       integral        8     'd100     
# -----------------------------------------------
# UVM_INFO ../tb/apb_uart_scoreboard.sv(257) @ 1390: uvm_test_top.apb_uart_env.apb_uart_sb [SCOREBOARD] UART 2 DATAS
# -----------------------------------------------
# Name           Type            Size  Value     
# -----------------------------------------------
# t1             apb_uart_trans  -     @904      
#   Presetn      integral        1     'b1       
#   Pwrite       integral        1     'b1       
#   Paddr        integral        32    'h0       
#   Pwdata       integral        32    'd200     
#   Prdata       integral        32    'd0       
#   Psel         integral        1     'b1       
#   Penable      integral        1     'b1       
#   Pready       integral        1     'b0       
#   Pslverr      integral        1     'b0       
#   IRQ          integral        1     'b0       
#   IER          integral        8     'b100     
#   IIR          integral        8     'b0       
#   FCR          integral        8     'b11000110
#   LCR          integral        8     'b11      
#   LSR          integral        8     'b0       
#   MCR          integral        8     'b0       
#   MSR          integral        8     'b0       
#   dl_access    integral        1     'b1       
#   data_in_thr  integral        1     'b1       
#   data_in_rbr  integral        1     'b0       
#   THR[0]       integral        8     200       
# -----------------------------------------------
# LCR = 11
# lcr = 11
# LCR REGISTER VERIFIED
# 
# LSR = 0
# lsr = 0
# LSR REGISTER VERIFIED
# 
# IER = 100
# ier = 100
# IER REGISTER VERIFIED
# 
# MCR = 0
# mcr = 0
# MCR REGISTER VERIFIED
# 
# FCR = 11000110
# fcr = 11000110
# FCR REGISTER VERIFIED
# 
# MSR = 0
# msr = 0
# MSR REGISTER VERIFIED
# 
# UVM_INFO ../tb/apb_uart_scoreboard.sv(257) @ 1390790: uvm_test_top.apb_uart_env.apb_uart_sb [SCOREBOARD] UART 2 DATAS
# -----------------------------------------------
# Name           Type            Size  Value     
# -----------------------------------------------
# t1             apb_uart_trans  -     @904      
#   Presetn      integral        1     'b1       
#   Pwrite       integral        1     'b0       
#   Paddr        integral        32    'h8       
#   Pwdata       integral        32    3573303460
#   Prdata       integral        32    'd193     
#   Psel         integral        1     'b1       
#   Penable      integral        1     'b1       
#   Pready       integral        1     'b0       
#   Pslverr      integral        1     'b0       
#   IRQ          integral        1     'b0       
#   IER          integral        8     'b100     
#   IIR          integral        8     'b11000110
#   FCR          integral        8     'b11000110
#   LCR          integral        8     'b11      
#   LSR          integral        8     'b0       
#   MCR          integral        8     'b0       
#   MSR          integral        8     'b0       
#   dl_access    integral        1     'b1       
#   data_in_thr  integral        1     'b1       
#   data_in_rbr  integral        1     'b0       
#   THR[0]       integral        8     200       
# -----------------------------------------------
# UVM_INFO ../tb/apb_uart_scoreboard.sv(240) @ 1391185: uvm_test_top.apb_uart_env.apb_uart_sb [SCOREBOARD] UART 1 DATAS
# -----------------------------------------------
# Name           Type            Size  Value     
# -----------------------------------------------
# t1             apb_uart_trans  -     @744      
#   Presetn      integral        1     'b1       
#   Pwrite       integral        1     'b0       
#   Paddr        integral        32    'h8       
#   Pwdata       integral        32    3079972410
#   Prdata       integral        32    'd193     
#   Psel         integral        1     'b1       
#   Penable      integral        1     'b1       
#   Pready       integral        1     'b0       
#   Pslverr      integral        1     'b0       
#   IRQ          integral        1     'b0       
#   IER          integral        8     'b100     
#   IIR          integral        8     'b11000110
#   FCR          integral        8     'b11000110
#   LCR          integral        8     'b11      
#   LSR          integral        8     'b0       
#   MCR          integral        8     'b0       
#   MSR          integral        8     'b0       
#   dl_access    integral        1     'b1       
#   data_in_thr  integral        1     'b1       
#   data_in_rbr  integral        1     'b0       
#   THR[0]       integral        8     'd100     
# -----------------------------------------------
# LCR = 11
# lcr = 11
# LCR REGISTER VERIFIED
# 
# LSR = 0
# lsr = 1
# LSR VERIFICATION FAILED
# 
# IER = 100
# ier = 100
# IER REGISTER VERIFIED
# 
# MCR = 0
# mcr = 0
# MCR REGISTER VERIFIED
# 
# FCR = 10100100
# fcr = 11000110
# FCR VERIFICATION FAILED
# 
# MSR = 0
# msr = 0
# MSR REGISTER VERIFIED
# 
# UVM_INFO ../tb/apb_uart_scoreboard.sv(257) @ 1391185: uvm_test_top.apb_uart_env.apb_uart_sb [SCOREBOARD] UART 2 DATAS
# -----------------------------------------------
# Name           Type            Size  Value     
# -----------------------------------------------
# t1             apb_uart_trans  -     @904      
#   Presetn      integral        1     'b1       
#   Pwrite       integral        1     'b0       
#   Paddr        integral        32    'h14      
#   Pwdata       integral        32    3737774380
#   Prdata       integral        32    'd1       
#   Psel         integral        1     'b1       
#   Penable      integral        1     'b1       
#   Pready       integral        1     'b0       
#   Pslverr      integral        1     'b0       
#   IRQ          integral        1     'b0       
#   IER          integral        8     'b100     
#   IIR          integral        8     'b11000110
#   FCR          integral        8     'b11000110
#   LCR          integral        8     'b11      
#   LSR          integral        8     'b1       
#   MCR          integral        8     'b0       
#   MSR          integral        8     'b0       
#   dl_access    integral        1     'b1       
#   data_in_thr  integral        1     'b1       
#   data_in_rbr  integral        1     'b0       
#   THR[0]       integral        8     200       
# -----------------------------------------------
# UVM_INFO ../tb/apb_uart_scoreboard.sv(240) @ 1391195: uvm_test_top.apb_uart_env.apb_uart_sb [SCOREBOARD] UART 1 DATAS
# -----------------------------------------------
# Name           Type            Size  Value     
# -----------------------------------------------
# t1             apb_uart_trans  -     @744      
#   Presetn      integral        1     'b1       
#   Pwrite       integral        1     'b0       
#   Paddr        integral        32    'h8       
#   Pwdata       integral        32    3079972410
#   Prdata       integral        32    'd198     
#   Psel         integral        1     'b1       
#   Penable      integral        1     'b1       
#   Pready       integral        1     'b0       
#   Pslverr      integral        1     'b0       
#   IRQ          integral        1     'b1       
#   IER          integral        8     'b100     
#   IIR          integral        8     'b11000110
#   FCR          integral        8     'b11000110
#   LCR          integral        8     'b11      
#   LSR          integral        8     'b0       
#   MCR          integral        8     'b0       
#   MSR          integral        8     'b0       
#   dl_access    integral        1     'b1       
#   data_in_thr  integral        1     'b1       
#   data_in_rbr  integral        1     'b0       
#   THR[0]       integral        8     'd100     
# -----------------------------------------------
# LCR = 11
# lcr = 11
# LCR REGISTER VERIFIED
# 
# LSR = 0
# lsr = 1
# LSR VERIFICATION FAILED
# 
# IER = 100
# ier = 100
# IER REGISTER VERIFIED
# 
# MCR = 0
# mcr = 0
# MCR REGISTER VERIFIED
# 
# FCR = 10100100
# fcr = 11000110
# FCR VERIFICATION FAILED
# 
# MSR = 0
# msr = 0
# MSR REGISTER VERIFIED
# 
# UVM_INFO ../tb/apb_uart_scoreboard.sv(257) @ 1391195: uvm_test_top.apb_uart_env.apb_uart_sb [SCOREBOARD] UART 2 DATAS
# -----------------------------------------------
# Name           Type            Size  Value     
# -----------------------------------------------
# t1             apb_uart_trans  -     @904      
#   Presetn      integral        1     'b1       
#   Pwrite       integral        1     'b0       
#   Paddr        integral        32    'h14      
#   Pwdata       integral        32    3737774380
#   Prdata       integral        32    'd1       
#   Psel         integral        1     'b1       
#   Penable      integral        1     'b1       
#   Pready       integral        1     'b0       
#   Pslverr      integral        1     'b0       
#   IRQ          integral        1     'b0       
#   IER          integral        8     'b100     
#   IIR          integral        8     'b11000110
#   FCR          integral        8     'b11000110
#   LCR          integral        8     'b11      
#   LSR          integral        8     'b1       
#   MCR          integral        8     'b0       
#   MSR          integral        8     'b0       
#   dl_access    integral        1     'b1       
#   data_in_thr  integral        1     'b1       
#   data_in_rbr  integral        1     'b0       
#   THR[0]       integral        8     200       
# -----------------------------------------------
# UVM_INFO ../tb/apb_uart_scoreboard.sv(240) @ 1391245: uvm_test_top.apb_uart_env.apb_uart_sb [SCOREBOARD] UART 1 DATAS
# ------------------------------------------------
# Name           Type            Size  Value      
# ------------------------------------------------
# t1             apb_uart_trans  -     @744       
#   Presetn      integral        1     'b1        
#   Pwrite       integral        1     'b0        
#   Paddr        integral        32    'h14       
#   Pwdata       integral        32    'd236422947
#   Prdata       integral        32    'd3        
#   Psel         integral        1     'b1        
#   Penable      integral        1     'b1        
#   Pready       integral        1     'b0        
#   Pslverr      integral        1     'b0        
#   IRQ          integral        1     'b1        
#   IER          integral        8     'b100      
#   IIR          integral        8     'b11000110 
#   FCR          integral        8     'b11000110 
#   LCR          integral        8     'b11       
#   LSR          integral        8     'b11       
#   MCR          integral        8     'b0        
#   MSR          integral        8     'b0        
#   dl_access    integral        1     'b1        
#   data_in_thr  integral        1     'b1        
#   data_in_rbr  integral        1     'b0        
#   THR[0]       integral        8     'd100      
# ------------------------------------------------
# LCR = 11
# lcr = 11
# LCR REGISTER VERIFIED
# 
# LSR = 0
# lsr = 1
# LSR VERIFICATION FAILED
# 
# IER = 100
# ier = 100
# IER REGISTER VERIFIED
# 
# MCR = 0
# mcr = 0
# MCR REGISTER VERIFIED
# 
# FCR = 10100100
# fcr = 11000110
# FCR VERIFICATION FAILED
# 
# MSR = 0
# msr = 0
# MSR REGISTER VERIFIED
# 
# UVM_INFO ../tb/apb_uart_scoreboard.sv(257) @ 1391245: uvm_test_top.apb_uart_env.apb_uart_sb [SCOREBOARD] UART 2 DATAS
# -----------------------------------------------
# Name           Type            Size  Value     
# -----------------------------------------------
# t1             apb_uart_trans  -     @904      
#   Presetn      integral        1     'b1       
#   Pwrite       integral        1     'b0       
#   Paddr        integral        32    'h14      
#   Pwdata       integral        32    3737774380
#   Prdata       integral        32    'd1       
#   Psel         integral        1     'b1       
#   Penable      integral        1     'b1       
#   Pready       integral        1     'b0       
#   Pslverr      integral        1     'b0       
#   IRQ          integral        1     'b0       
#   IER          integral        8     'b100     
#   IIR          integral        8     'b11000110
#   FCR          integral        8     'b11000110
#   LCR          integral        8     'b11      
#   LSR          integral        8     'b1       
#   MCR          integral        8     'b0       
#   MSR          integral        8     'b0       
#   dl_access    integral        1     'b1       
#   data_in_thr  integral        1     'b1       
#   data_in_rbr  integral        1     'b0       
#   THR[0]       integral        8     200       
# -----------------------------------------------
# UVM_INFO verilog_src/uvm-1.1d/src/base/uvm_objection.svh(1267) @ 1391245: reporter [TEST_DONE] 'run' phase is ready to proceed to the 'extract' phase
# -----------------------------------------------
# 	value of THR1	= 100
# 	size of THR1	= 1
#  
# 	value of THR2	= 200
# 	size of THR2	= 1
#  
# 	value of RBR1	= 
# 	size of RBR1	= 0
#  
# 	value of RBR2	= 
# 	size of RBR2	= 0
#  
# 	value of lsr in t1 = 11 
# 	value of lsr in t2 = 1 
#  
# 	value of iir in t1 = 11000110 
# 	value of iir in t2 = 11000110 
#  
# -----------------------------------------------
# 
# --- UVM Report Summary ---
# 
# ** Report counts by severity
# UVM_INFO :   57
# UVM_WARNING :    0
# UVM_ERROR :    0
# UVM_FATAL :    0
# ** Report counts by id
# [Questa UVM]     2
# [RNTST]     1
# [SCOREBOARD]    53
# [TEST_DONE]     1
# ** Note: $finish    : /home/cad/eda/Mentor_Graphics/Questasim/questasim/linux_x86_64/../verilog_src/uvm-1.1d/src/base/uvm_root.svh(430)
#    Time: 1391245 ns  Iteration: 64  Instance: /top
# Saving coverage database on exit...
# End time: 12:42:36 on Apr 11,2026, Elapsed time: 0:00:02
# Errors: 0, Warnings: 1
