vsim -cvgperinstance -vopt -voptargs="+acc" -coverage -sva -c -do " log -r /* ;coverage save -onexit -assert -directive -cvg -codeAll mem_cov1;run -all; exit" -wlf wave_file1.wlf -l test1.log -sv_seed random work.top "+UVM_TESTNAME=test_1" 
Start time: 09:53:12 on Jan 12,2025
** Note: (vsim-8009) Loading existing optimized design _opt
//  Questa Sim-64
//  Version 2019.2 linux_x86_64 Apr 16 2019
//
//  Copyright 1991-2019 Mentor Graphics Corporation
//  All Rights Reserved.
//
//  QuestaSim and its associated documentation contain trade
//  secrets and commercial or financial information that are the property of
//  Mentor Graphics Corporation and are privileged, confidential,
//  and exempt from disclosure under the Freedom of Information Act,
//  5 U.S.C. Section 552. Furthermore, this information
//  is prohibited from disclosure under the Trade Secrets Act,
//  18 U.S.C. Section 1905.
//
Loading sv_std.std
Loading work.ahb_if(fast)
Loading work.apb_if(fast)
Loading mtiUvm.uvm_pkg
Loading work.bridge_pkg(fast)
Loading mtiUvm.questa_uvm_pkg(fast)
Loading work.top(fast)
Loading work.ahb_if(fast)
Loading work.apb_if(fast)
Loading work.rtl_top(fast)
Loading work.ahb(fast)
Loading work.apb_controller(fast)
Loading work.apb(fast)
# Loading /home/cad/eda/Questa_2019/questasim/uvm-1.1d/linux_x86_64/uvm_dpi.so
** Warning: (vsim-8634) Code was not compiled with coverage options.
Sv_Seed = 3666433242
 log -r /* 
coverage save -onexit -assert -directive -cvg -codeAll mem_cov1
run -all
----------------------------------------------------------------
UVM-1.1d
(C) 2007-2013 Mentor Graphics Corporation
(C) 2007-2013 Cadence Design Systems, Inc.
(C) 2006-2013 Synopsys, Inc.
(C) 2011-2013 Cypress Semiconductor Corp.
----------------------------------------------------------------

  ***********       IMPORTANT RELEASE NOTES         ************

  You are using a version of the UVM library that has been compiled
  with `UVM_NO_DEPRECATED undefined.
  See http://www.eda.org/svdb/view.php?id=3313 for more details.

  You are using a version of the UVM library that has been compiled
  with `UVM_OBJECT_MUST_HAVE_CONSTRUCTOR undefined.
  See http://www.eda.org/svdb/view.php?id=3770 for more details.

      (Specify +UVM_NO_RELNOTES to turn off this notice)

UVM_INFO verilog_src/questa_uvm_pkg-1.2/src/questa_uvm_pkg.sv(277) @ 0: reporter [Questa UVM] QUESTA_UVM-1.2.3
UVM_INFO verilog_src/questa_uvm_pkg-1.2/src/questa_uvm_pkg.sv(278) @ 0: reporter [Questa UVM]  questa_uvm::init(+struct)
UVM_INFO @ 0: reporter [RNTST] Running test test_1...
UVM_INFO @ 0: reporter [UVMTOP] UVM testbench topology:
--------------------------------------------------------------------
Name                         Type                        Size  Value
--------------------------------------------------------------------
uvm_test_top                 test_1                      -     @479 
  ahb_apb_env                ahb_apb_env                 -     @487 
    ahb_top                  ahb_agt_top                 -     @503 
      agt[0]                 ahb_agent                   -     @533 
        ahb_drv              ahb_driver                  -     @561 
          rsp_port           uvm_analysis_port           -     @576 
          seq_item_port      uvm_seq_item_pull_port      -     @568 
        ahb_mon              ahb_monitor                 -     @546 
          monitor_port       uvm_analysis_port           -     @553 
        ahb_seqr             ahb_sequencer               -     @584 
          rsp_export         uvm_analysis_export         -     @591 
          seq_item_export    uvm_seq_item_pull_imp       -     @685 
          arbitration_queue  array                       0     -    
          lock_queue         array                       0     -    
          num_last_reqs      integral                    32    'd1  
          num_last_rsps      integral                    32    'd1  
    apb_top                  apb_agt_top                 -     @510 
      agt[0]                 apb_agent                   -     @701 
        apb_drv              apb_driver                  -     @729 
          rsp_port           uvm_analysis_port           -     @744 
          seq_item_port      uvm_seq_item_pull_port      -     @736 
        apb_mon              apb_monitor                 -     @714 
          monitor_port       uvm_analysis_port           -     @721 
        apb_seqr             apb_sequencer               -     @752 
          rsp_export         uvm_analysis_export         -     @759 
          seq_item_export    uvm_seq_item_pull_imp       -     @853 
          arbitration_queue  array                       0     -    
          lock_queue         array                       0     -    
          num_last_reqs      integral                    32    'd1  
          num_last_rsps      integral                    32    'd1  
    sb                       scoreboard                  -     @517 
      fifo_ahb[0]            uvm_tlm_analysis_fifo #(T)  -     @869 
        analysis_export      uvm_analysis_imp            -     @908 
        get_ap               uvm_analysis_port           -     @900 
        get_peek_export      uvm_get_peek_imp            -     @884 
        put_ap               uvm_analysis_port           -     @892 
        put_export           uvm_put_imp                 -     @876 
      fifo_apb[0]            uvm_tlm_analysis_fifo #(T)  -     @916 
        analysis_export      uvm_analysis_imp            -     @955 
        get_ap               uvm_analysis_port           -     @947 
        get_peek_export      uvm_get_peek_imp            -     @931 
        put_ap               uvm_analysis_port           -     @939 
        put_export           uvm_put_imp                 -     @923 
--------------------------------------------------------------------

UVM_INFO @ 0: reporter [UVMTOP] UVM testbench topology:
--------------------------------------------------------------------
Name                         Type                        Size  Value
--------------------------------------------------------------------
uvm_test_top                 test_1                      -     @479 
  ahb_apb_env                ahb_apb_env                 -     @487 
    ahb_top                  ahb_agt_top                 -     @503 
      agt[0]                 ahb_agent                   -     @533 
        ahb_drv              ahb_driver                  -     @561 
          rsp_port           uvm_analysis_port           -     @576 
          seq_item_port      uvm_seq_item_pull_port      -     @568 
        ahb_mon              ahb_monitor                 -     @546 
          monitor_port       uvm_analysis_port           -     @553 
        ahb_seqr             ahb_sequencer               -     @584 
          rsp_export         uvm_analysis_export         -     @591 
          seq_item_export    uvm_seq_item_pull_imp       -     @685 
          arbitration_queue  array                       0     -    
          lock_queue         array                       0     -    
          num_last_reqs      integral                    32    'd1  
          num_last_rsps      integral                    32    'd1  
    apb_top                  apb_agt_top                 -     @510 
      agt[0]                 apb_agent                   -     @701 
        apb_drv              apb_driver                  -     @729 
          rsp_port           uvm_analysis_port           -     @744 
          seq_item_port      uvm_seq_item_pull_port      -     @736 
        apb_mon              apb_monitor                 -     @714 
          monitor_port       uvm_analysis_port           -     @721 
        apb_seqr             apb_sequencer               -     @752 
          rsp_export         uvm_analysis_export         -     @759 
          seq_item_export    uvm_seq_item_pull_imp       -     @853 
          arbitration_queue  array                       0     -    
          lock_queue         array                       0     -    
          num_last_reqs      integral                    32    'd1  
          num_last_rsps      integral                    32    'd1  
    sb                       scoreboard                  -     @517 
      fifo_ahb[0]            uvm_tlm_analysis_fifo #(T)  -     @869 
        analysis_export      uvm_analysis_imp            -     @908 
        get_ap               uvm_analysis_port           -     @900 
        get_peek_export      uvm_get_peek_imp            -     @884 
        put_ap               uvm_analysis_port           -     @892 
        put_export           uvm_put_imp                 -     @876 
      fifo_apb[0]            uvm_tlm_analysis_fifo #(T)  -     @916 
        analysis_export      uvm_analysis_imp            -     @955 
        get_ap               uvm_analysis_port           -     @947 
        get_peek_export      uvm_get_peek_imp            -     @931 
        put_ap               uvm_analysis_port           -     @939 
        put_export           uvm_put_imp                 -     @923 
--------------------------------------------------------------------

inside DEFAULT state                  10
** Error: Assertion error.
   Time: 10 ns Started: 10 ns  Scope: top.in1.ONLY_ONE_BIT_HIGH_PSEL File: ../Bridge_rtl/apb_if.sv Line: 25
------------------------------------------------------------------------------------------------------
Name                           Type      Size  Value                                                  
------------------------------------------------------------------------------------------------------
req                            ahb_xtn   -     @984                                                   
  begin_time                   time      64    70                                                     
  depth                        int       32    'd2                                                    
  parent sequence (name)       string    6     t_seqh                                                 
  parent sequence (full name)  string    55    uvm_test_top.ahb_apb_env.ahb_top.agt[0].ahb_seqr.t_seqh
  sequencer                    string    48    uvm_test_top.ahb_apb_env.ahb_top.agt[0].ahb_seqr       
  Haddr                        integral  32    'h88000238                                             
  Hwdata                       integral  32    'h19b24ef9                                             
  Hwrite                       integral  1     'd0                                                    
  Htrans                       integral  2     2                                                      
  Hsize                        integral  2     2                                                      
  Hburst                       integral  3     'h3                                                    
  Hrdata                       integral  32    'h0xxxxxxxx                                            
------------------------------------------------------------------------------------------------------
No of packets driven = 1
------------------------------------------------------------------------------------------------------
Name                           Type      Size  Value                                                  
------------------------------------------------------------------------------------------------------
req                            ahb_xtn   -     @984                                                   
  begin_time                   time      64    90                                                     
  end_time                     time      64    90                                                     
  depth                        int       32    'd2                                                    
  parent sequence (name)       string    6     t_seqh                                                 
  parent sequence (full name)  string    55    uvm_test_top.ahb_apb_env.ahb_top.agt[0].ahb_seqr.t_seqh
  sequencer                    string    48    uvm_test_top.ahb_apb_env.ahb_top.agt[0].ahb_seqr       
  Haddr                        integral  32    'h8800023c                                             
  Hwdata                       integral  32    'h1ef8a7ed                                             
  Hwrite                       integral  1     'd0                                                    
  Htrans                       integral  2     3                                                      
  Hsize                        integral  2     2                                                      
  Hburst                       integral  3     'h3                                                    
  Hrdata                       integral  32    'h0xxxxxxxx                                            
------------------------------------------------------------------------------------------------------
No of packets driven = 2
-------------------------------------
Name      Type      Size  Value      
-------------------------------------
xtn       ahb_xtn   -     @980       
  Haddr   integral  32    'h88000238 
  Hwdata  integral  32    'h0xxxxxxxx
  Hwrite  integral  1     'd0        
  Htrans  integral  2     2          
  Hsize   integral  2     2          
  Hburst  integral  3     'h0X       
  Hrdata  integral  32    'h12153524 
-------------------------------------
No of data monitored =           1
Size of the queue =           1
------------------------------------------------------------------------------------------------------
Name                           Type      Size  Value                                                  
------------------------------------------------------------------------------------------------------
req                            ahb_xtn   -     @984                                                   
  begin_time                   time      64    130                                                    
  end_time                     time      64    130                                                    
  depth                        int       32    'd2                                                    
  parent sequence (name)       string    6     t_seqh                                                 
  parent sequence (full name)  string    55    uvm_test_top.ahb_apb_env.ahb_top.agt[0].ahb_seqr.t_seqh
  sequencer                    string    48    uvm_test_top.ahb_apb_env.ahb_top.agt[0].ahb_seqr       
  Haddr                        integral  32    'h88000240                                             
  Hwdata                       integral  32    'h9f60b1ff                                             
  Hwrite                       integral  1     'd0                                                    
  Htrans                       integral  2     3                                                      
  Hsize                        integral  2     2                                                      
  Hburst                       integral  3     'h3                                                    
  Hrdata                       integral  32    'h0xxxxxxxx                                            
------------------------------------------------------------------------------------------------------
--------------------------------------
Name       Type      Size  Value      
--------------------------------------
xtn        apb_xtn   -     @970       
  Paddr    integral  32    'h88000238 
  Penable  integral  1     'dX        
  Pwrite   integral  1     'd0        
  Pselx    integral  4     'd4        
  Prdata   integral  32    'h12153524 
  Pwdata   integral  32    'h0xxxxxxxx
--------------------------------------
UVM_INFO ../apb_agent_top/apb_monitor.sv(72) @ 150: uvm_test_top.ahb_apb_env.apb_top.agt[0].apb_mon [apb_monitor] Displaying apb_monitor data
Address compared Successfully
HADDR=88000238, PADDR=88000238
Data compared Successfully
HDATA=12153524, PDATA=12153524
Data verified =           1
No of packets driven = 3
-------------------------------------
Name      Type      Size  Value      
-------------------------------------
xtn       ahb_xtn   -     @1037      
  Haddr   integral  32    'h8800023c 
  Hwdata  integral  32    'h0xxxxxxxx
  Hwrite  integral  1     'd0        
  Htrans  integral  2     3          
  Hsize   integral  2     2          
  Hburst  integral  3     'h0X       
  Hrdata  integral  32    'h8484d609 
-------------------------------------
No of data monitored =           2
Size of the queue =           1
------------------------------------------------------------------------------------------------------
Name                           Type      Size  Value                                                  
------------------------------------------------------------------------------------------------------
req                            ahb_xtn   -     @984                                                   
  begin_time                   time      64    170                                                    
  end_time                     time      64    170                                                    
  depth                        int       32    'd2                                                    
  parent sequence (name)       string    6     t_seqh                                                 
  parent sequence (full name)  string    55    uvm_test_top.ahb_apb_env.ahb_top.agt[0].ahb_seqr.t_seqh
  sequencer                    string    48    uvm_test_top.ahb_apb_env.ahb_top.agt[0].ahb_seqr       
  Haddr                        integral  32    'h88000244                                             
  Hwdata                       integral  32    'h96d6615c                                             
  Hwrite                       integral  1     'd0                                                    
  Htrans                       integral  2     3                                                      
  Hsize                        integral  2     2                                                      
  Hburst                       integral  3     'h3                                                    
  Hrdata                       integral  32    'h0xxxxxxxx                                            
------------------------------------------------------------------------------------------------------
--------------------------------------
Name       Type      Size  Value      
--------------------------------------
xtn        apb_xtn   -     @1041      
  Paddr    integral  32    'h8800023c 
  Penable  integral  1     'dX        
  Pwrite   integral  1     'd0        
  Pselx    integral  4     'd4        
  Prdata   integral  32    'h8484d609 
  Pwdata   integral  32    'h0xxxxxxxx
--------------------------------------
UVM_INFO ../apb_agent_top/apb_monitor.sv(72) @ 190: uvm_test_top.ahb_apb_env.apb_top.agt[0].apb_mon [apb_monitor] Displaying apb_monitor data
Address compared Successfully
HADDR=8800023c, PADDR=8800023c
Data compared Successfully
HDATA=8484d609, PDATA=8484d609
Data verified =           2
No of packets driven = 4
-------------------------------------
Name      Type      Size  Value      
-------------------------------------
xtn       ahb_xtn   -     @1045      
  Haddr   integral  32    'h88000240 
  Hwdata  integral  32    'h0xxxxxxxx
  Hwrite  integral  1     'd0        
  Htrans  integral  2     3          
  Hsize   integral  2     2          
  Hburst  integral  3     'h0X       
  Hrdata  integral  32    'h6b97b0d  
-------------------------------------
No of data monitored =           3
Size of the queue =           1
------------------------------------------------------------------------------------------------------
Name                           Type      Size  Value                                                  
------------------------------------------------------------------------------------------------------
req                            ahb_xtn   -     @1057                                                  
  begin_time                   time      64    210                                                    
  depth                        int       32    'd2                                                    
  parent sequence (name)       string    6     t_seqh                                                 
  parent sequence (full name)  string    55    uvm_test_top.ahb_apb_env.ahb_top.agt[0].ahb_seqr.t_seqh
  sequencer                    string    48    uvm_test_top.ahb_apb_env.ahb_top.agt[0].ahb_seqr       
  Haddr                        integral  32    'h8c0001dc                                             
  Hwdata                       integral  32    'h6e35880e                                             
  Hwrite                       integral  1     'd0                                                    
  Htrans                       integral  2     2                                                      
  Hsize                        integral  2     'd0                                                    
  Hburst                       integral  3     'h1                                                    
  Hrdata                       integral  32    'h0xxxxxxxx                                            
------------------------------------------------------------------------------------------------------
--------------------------------------
Name       Type      Size  Value      
--------------------------------------
xtn        apb_xtn   -     @1049      
  Paddr    integral  32    'h88000240 
  Penable  integral  1     'dX        
  Pwrite   integral  1     'd0        
  Pselx    integral  4     'd4        
  Prdata   integral  32    'h6b97b0d  
  Pwdata   integral  32    'h0xxxxxxxx
--------------------------------------
UVM_INFO ../apb_agent_top/apb_monitor.sv(72) @ 230: uvm_test_top.ahb_apb_env.apb_top.agt[0].apb_mon [apb_monitor] Displaying apb_monitor data
Address compared Successfully
HADDR=88000240, PADDR=88000240
Data compared Successfully
HDATA=06b97b0d, PDATA=06b97b0d
Data verified =           3
No of packets driven = 5
-------------------------------------
Name      Type      Size  Value      
-------------------------------------
xtn       ahb_xtn   -     @1053      
  Haddr   integral  32    'h88000244 
  Hwdata  integral  32    'h0xxxxxxxx
  Hwrite  integral  1     'd0        
  Htrans  integral  2     3          
  Hsize   integral  2     2          
  Hburst  integral  3     'h0X       
  Hrdata  integral  32    'hb2c28465 
-------------------------------------
No of data monitored =           4
Size of the queue =           1
------------------------------------------------------------------------------------------------------
Name                           Type      Size  Value                                                  
------------------------------------------------------------------------------------------------------
req                            ahb_xtn   -     @1057                                                  
  begin_time                   time      64    250                                                    
  end_time                     time      64    250                                                    
  depth                        int       32    'd2                                                    
  parent sequence (name)       string    6     t_seqh                                                 
  parent sequence (full name)  string    55    uvm_test_top.ahb_apb_env.ahb_top.agt[0].ahb_seqr.t_seqh
  sequencer                    string    48    uvm_test_top.ahb_apb_env.ahb_top.agt[0].ahb_seqr       
  Haddr                        integral  32    'h8c0001dd                                             
  Hwdata                       integral  32    'h66a48bcd                                             
  Hwrite                       integral  1     'd0                                                    
  Htrans                       integral  2     3                                                      
  Hsize                        integral  2     'd0                                                    
  Hburst                       integral  3     'h1                                                    
  Hrdata                       integral  32    'h0xxxxxxxx                                            
------------------------------------------------------------------------------------------------------
--------------------------------------
Name       Type      Size  Value      
--------------------------------------
xtn        apb_xtn   -     @1061      
  Paddr    integral  32    'h88000244 
  Penable  integral  1     'dX        
  Pwrite   integral  1     'd0        
  Pselx    integral  4     8          
  Prdata   integral  32    'hb2c28465 
  Pwdata   integral  32    'h0xxxxxxxx
--------------------------------------
UVM_INFO ../apb_agent_top/apb_monitor.sv(72) @ 270: uvm_test_top.ahb_apb_env.apb_top.agt[0].apb_mon [apb_monitor] Displaying apb_monitor data
Address compared Successfully
HADDR=88000244, PADDR=88000244
Data compared Successfully
HDATA=b2c28465, PDATA=b2c28465
Data verified =           4
No of packets driven = 6
-------------------------------------
Name      Type      Size  Value      
-------------------------------------
xtn       ahb_xtn   -     @1065      
  Haddr   integral  32    'h8c0001dc 
  Hwdata  integral  32    'h0xxxxxxxx
  Hwrite  integral  1     'd0        
  Htrans  integral  2     2          
  Hsize   integral  2     'd0        
  Hburst  integral  3     'h0X       
  Hrdata  integral  32    'hf3e301   
-------------------------------------
No of data monitored =           5
Size of the queue =           1
------------------------------------------------------------------------------------------------------
Name                           Type      Size  Value                                                  
------------------------------------------------------------------------------------------------------
req                            ahb_xtn   -     @1057                                                  
  begin_time                   time      64    290                                                    
  end_time                     time      64    290                                                    
  depth                        int       32    'd2                                                    
  parent sequence (name)       string    6     t_seqh                                                 
  parent sequence (full name)  string    55    uvm_test_top.ahb_apb_env.ahb_top.agt[0].ahb_seqr.t_seqh
  sequencer                    string    48    uvm_test_top.ahb_apb_env.ahb_top.agt[0].ahb_seqr       
  Haddr                        integral  32    'h8c0001de                                             
  Hwdata                       integral  32    'hc2ff9f5d                                             
  Hwrite                       integral  1     'd0                                                    
  Htrans                       integral  2     3                                                      
  Hsize                        integral  2     'd0                                                    
  Hburst                       integral  3     'h1                                                    
  Hrdata                       integral  32    'h0xxxxxxxx                                            
------------------------------------------------------------------------------------------------------
--------------------------------------
Name       Type      Size  Value      
--------------------------------------
xtn        apb_xtn   -     @1069      
  Paddr    integral  32    'h8c0001dc 
  Penable  integral  1     'dX        
  Pwrite   integral  1     'd0        
  Pselx    integral  4     8          
  Prdata   integral  32    'hf3e301   
  Pwdata   integral  32    'h0xxxxxxxx
--------------------------------------
UVM_INFO ../apb_agent_top/apb_monitor.sv(72) @ 310: uvm_test_top.ahb_apb_env.apb_top.agt[0].apb_mon [apb_monitor] Displaying apb_monitor data
Address compared Successfully
HADDR=8c0001dc, PADDR=8c0001dc
Data compared Successfully
HDATA=00000001, PDATA=00000001
Data verified =           5
No of packets driven = 7
-------------------------------------
Name      Type      Size  Value      
-------------------------------------
xtn       ahb_xtn   -     @1073      
  Haddr   integral  32    'h8c0001dd 
  Hwdata  integral  32    'h0xxxxxxxx
  Hwrite  integral  1     'd0        
  Htrans  integral  2     3          
  Hsize   integral  2     'd0        
  Hburst  integral  3     'h0X       
  Hrdata  integral  32    'hf1       
-------------------------------------
No of data monitored =           6
Size of the queue =           1
------------------------------------------------------------------------------------------------------
Name                           Type      Size  Value                                                  
------------------------------------------------------------------------------------------------------
req                            ahb_xtn   -     @1057                                                  
  begin_time                   time      64    330                                                    
  end_time                     time      64    330                                                    
  depth                        int       32    'd2                                                    
  parent sequence (name)       string    6     t_seqh                                                 
  parent sequence (full name)  string    55    uvm_test_top.ahb_apb_env.ahb_top.agt[0].ahb_seqr.t_seqh
  sequencer                    string    48    uvm_test_top.ahb_apb_env.ahb_top.agt[0].ahb_seqr       
  Haddr                        integral  32    'h8c0001df                                             
  Hwdata                       integral  32    'h186328fb                                             
  Hwrite                       integral  1     'd0                                                    
  Htrans                       integral  2     3                                                      
  Hsize                        integral  2     'd0                                                    
  Hburst                       integral  3     'h1                                                    
  Hrdata                       integral  32    'h0xxxxxxxx                                            
------------------------------------------------------------------------------------------------------
--------------------------------------
Name       Type      Size  Value      
--------------------------------------
xtn        apb_xtn   -     @1077      
  Paddr    integral  32    'h8c0001dd 
  Penable  integral  1     'dX        
  Pwrite   integral  1     'd0        
  Pselx    integral  4     8          
  Prdata   integral  32    'h3b23f176 
  Pwdata   integral  32    'h0xxxxxxxx
--------------------------------------
UVM_INFO ../apb_agent_top/apb_monitor.sv(72) @ 350: uvm_test_top.ahb_apb_env.apb_top.agt[0].apb_mon [apb_monitor] Displaying apb_monitor data
Address compared Successfully
HADDR=8c0001dd, PADDR=8c0001dd
Data compared Successfully
HDATA=000000f1, PDATA=000000f1
Data verified =           6
No of packets driven = 8
-------------------------------------
Name      Type      Size  Value      
-------------------------------------
xtn       ahb_xtn   -     @1081      
  Haddr   integral  32    'h8c0001de 
  Hwdata  integral  32    'h0xxxxxxxx
  Hwrite  integral  1     'd0        
  Htrans  integral  2     3          
  Hsize   integral  2     'd0        
  Hburst  integral  3     'h0X       
  Hrdata  integral  32    'hd4       
-------------------------------------
No of data monitored =           7
Size of the queue =           1
------------------------------------------------------------------------------------------------------
Name                           Type      Size  Value                                                  
------------------------------------------------------------------------------------------------------
req                            ahb_xtn   -     @1093                                                  
  begin_time                   time      64    370                                                    
  depth                        int       32    'd2                                                    
  parent sequence (name)       string    6     t_seqh                                                 
  parent sequence (full name)  string    55    uvm_test_top.ahb_apb_env.ahb_top.agt[0].ahb_seqr.t_seqh
  sequencer                    string    48    uvm_test_top.ahb_apb_env.ahb_top.agt[0].ahb_seqr       
  Haddr                        integral  32    'h8c000358                                             
  Hwdata                       integral  32    'h95856fe5                                             
  Hwrite                       integral  1     'd0                                                    
  Htrans                       integral  2     2                                                      
  Hsize                        integral  2     2                                                      
  Hburst                       integral  3     'h7                                                    
  Hrdata                       integral  32    'h0xxxxxxxx                                            
------------------------------------------------------------------------------------------------------
--------------------------------------
Name       Type      Size  Value      
--------------------------------------
xtn        apb_xtn   -     @1085      
  Paddr    integral  32    'h8c0001de 
  Penable  integral  1     'dX        
  Pwrite   integral  1     'd0        
  Pselx    integral  4     8          
  Prdata   integral  32    'h76d457ed 
  Pwdata   integral  32    'h0xxxxxxxx
--------------------------------------
UVM_INFO ../apb_agent_top/apb_monitor.sv(72) @ 390: uvm_test_top.ahb_apb_env.apb_top.agt[0].apb_mon [apb_monitor] Displaying apb_monitor data
Address compared Successfully
HADDR=8c0001de, PADDR=8c0001de
Data compared Successfully
HDATA=000000d4, PDATA=000000d4
Data verified =           7
No of packets driven = 9
-------------------------------------
Name      Type      Size  Value      
-------------------------------------
xtn       ahb_xtn   -     @1089      
  Haddr   integral  32    'h8c0001df 
  Hwdata  integral  32    'h0xxxxxxxx
  Hwrite  integral  1     'd0        
  Htrans  integral  2     3          
  Hsize   integral  2     'd0        
  Hburst  integral  3     'h0X       
  Hrdata  integral  32    'h7c       
-------------------------------------
No of data monitored =           8
Size of the queue =           1
------------------------------------------------------------------------------------------------------
Name                           Type      Size  Value                                                  
------------------------------------------------------------------------------------------------------
req                            ahb_xtn   -     @1093                                                  
  begin_time                   time      64    410                                                    
  end_time                     time      64    410                                                    
  depth                        int       32    'd2                                                    
  parent sequence (name)       string    6     t_seqh                                                 
  parent sequence (full name)  string    55    uvm_test_top.ahb_apb_env.ahb_top.agt[0].ahb_seqr.t_seqh
  sequencer                    string    48    uvm_test_top.ahb_apb_env.ahb_top.agt[0].ahb_seqr       
  Haddr                        integral  32    'h8c00035c                                             
  Hwdata                       integral  32    'h8e2ab18                                              
  Hwrite                       integral  1     'd0                                                    
  Htrans                       integral  2     3                                                      
  Hsize                        integral  2     2                                                      
  Hburst                       integral  3     'h7                                                    
  Hrdata                       integral  32    'h0xxxxxxxx                                            
------------------------------------------------------------------------------------------------------
--------------------------------------
Name       Type      Size  Value      
--------------------------------------
xtn        apb_xtn   -     @1097      
  Paddr    integral  32    'h8c0001df 
  Penable  integral  1     'dX        
  Pwrite   integral  1     'd0        
  Pselx    integral  4     8          
  Prdata   integral  32    'h7cfde9f9 
  Pwdata   integral  32    'h0xxxxxxxx
--------------------------------------
UVM_INFO ../apb_agent_top/apb_monitor.sv(72) @ 430: uvm_test_top.ahb_apb_env.apb_top.agt[0].apb_mon [apb_monitor] Displaying apb_monitor data
Address compared Successfully
HADDR=8c0001df, PADDR=8c0001df
Data compared Successfully
HDATA=0000007c, PDATA=0000007c
Data verified =           8
No of packets driven = 10
-------------------------------------
Name      Type      Size  Value      
-------------------------------------
xtn       ahb_xtn   -     @1101      
  Haddr   integral  32    'h8c000358 
  Hwdata  integral  32    'h0xxxxxxxx
  Hwrite  integral  1     'd0        
  Htrans  integral  2     2          
  Hsize   integral  2     2          
  Hburst  integral  3     'h0X       
  Hrdata  integral  32    'hc5       
-------------------------------------
No of data monitored =           9
Size of the queue =           1
------------------------------------------------------------------------------------------------------
Name                           Type      Size  Value                                                  
------------------------------------------------------------------------------------------------------
req                            ahb_xtn   -     @1093                                                  
  begin_time                   time      64    450                                                    
  end_time                     time      64    450                                                    
  depth                        int       32    'd2                                                    
  parent sequence (name)       string    6     t_seqh                                                 
  parent sequence (full name)  string    55    uvm_test_top.ahb_apb_env.ahb_top.agt[0].ahb_seqr.t_seqh
  sequencer                    string    48    uvm_test_top.ahb_apb_env.ahb_top.agt[0].ahb_seqr       
  Haddr                        integral  32    'h8c000360                                             
  Hwdata                       integral  32    'hba3d56de                                             
  Hwrite                       integral  1     'd0                                                    
  Htrans                       integral  2     3                                                      
  Hsize                        integral  2     2                                                      
  Hburst                       integral  3     'h7                                                    
  Hrdata                       integral  32    'h0xxxxxxxx                                            
------------------------------------------------------------------------------------------------------
--------------------------------------
Name       Type      Size  Value      
--------------------------------------
xtn        apb_xtn   -     @1105      
  Paddr    integral  32    'h8c000358 
  Penable  integral  1     'dX        
  Pwrite   integral  1     'd0        
  Pselx    integral  4     8          
  Prdata   integral  32    'he2f784c5 
  Pwdata   integral  32    'h0xxxxxxxx
--------------------------------------
UVM_INFO ../apb_agent_top/apb_monitor.sv(72) @ 470: uvm_test_top.ahb_apb_env.apb_top.agt[0].apb_mon [apb_monitor] Displaying apb_monitor data
Address compared Successfully
HADDR=8c000358, PADDR=8c000358
Data not compared Successfully
HDATA=000000c5, PDATA=e2f784c5
Data verified =           9
No of packets driven = 11
-------------------------------------
Name      Type      Size  Value      
-------------------------------------
xtn       ahb_xtn   -     @1109      
  Haddr   integral  32    'h8c00035c 
  Hwdata  integral  32    'h0xxxxxxxx
  Hwrite  integral  1     'd0        
  Htrans  integral  2     3          
  Hsize   integral  2     2          
  Hburst  integral  3     'h0X       
  Hrdata  integral  32    'h72aff7e5 
-------------------------------------
No of data monitored =          10
Size of the queue =           1
------------------------------------------------------------------------------------------------------
Name                           Type      Size  Value                                                  
------------------------------------------------------------------------------------------------------
req                            ahb_xtn   -     @1093                                                  
  begin_time                   time      64    490                                                    
  end_time                     time      64    490                                                    
  depth                        int       32    'd2                                                    
  parent sequence (name)       string    6     t_seqh                                                 
  parent sequence (full name)  string    55    uvm_test_top.ahb_apb_env.ahb_top.agt[0].ahb_seqr.t_seqh
  sequencer                    string    48    uvm_test_top.ahb_apb_env.ahb_top.agt[0].ahb_seqr       
  Haddr                        integral  32    'h8c000364                                             
  Hwdata                       integral  32    'ha1f14591                                             
  Hwrite                       integral  1     'd0                                                    
  Htrans                       integral  2     3                                                      
  Hsize                        integral  2     2                                                      
  Hburst                       integral  3     'h7                                                    
  Hrdata                       integral  32    'h0xxxxxxxx                                            
------------------------------------------------------------------------------------------------------
--------------------------------------
Name       Type      Size  Value      
--------------------------------------
xtn        apb_xtn   -     @1113      
  Paddr    integral  32    'h8c00035c 
  Penable  integral  1     'dX        
  Pwrite   integral  1     'd0        
  Pselx    integral  4     8          
  Prdata   integral  32    'h72aff7e5 
  Pwdata   integral  32    'h0xxxxxxxx
--------------------------------------
UVM_INFO ../apb_agent_top/apb_monitor.sv(72) @ 510: uvm_test_top.ahb_apb_env.apb_top.agt[0].apb_mon [apb_monitor] Displaying apb_monitor data
Address compared Successfully
HADDR=8c00035c, PADDR=8c00035c
Data compared Successfully
HDATA=72aff7e5, PDATA=72aff7e5
Data verified =          10
No of packets driven = 12
-------------------------------------
Name      Type      Size  Value      
-------------------------------------
xtn       ahb_xtn   -     @1117      
  Haddr   integral  32    'h8c000360 
  Hwdata  integral  32    'h0xxxxxxxx
  Hwrite  integral  1     'd0        
  Htrans  integral  2     3          
  Hsize   integral  2     2          
  Hburst  integral  3     'h0X       
  Hrdata  integral  32    'h8932d612 
-------------------------------------
No of data monitored =          11
Size of the queue =           1
------------------------------------------------------------------------------------------------------
Name                           Type      Size  Value                                                  
------------------------------------------------------------------------------------------------------
req                            ahb_xtn   -     @1093                                                  
  begin_time                   time      64    530                                                    
  end_time                     time      64    530                                                    
  depth                        int       32    'd2                                                    
  parent sequence (name)       string    6     t_seqh                                                 
  parent sequence (full name)  string    55    uvm_test_top.ahb_apb_env.ahb_top.agt[0].ahb_seqr.t_seqh
  sequencer                    string    48    uvm_test_top.ahb_apb_env.ahb_top.agt[0].ahb_seqr       
  Haddr                        integral  32    'h8c000368                                             
  Hwdata                       integral  32    'h80906452                                             
  Hwrite                       integral  1     'd0                                                    
  Htrans                       integral  2     3                                                      
  Hsize                        integral  2     2                                                      
  Hburst                       integral  3     'h7                                                    
  Hrdata                       integral  32    'h0xxxxxxxx                                            
------------------------------------------------------------------------------------------------------
--------------------------------------
Name       Type      Size  Value      
--------------------------------------
xtn        apb_xtn   -     @1121      
  Paddr    integral  32    'h8c000360 
  Penable  integral  1     'dX        
  Pwrite   integral  1     'd0        
  Pselx    integral  4     8          
  Prdata   integral  32    'h8932d612 
  Pwdata   integral  32    'h0xxxxxxxx
--------------------------------------
UVM_INFO ../apb_agent_top/apb_monitor.sv(72) @ 550: uvm_test_top.ahb_apb_env.apb_top.agt[0].apb_mon [apb_monitor] Displaying apb_monitor data
Address compared Successfully
HADDR=8c000360, PADDR=8c000360
Data compared Successfully
HDATA=8932d612, PDATA=8932d612
Data verified =          11
No of packets driven = 13
-------------------------------------
Name      Type      Size  Value      
-------------------------------------
xtn       ahb_xtn   -     @1125      
  Haddr   integral  32    'h8c000364 
  Hwdata  integral  32    'h0xxxxxxxx
  Hwrite  integral  1     'd0        
  Htrans  integral  2     3          
  Hsize   integral  2     2          
  Hburst  integral  3     'h0X       
  Hrdata  integral  32    'h793069f2 
-------------------------------------
No of data monitored =          12
Size of the queue =           1
------------------------------------------------------------------------------------------------------
Name                           Type      Size  Value                                                  
------------------------------------------------------------------------------------------------------
req                            ahb_xtn   -     @1093                                                  
  begin_time                   time      64    570                                                    
  end_time                     time      64    570                                                    
  depth                        int       32    'd2                                                    
  parent sequence (name)       string    6     t_seqh                                                 
  parent sequence (full name)  string    55    uvm_test_top.ahb_apb_env.ahb_top.agt[0].ahb_seqr.t_seqh
  sequencer                    string    48    uvm_test_top.ahb_apb_env.ahb_top.agt[0].ahb_seqr       
  Haddr                        integral  32    'h8c00036c                                             
  Hwdata                       integral  32    'hfe203036                                             
  Hwrite                       integral  1     'd0                                                    
  Htrans                       integral  2     3                                                      
  Hsize                        integral  2     2                                                      
  Hburst                       integral  3     'h7                                                    
  Hrdata                       integral  32    'h0xxxxxxxx                                            
------------------------------------------------------------------------------------------------------
--------------------------------------
Name       Type      Size  Value      
--------------------------------------
xtn        apb_xtn   -     @1129      
  Paddr    integral  32    'h8c000364 
  Penable  integral  1     'dX        
  Pwrite   integral  1     'd0        
  Pselx    integral  4     8          
  Prdata   integral  32    'h793069f2 
  Pwdata   integral  32    'h0xxxxxxxx
--------------------------------------
UVM_INFO ../apb_agent_top/apb_monitor.sv(72) @ 590: uvm_test_top.ahb_apb_env.apb_top.agt[0].apb_mon [apb_monitor] Displaying apb_monitor data
Address compared Successfully
HADDR=8c000364, PADDR=8c000364
Data compared Successfully
HDATA=793069f2, PDATA=793069f2
Data verified =          12
No of packets driven = 14
-------------------------------------
Name      Type      Size  Value      
-------------------------------------
xtn       ahb_xtn   -     @1133      
  Haddr   integral  32    'h8c000368 
  Hwdata  integral  32    'h0xxxxxxxx
  Hwrite  integral  1     'd0        
  Htrans  integral  2     3          
  Hsize   integral  2     2          
  Hburst  integral  3     'h0X       
  Hrdata  integral  32    'hf4007ae8 
-------------------------------------
No of data monitored =          13
Size of the queue =           1
------------------------------------------------------------------------------------------------------
Name                           Type      Size  Value                                                  
------------------------------------------------------------------------------------------------------
req                            ahb_xtn   -     @1093                                                  
  begin_time                   time      64    610                                                    
  end_time                     time      64    610                                                    
  depth                        int       32    'd2                                                    
  parent sequence (name)       string    6     t_seqh                                                 
  parent sequence (full name)  string    55    uvm_test_top.ahb_apb_env.ahb_top.agt[0].ahb_seqr.t_seqh
  sequencer                    string    48    uvm_test_top.ahb_apb_env.ahb_top.agt[0].ahb_seqr       
  Haddr                        integral  32    'h8c000370                                             
  Hwdata                       integral  32    'ha618ecaa                                             
  Hwrite                       integral  1     'd0                                                    
  Htrans                       integral  2     3                                                      
  Hsize                        integral  2     2                                                      
  Hburst                       integral  3     'h7                                                    
  Hrdata                       integral  32    'h0xxxxxxxx                                            
------------------------------------------------------------------------------------------------------
--------------------------------------
Name       Type      Size  Value      
--------------------------------------
xtn        apb_xtn   -     @1137      
  Paddr    integral  32    'h8c000368 
  Penable  integral  1     'dX        
  Pwrite   integral  1     'd0        
  Pselx    integral  4     8          
  Prdata   integral  32    'hf4007ae8 
  Pwdata   integral  32    'h0xxxxxxxx
--------------------------------------
UVM_INFO ../apb_agent_top/apb_monitor.sv(72) @ 630: uvm_test_top.ahb_apb_env.apb_top.agt[0].apb_mon [apb_monitor] Displaying apb_monitor data
Address compared Successfully
HADDR=8c000368, PADDR=8c000368
Data compared Successfully
HDATA=f4007ae8, PDATA=f4007ae8
Data verified =          13
No of packets driven = 15
-------------------------------------
Name      Type      Size  Value      
-------------------------------------
xtn       ahb_xtn   -     @1141      
  Haddr   integral  32    'h8c00036c 
  Hwdata  integral  32    'h0xxxxxxxx
  Hwrite  integral  1     'd0        
  Htrans  integral  2     3          
  Hsize   integral  2     2          
  Hburst  integral  3     'h0X       
  Hrdata  integral  32    'h2e58495c 
-------------------------------------
No of data monitored =          14
Size of the queue =           1
------------------------------------------------------------------------------------------------------
Name                           Type      Size  Value                                                  
------------------------------------------------------------------------------------------------------
req                            ahb_xtn   -     @1093                                                  
  begin_time                   time      64    650                                                    
  end_time                     time      64    650                                                    
  depth                        int       32    'd2                                                    
  parent sequence (name)       string    6     t_seqh                                                 
  parent sequence (full name)  string    55    uvm_test_top.ahb_apb_env.ahb_top.agt[0].ahb_seqr.t_seqh
  sequencer                    string    48    uvm_test_top.ahb_apb_env.ahb_top.agt[0].ahb_seqr       
  Haddr                        integral  32    'h8c000374                                             
  Hwdata                       integral  32    'h163fd127                                             
  Hwrite                       integral  1     'd0                                                    
  Htrans                       integral  2     3                                                      
  Hsize                        integral  2     2                                                      
  Hburst                       integral  3     'h7                                                    
  Hrdata                       integral  32    'h0xxxxxxxx                                            
------------------------------------------------------------------------------------------------------
--------------------------------------
Name       Type      Size  Value      
--------------------------------------
xtn        apb_xtn   -     @1145      
  Paddr    integral  32    'h8c00036c 
  Penable  integral  1     'dX        
  Pwrite   integral  1     'd0        
  Pselx    integral  4     8          
  Prdata   integral  32    'h2e58495c 
  Pwdata   integral  32    'h0xxxxxxxx
--------------------------------------
UVM_INFO ../apb_agent_top/apb_monitor.sv(72) @ 670: uvm_test_top.ahb_apb_env.apb_top.agt[0].apb_mon [apb_monitor] Displaying apb_monitor data
Address compared Successfully
HADDR=8c00036c, PADDR=8c00036c
Data compared Successfully
HDATA=2e58495c, PDATA=2e58495c
Data verified =          14
No of packets driven = 16
-------------------------------------
Name      Type      Size  Value      
-------------------------------------
xtn       ahb_xtn   -     @1149      
  Haddr   integral  32    'h8c000370 
  Hwdata  integral  32    'h0xxxxxxxx
  Hwrite  integral  1     'd0        
  Htrans  integral  2     3          
  Hsize   integral  2     2          
  Hburst  integral  3     'h0X       
  Hrdata  integral  32    'h96ab582d 
-------------------------------------
No of data monitored =          15
Size of the queue =           1
------------------------------------------------------------------------------------------------------
Name                           Type      Size  Value                                                  
------------------------------------------------------------------------------------------------------
req                            ahb_xtn   -     @1093                                                  
  begin_time                   time      64    690                                                    
  end_time                     time      64    690                                                    
  depth                        int       32    'd2                                                    
  parent sequence (name)       string    6     t_seqh                                                 
  parent sequence (full name)  string    55    uvm_test_top.ahb_apb_env.ahb_top.agt[0].ahb_seqr.t_seqh
  sequencer                    string    48    uvm_test_top.ahb_apb_env.ahb_top.agt[0].ahb_seqr       
  Haddr                        integral  32    'h8c000378                                             
  Hwdata                       integral  32    'h34d917e6                                             
  Hwrite                       integral  1     'd0                                                    
  Htrans                       integral  2     3                                                      
  Hsize                        integral  2     2                                                      
  Hburst                       integral  3     'h7                                                    
  Hrdata                       integral  32    'h0xxxxxxxx                                            
------------------------------------------------------------------------------------------------------
--------------------------------------
Name       Type      Size  Value      
--------------------------------------
xtn        apb_xtn   -     @1153      
  Paddr    integral  32    'h8c000370 
  Penable  integral  1     'dX        
  Pwrite   integral  1     'd0        
  Pselx    integral  4     8          
  Prdata   integral  32    'h96ab582d 
  Pwdata   integral  32    'h0xxxxxxxx
--------------------------------------
UVM_INFO ../apb_agent_top/apb_monitor.sv(72) @ 710: uvm_test_top.ahb_apb_env.apb_top.agt[0].apb_mon [apb_monitor] Displaying apb_monitor data
Address compared Successfully
HADDR=8c000370, PADDR=8c000370
Data compared Successfully
HDATA=96ab582d, PDATA=96ab582d
Data verified =          15
No of packets driven = 17
-------------------------------------
Name      Type      Size  Value      
-------------------------------------
xtn       ahb_xtn   -     @1157      
  Haddr   integral  32    'h8c000374 
  Hwdata  integral  32    'h0xxxxxxxx
  Hwrite  integral  1     'd0        
  Htrans  integral  2     3          
  Hsize   integral  2     2          
  Hburst  integral  3     'h0X       
  Hrdata  integral  32    'hb1ef6263 
-------------------------------------
No of data monitored =          16
Size of the queue =           1
------------------------------------------------------------------------------------------------------
Name                           Type      Size  Value                                                  
------------------------------------------------------------------------------------------------------
req                            ahb_xtn   -     @1093                                                  
  begin_time                   time      64    730                                                    
  end_time                     time      64    730                                                    
  depth                        int       32    'd2                                                    
  parent sequence (name)       string    6     t_seqh                                                 
  parent sequence (full name)  string    55    uvm_test_top.ahb_apb_env.ahb_top.agt[0].ahb_seqr.t_seqh
  sequencer                    string    48    uvm_test_top.ahb_apb_env.ahb_top.agt[0].ahb_seqr       
  Haddr                        integral  32    'h8c00037c                                             
  Hwdata                       integral  32    'h8401ff36                                             
  Hwrite                       integral  1     'd0                                                    
  Htrans                       integral  2     3                                                      
  Hsize                        integral  2     2                                                      
  Hburst                       integral  3     'h7                                                    
  Hrdata                       integral  32    'h0xxxxxxxx                                            
------------------------------------------------------------------------------------------------------
--------------------------------------
Name       Type      Size  Value      
--------------------------------------
xtn        apb_xtn   -     @1161      
  Paddr    integral  32    'h8c000374 
  Penable  integral  1     'dX        
  Pwrite   integral  1     'd0        
  Pselx    integral  4     8          
  Prdata   integral  32    'hb1ef6263 
  Pwdata   integral  32    'h0xxxxxxxx
--------------------------------------
UVM_INFO ../apb_agent_top/apb_monitor.sv(72) @ 750: uvm_test_top.ahb_apb_env.apb_top.agt[0].apb_mon [apb_monitor] Displaying apb_monitor data
Address compared Successfully
HADDR=8c000374, PADDR=8c000374
Data compared Successfully
HDATA=b1ef6263, PDATA=b1ef6263
Data verified =          16
No of packets driven = 18
-------------------------------------
Name      Type      Size  Value      
-------------------------------------
xtn       ahb_xtn   -     @1165      
  Haddr   integral  32    'h8c000378 
  Hwdata  integral  32    'h0xxxxxxxx
  Hwrite  integral  1     'd0        
  Htrans  integral  2     3          
  Hsize   integral  2     2          
  Hburst  integral  3     'h0X       
  Hrdata  integral  32    'hc03b2280 
-------------------------------------
No of data monitored =          17
Size of the queue =           1
------------------------------------------------------------------------------------------------------
Name                           Type      Size  Value                                                  
------------------------------------------------------------------------------------------------------
req                            ahb_xtn   -     @1093                                                  
  begin_time                   time      64    770                                                    
  end_time                     time      64    770                                                    
  depth                        int       32    'd2                                                    
  parent sequence (name)       string    6     t_seqh                                                 
  parent sequence (full name)  string    55    uvm_test_top.ahb_apb_env.ahb_top.agt[0].ahb_seqr.t_seqh
  sequencer                    string    48    uvm_test_top.ahb_apb_env.ahb_top.agt[0].ahb_seqr       
  Haddr                        integral  32    'h8c000380                                             
  Hwdata                       integral  32    'hc3ae691d                                             
  Hwrite                       integral  1     'd0                                                    
  Htrans                       integral  2     3                                                      
  Hsize                        integral  2     2                                                      
  Hburst                       integral  3     'h7                                                    
  Hrdata                       integral  32    'h0xxxxxxxx                                            
------------------------------------------------------------------------------------------------------
--------------------------------------
Name       Type      Size  Value      
--------------------------------------
xtn        apb_xtn   -     @1169      
  Paddr    integral  32    'h8c000378 
  Penable  integral  1     'dX        
  Pwrite   integral  1     'd0        
  Pselx    integral  4     8          
  Prdata   integral  32    'hc03b2280 
  Pwdata   integral  32    'h0xxxxxxxx
--------------------------------------
UVM_INFO ../apb_agent_top/apb_monitor.sv(72) @ 790: uvm_test_top.ahb_apb_env.apb_top.agt[0].apb_mon [apb_monitor] Displaying apb_monitor data
Address compared Successfully
HADDR=8c000378, PADDR=8c000378
Data compared Successfully
HDATA=c03b2280, PDATA=c03b2280
Data verified =          17
No of packets driven = 19
-------------------------------------
Name      Type      Size  Value      
-------------------------------------
xtn       ahb_xtn   -     @1173      
  Haddr   integral  32    'h8c00037c 
  Hwdata  integral  32    'h0xxxxxxxx
  Hwrite  integral  1     'd0        
  Htrans  integral  2     3          
  Hsize   integral  2     2          
  Hburst  integral  3     'h0X       
  Hrdata  integral  32    'h557845aa 
-------------------------------------
No of data monitored =          18
Size of the queue =           1
------------------------------------------------------------------------------------------------------
Name                           Type      Size  Value                                                  
------------------------------------------------------------------------------------------------------
req                            ahb_xtn   -     @1093                                                  
  begin_time                   time      64    810                                                    
  end_time                     time      64    810                                                    
  depth                        int       32    'd2                                                    
  parent sequence (name)       string    6     t_seqh                                                 
  parent sequence (full name)  string    55    uvm_test_top.ahb_apb_env.ahb_top.agt[0].ahb_seqr.t_seqh
  sequencer                    string    48    uvm_test_top.ahb_apb_env.ahb_top.agt[0].ahb_seqr       
  Haddr                        integral  32    'h8c000384                                             
  Hwdata                       integral  32    'h6546540                                              
  Hwrite                       integral  1     'd0                                                    
  Htrans                       integral  2     3                                                      
  Hsize                        integral  2     2                                                      
  Hburst                       integral  3     'h7                                                    
  Hrdata                       integral  32    'h0xxxxxxxx                                            
------------------------------------------------------------------------------------------------------
--------------------------------------
Name       Type      Size  Value      
--------------------------------------
xtn        apb_xtn   -     @1177      
  Paddr    integral  32    'h8c00037c 
  Penable  integral  1     'dX        
  Pwrite   integral  1     'd0        
  Pselx    integral  4     8          
  Prdata   integral  32    'h557845aa 
  Pwdata   integral  32    'h0xxxxxxxx
--------------------------------------
UVM_INFO ../apb_agent_top/apb_monitor.sv(72) @ 830: uvm_test_top.ahb_apb_env.apb_top.agt[0].apb_mon [apb_monitor] Displaying apb_monitor data
Address compared Successfully
HADDR=8c00037c, PADDR=8c00037c
Data compared Successfully
HDATA=557845aa, PDATA=557845aa
Data verified =          18
No of packets driven = 20
-------------------------------------
Name      Type      Size  Value      
-------------------------------------
xtn       ahb_xtn   -     @1181      
  Haddr   integral  32    'h8c000380 
  Hwdata  integral  32    'h0xxxxxxxx
  Hwrite  integral  1     'd0        
  Htrans  integral  2     3          
  Hsize   integral  2     2          
  Hburst  integral  3     'h0X       
  Hrdata  integral  32    'hcb203e96 
-------------------------------------
No of data monitored =          19
Size of the queue =           1
------------------------------------------------------------------------------------------------------
Name                           Type      Size  Value                                                  
------------------------------------------------------------------------------------------------------
req                            ahb_xtn   -     @1093                                                  
  begin_time                   time      64    850                                                    
  end_time                     time      64    850                                                    
  depth                        int       32    'd2                                                    
  parent sequence (name)       string    6     t_seqh                                                 
  parent sequence (full name)  string    55    uvm_test_top.ahb_apb_env.ahb_top.agt[0].ahb_seqr.t_seqh
  sequencer                    string    48    uvm_test_top.ahb_apb_env.ahb_top.agt[0].ahb_seqr       
  Haddr                        integral  32    'h8c000388                                             
  Hwdata                       integral  32    'h238483d7                                             
  Hwrite                       integral  1     'd0                                                    
  Htrans                       integral  2     3                                                      
  Hsize                        integral  2     2                                                      
  Hburst                       integral  3     'h7                                                    
  Hrdata                       integral  32    'h0xxxxxxxx                                            
------------------------------------------------------------------------------------------------------
--------------------------------------
Name       Type      Size  Value      
--------------------------------------
xtn        apb_xtn   -     @1185      
  Paddr    integral  32    'h8c000380 
  Penable  integral  1     'dX        
  Pwrite   integral  1     'd0        
  Pselx    integral  4     8          
  Prdata   integral  32    'hcb203e96 
  Pwdata   integral  32    'h0xxxxxxxx
--------------------------------------
UVM_INFO ../apb_agent_top/apb_monitor.sv(72) @ 870: uvm_test_top.ahb_apb_env.apb_top.agt[0].apb_mon [apb_monitor] Displaying apb_monitor data
Address compared Successfully
HADDR=8c000380, PADDR=8c000380
Data compared Successfully
HDATA=cb203e96, PDATA=cb203e96
Data verified =          19
No of packets driven = 21
-------------------------------------
Name      Type      Size  Value      
-------------------------------------
xtn       ahb_xtn   -     @1189      
  Haddr   integral  32    'h8c000384 
  Hwdata  integral  32    'h0xxxxxxxx
  Hwrite  integral  1     'd0        
  Htrans  integral  2     3          
  Hsize   integral  2     2          
  Hburst  integral  3     'h0X       
  Hrdata  integral  32    'h86bc380d 
-------------------------------------
No of data monitored =          20
Size of the queue =           1
------------------------------------------------------------------------------------------------------
Name                           Type      Size  Value                                                  
------------------------------------------------------------------------------------------------------
req                            ahb_xtn   -     @1093                                                  
  begin_time                   time      64    890                                                    
  end_time                     time      64    890                                                    
  depth                        int       32    'd2                                                    
  parent sequence (name)       string    6     t_seqh                                                 
  parent sequence (full name)  string    55    uvm_test_top.ahb_apb_env.ahb_top.agt[0].ahb_seqr.t_seqh
  sequencer                    string    48    uvm_test_top.ahb_apb_env.ahb_top.agt[0].ahb_seqr       
  Haddr                        integral  32    'h8c00038c                                             
  Hwdata                       integral  32    'h74798d10                                             
  Hwrite                       integral  1     'd0                                                    
  Htrans                       integral  2     3                                                      
  Hsize                        integral  2     2                                                      
  Hburst                       integral  3     'h7                                                    
  Hrdata                       integral  32    'h0xxxxxxxx                                            
------------------------------------------------------------------------------------------------------
--------------------------------------
Name       Type      Size  Value      
--------------------------------------
xtn        apb_xtn   -     @1193      
  Paddr    integral  32    'h8c000384 
  Penable  integral  1     'dX        
  Pwrite   integral  1     'd0        
  Pselx    integral  4     8          
  Prdata   integral  32    'h86bc380d 
  Pwdata   integral  32    'h0xxxxxxxx
--------------------------------------
UVM_INFO ../apb_agent_top/apb_monitor.sv(72) @ 910: uvm_test_top.ahb_apb_env.apb_top.agt[0].apb_mon [apb_monitor] Displaying apb_monitor data
Address compared Successfully
HADDR=8c000384, PADDR=8c000384
Data compared Successfully
HDATA=86bc380d, PDATA=86bc380d
Data verified =          20
No of packets driven = 22
-------------------------------------
Name      Type      Size  Value      
-------------------------------------
xtn       ahb_xtn   -     @1197      
  Haddr   integral  32    'h8c000388 
  Hwdata  integral  32    'h0xxxxxxxx
  Hwrite  integral  1     'd0        
  Htrans  integral  2     3          
  Hsize   integral  2     2          
  Hburst  integral  3     'h0X       
  Hrdata  integral  32    'h359fdd6b 
-------------------------------------
No of data monitored =          21
Size of the queue =           1
------------------------------------------------------------------------------------------------------
Name                           Type      Size  Value                                                  
------------------------------------------------------------------------------------------------------
req                            ahb_xtn   -     @1093                                                  
  begin_time                   time      64    930                                                    
  end_time                     time      64    930                                                    
  depth                        int       32    'd2                                                    
  parent sequence (name)       string    6     t_seqh                                                 
  parent sequence (full name)  string    55    uvm_test_top.ahb_apb_env.ahb_top.agt[0].ahb_seqr.t_seqh
  sequencer                    string    48    uvm_test_top.ahb_apb_env.ahb_top.agt[0].ahb_seqr       
  Haddr                        integral  32    'h8c000390                                             
  Hwdata                       integral  32    'he6baff41                                             
  Hwrite                       integral  1     'd0                                                    
  Htrans                       integral  2     3                                                      
  Hsize                        integral  2     2                                                      
  Hburst                       integral  3     'h7                                                    
  Hrdata                       integral  32    'h0xxxxxxxx                                            
------------------------------------------------------------------------------------------------------
--------------------------------------
Name       Type      Size  Value      
--------------------------------------
xtn        apb_xtn   -     @1201      
  Paddr    integral  32    'h8c000388 
  Penable  integral  1     'dX        
  Pwrite   integral  1     'd0        
  Pselx    integral  4     8          
  Prdata   integral  32    'h359fdd6b 
  Pwdata   integral  32    'h0xxxxxxxx
--------------------------------------
UVM_INFO ../apb_agent_top/apb_monitor.sv(72) @ 950: uvm_test_top.ahb_apb_env.apb_top.agt[0].apb_mon [apb_monitor] Displaying apb_monitor data
Address compared Successfully
HADDR=8c000388, PADDR=8c000388
Data compared Successfully
HDATA=359fdd6b, PDATA=359fdd6b
Data verified =          21
No of packets driven = 23
-------------------------------------
Name      Type      Size  Value      
-------------------------------------
xtn       ahb_xtn   -     @1205      
  Haddr   integral  32    'h8c00038c 
  Hwdata  integral  32    'h0xxxxxxxx
  Hwrite  integral  1     'd0        
  Htrans  integral  2     3          
  Hsize   integral  2     2          
  Hburst  integral  3     'h0X       
  Hrdata  integral  32    'h81174a02 
-------------------------------------
No of data monitored =          22
Size of the queue =           1
------------------------------------------------------------------------------------------------------
Name                           Type      Size  Value                                                  
------------------------------------------------------------------------------------------------------
req                            ahb_xtn   -     @1093                                                  
  begin_time                   time      64    970                                                    
  end_time                     time      64    970                                                    
  depth                        int       32    'd2                                                    
  parent sequence (name)       string    6     t_seqh                                                 
  parent sequence (full name)  string    55    uvm_test_top.ahb_apb_env.ahb_top.agt[0].ahb_seqr.t_seqh
  sequencer                    string    48    uvm_test_top.ahb_apb_env.ahb_top.agt[0].ahb_seqr       
  Haddr                        integral  32    'h8c000394                                             
  Hwdata                       integral  32    'hc5752bdb                                             
  Hwrite                       integral  1     'd0                                                    
  Htrans                       integral  2     3                                                      
  Hsize                        integral  2     2                                                      
  Hburst                       integral  3     'h7                                                    
  Hrdata                       integral  32    'h0xxxxxxxx                                            
------------------------------------------------------------------------------------------------------
--------------------------------------
Name       Type      Size  Value      
--------------------------------------
xtn        apb_xtn   -     @1209      
  Paddr    integral  32    'h8c00038c 
  Penable  integral  1     'dX        
  Pwrite   integral  1     'd0        
  Pselx    integral  4     8          
  Prdata   integral  32    'h81174a02 
  Pwdata   integral  32    'h0xxxxxxxx
--------------------------------------
UVM_INFO ../apb_agent_top/apb_monitor.sv(72) @ 990: uvm_test_top.ahb_apb_env.apb_top.agt[0].apb_mon [apb_monitor] Displaying apb_monitor data
Address compared Successfully
HADDR=8c00038c, PADDR=8c00038c
Data compared Successfully
HDATA=81174a02, PDATA=81174a02
Data verified =          22
No of packets driven = 24
-------------------------------------
Name      Type      Size  Value      
-------------------------------------
xtn       ahb_xtn   -     @1213      
  Haddr   integral  32    'h8c000390 
  Hwdata  integral  32    'h0xxxxxxxx
  Hwrite  integral  1     'd0        
  Htrans  integral  2     3          
  Hsize   integral  2     2          
  Hburst  integral  3     'h0X       
  Hrdata  integral  32    'heffe91d  
-------------------------------------
No of data monitored =          23
Size of the queue =           1
------------------------------------------------------------------------------------------------------
Name                           Type      Size  Value                                                  
------------------------------------------------------------------------------------------------------
req                            ahb_xtn   -     @1225                                                  
  begin_time                   time      64    1010                                                   
  depth                        int       32    'd2                                                    
  parent sequence (name)       string    6     t_seqh                                                 
  parent sequence (full name)  string    55    uvm_test_top.ahb_apb_env.ahb_top.agt[0].ahb_seqr.t_seqh
  sequencer                    string    48    uvm_test_top.ahb_apb_env.ahb_top.agt[0].ahb_seqr       
  Haddr                        integral  32    'h800000e4                                             
  Hwdata                       integral  32    'h3a6df409                                             
  Hwrite                       integral  1     'd0                                                    
  Htrans                       integral  2     2                                                      
  Hsize                        integral  2     2                                                      
  Hburst                       integral  3     'h1                                                    
  Hrdata                       integral  32    'h0xxxxxxxx                                            
------------------------------------------------------------------------------------------------------
--------------------------------------
Name       Type      Size  Value      
--------------------------------------
xtn        apb_xtn   -     @1217      
  Paddr    integral  32    'h8c000390 
  Penable  integral  1     'dX        
  Pwrite   integral  1     'd0        
  Pselx    integral  4     8          
  Prdata   integral  32    'heffe91d  
  Pwdata   integral  32    'h0xxxxxxxx
--------------------------------------
UVM_INFO ../apb_agent_top/apb_monitor.sv(72) @ 1030: uvm_test_top.ahb_apb_env.apb_top.agt[0].apb_mon [apb_monitor] Displaying apb_monitor data
Address compared Successfully
HADDR=8c000390, PADDR=8c000390
Data compared Successfully
HDATA=0effe91d, PDATA=0effe91d
Data verified =          23
No of packets driven = 25
-------------------------------------
Name      Type      Size  Value      
-------------------------------------
xtn       ahb_xtn   -     @1221      
  Haddr   integral  32    'h8c000394 
  Hwdata  integral  32    'h0xxxxxxxx
  Hwrite  integral  1     'd0        
  Htrans  integral  2     3          
  Hsize   integral  2     2          
  Hburst  integral  3     'h0X       
  Hrdata  integral  32    'h11844923 
-------------------------------------
No of data monitored =          24
Size of the queue =           1
------------------------------------------------------------------------------------------------------
Name                           Type      Size  Value                                                  
------------------------------------------------------------------------------------------------------
req                            ahb_xtn   -     @1225                                                  
  begin_time                   time      64    1050                                                   
  end_time                     time      64    1050                                                   
  depth                        int       32    'd2                                                    
  parent sequence (name)       string    6     t_seqh                                                 
  parent sequence (full name)  string    55    uvm_test_top.ahb_apb_env.ahb_top.agt[0].ahb_seqr.t_seqh
  sequencer                    string    48    uvm_test_top.ahb_apb_env.ahb_top.agt[0].ahb_seqr       
  Haddr                        integral  32    'h800000e8                                             
  Hwdata                       integral  32    'h5a0160a9                                             
  Hwrite                       integral  1     'd0                                                    
  Htrans                       integral  2     3                                                      
  Hsize                        integral  2     2                                                      
  Hburst                       integral  3     'h1                                                    
  Hrdata                       integral  32    'h0xxxxxxxx                                            
------------------------------------------------------------------------------------------------------
--------------------------------------
Name       Type      Size  Value      
--------------------------------------
xtn        apb_xtn   -     @1229      
  Paddr    integral  32    'h8c000394 
  Penable  integral  1     'dX        
  Pwrite   integral  1     'd0        
  Pselx    integral  4     'd1        
  Prdata   integral  32    'h11844923 
  Pwdata   integral  32    'h0xxxxxxxx
--------------------------------------
UVM_INFO ../apb_agent_top/apb_monitor.sv(72) @ 1070: uvm_test_top.ahb_apb_env.apb_top.agt[0].apb_mon [apb_monitor] Displaying apb_monitor data
Address compared Successfully
HADDR=8c000394, PADDR=8c000394
Data compared Successfully
HDATA=11844923, PDATA=11844923
Data verified =          24
No of packets driven = 26
-------------------------------------
Name      Type      Size  Value      
-------------------------------------
xtn       ahb_xtn   -     @1233      
  Haddr   integral  32    'h800000e4 
  Hwdata  integral  32    'h0xxxxxxxx
  Hwrite  integral  1     'd0        
  Htrans  integral  2     2          
  Hsize   integral  2     2          
  Hburst  integral  3     'h0X       
  Hrdata  integral  32    'he5730aca 
-------------------------------------
No of data monitored =          25
Size of the queue =           1
------------------------------------------------------------------------------------------------------
Name                           Type      Size  Value                                                  
------------------------------------------------------------------------------------------------------
req                            ahb_xtn   -     @1225                                                  
  begin_time                   time      64    1090                                                   
  end_time                     time      64    1090                                                   
  depth                        int       32    'd2                                                    
  parent sequence (name)       string    6     t_seqh                                                 
  parent sequence (full name)  string    55    uvm_test_top.ahb_apb_env.ahb_top.agt[0].ahb_seqr.t_seqh
  sequencer                    string    48    uvm_test_top.ahb_apb_env.ahb_top.agt[0].ahb_seqr       
  Haddr                        integral  32    'h800000ec                                             
  Hwdata                       integral  32    'h2fc16b26                                             
  Hwrite                       integral  1     'd0                                                    
  Htrans                       integral  2     3                                                      
  Hsize                        integral  2     2                                                      
  Hburst                       integral  3     'h1                                                    
  Hrdata                       integral  32    'h0xxxxxxxx                                            
------------------------------------------------------------------------------------------------------
--------------------------------------
Name       Type      Size  Value      
--------------------------------------
xtn        apb_xtn   -     @1237      
  Paddr    integral  32    'h800000e4 
  Penable  integral  1     'dX        
  Pwrite   integral  1     'd0        
  Pselx    integral  4     'd1        
  Prdata   integral  32    'he5730aca 
  Pwdata   integral  32    'h0xxxxxxxx
--------------------------------------
UVM_INFO ../apb_agent_top/apb_monitor.sv(72) @ 1110: uvm_test_top.ahb_apb_env.apb_top.agt[0].apb_mon [apb_monitor] Displaying apb_monitor data
Address compared Successfully
HADDR=800000e4, PADDR=800000e4
Data compared Successfully
HDATA=e5730aca, PDATA=e5730aca
Data verified =          25
No of packets driven = 27
-------------------------------------
Name      Type      Size  Value      
-------------------------------------
xtn       ahb_xtn   -     @1241      
  Haddr   integral  32    'h800000e8 
  Hwdata  integral  32    'h0xxxxxxxx
  Hwrite  integral  1     'd0        
  Htrans  integral  2     3          
  Hsize   integral  2     2          
  Hburst  integral  3     'h0X       
  Hrdata  integral  32    'h7968bdf2 
-------------------------------------
No of data monitored =          26
Size of the queue =           1
------------------------------------------------------------------------------------------------------
Name                           Type      Size  Value                                                  
------------------------------------------------------------------------------------------------------
req                            ahb_xtn   -     @1225                                                  
  begin_time                   time      64    1130                                                   
  end_time                     time      64    1130                                                   
  depth                        int       32    'd2                                                    
  parent sequence (name)       string    6     t_seqh                                                 
  parent sequence (full name)  string    55    uvm_test_top.ahb_apb_env.ahb_top.agt[0].ahb_seqr.t_seqh
  sequencer                    string    48    uvm_test_top.ahb_apb_env.ahb_top.agt[0].ahb_seqr       
  Haddr                        integral  32    'h800000f0                                             
  Hwdata                       integral  32    'hd0812a83                                             
  Hwrite                       integral  1     'd0                                                    
  Htrans                       integral  2     3                                                      
  Hsize                        integral  2     2                                                      
  Hburst                       integral  3     'h1                                                    
  Hrdata                       integral  32    'h0xxxxxxxx                                            
------------------------------------------------------------------------------------------------------
--------------------------------------
Name       Type      Size  Value      
--------------------------------------
xtn        apb_xtn   -     @1245      
  Paddr    integral  32    'h800000e8 
  Penable  integral  1     'dX        
  Pwrite   integral  1     'd0        
  Pselx    integral  4     'd1        
  Prdata   integral  32    'h7968bdf2 
  Pwdata   integral  32    'h0xxxxxxxx
--------------------------------------
UVM_INFO ../apb_agent_top/apb_monitor.sv(72) @ 1150: uvm_test_top.ahb_apb_env.apb_top.agt[0].apb_mon [apb_monitor] Displaying apb_monitor data
Address compared Successfully
HADDR=800000e8, PADDR=800000e8
Data compared Successfully
HDATA=7968bdf2, PDATA=7968bdf2
Data verified =          26
No of packets driven = 28
-------------------------------------
Name      Type      Size  Value      
-------------------------------------
xtn       ahb_xtn   -     @1249      
  Haddr   integral  32    'h800000ec 
  Hwdata  integral  32    'h0xxxxxxxx
  Hwrite  integral  1     'd0        
  Htrans  integral  2     3          
  Hsize   integral  2     2          
  Hburst  integral  3     'h0X       
  Hrdata  integral  32    'h20c4b341 
-------------------------------------
No of data monitored =          27
Size of the queue =           1
------------------------------------------------------------------------------------------------------
Name                           Type      Size  Value                                                  
------------------------------------------------------------------------------------------------------
req                            ahb_xtn   -     @1225                                                  
  begin_time                   time      64    1170                                                   
  end_time                     time      64    1170                                                   
  depth                        int       32    'd2                                                    
  parent sequence (name)       string    6     t_seqh                                                 
  parent sequence (full name)  string    55    uvm_test_top.ahb_apb_env.ahb_top.agt[0].ahb_seqr.t_seqh
  sequencer                    string    48    uvm_test_top.ahb_apb_env.ahb_top.agt[0].ahb_seqr       
  Haddr                        integral  32    'h800000f4                                             
  Hwdata                       integral  32    'h585d6f19                                             
  Hwrite                       integral  1     'd0                                                    
  Htrans                       integral  2     3                                                      
  Hsize                        integral  2     2                                                      
  Hburst                       integral  3     'h1                                                    
  Hrdata                       integral  32    'h0xxxxxxxx                                            
------------------------------------------------------------------------------------------------------
--------------------------------------
Name       Type      Size  Value      
--------------------------------------
xtn        apb_xtn   -     @1253      
  Paddr    integral  32    'h800000ec 
  Penable  integral  1     'dX        
  Pwrite   integral  1     'd0        
  Pselx    integral  4     'd1        
  Prdata   integral  32    'h20c4b341 
  Pwdata   integral  32    'h0xxxxxxxx
--------------------------------------
UVM_INFO ../apb_agent_top/apb_monitor.sv(72) @ 1190: uvm_test_top.ahb_apb_env.apb_top.agt[0].apb_mon [apb_monitor] Displaying apb_monitor data
Address compared Successfully
HADDR=800000ec, PADDR=800000ec
Data compared Successfully
HDATA=20c4b341, PDATA=20c4b341
Data verified =          27
No of packets driven = 29
-------------------------------------
Name      Type      Size  Value      
-------------------------------------
xtn       ahb_xtn   -     @1257      
  Haddr   integral  32    'h800000f0 
  Hwdata  integral  32    'h0xxxxxxxx
  Hwrite  integral  1     'd0        
  Htrans  integral  2     3          
  Hsize   integral  2     2          
  Hburst  integral  3     'h0X       
  Hrdata  integral  32    'h3c20f378 
-------------------------------------
No of data monitored =          28
Size of the queue =           1
------------------------------------------------------------------------------------------------------
Name                           Type      Size  Value                                                  
------------------------------------------------------------------------------------------------------
req                            ahb_xtn   -     @1225                                                  
  begin_time                   time      64    1210                                                   
  end_time                     time      64    1210                                                   
  depth                        int       32    'd2                                                    
  parent sequence (name)       string    6     t_seqh                                                 
  parent sequence (full name)  string    55    uvm_test_top.ahb_apb_env.ahb_top.agt[0].ahb_seqr.t_seqh
  sequencer                    string    48    uvm_test_top.ahb_apb_env.ahb_top.agt[0].ahb_seqr       
  Haddr                        integral  32    'h800000f8                                             
  Hwdata                       integral  32    'hf90d1afb                                             
  Hwrite                       integral  1     'd0                                                    
  Htrans                       integral  2     3                                                      
  Hsize                        integral  2     2                                                      
  Hburst                       integral  3     'h1                                                    
  Hrdata                       integral  32    'h0xxxxxxxx                                            
------------------------------------------------------------------------------------------------------
--------------------------------------
Name       Type      Size  Value      
--------------------------------------
xtn        apb_xtn   -     @1261      
  Paddr    integral  32    'h800000f0 
  Penable  integral  1     'dX        
  Pwrite   integral  1     'd0        
  Pselx    integral  4     'd1        
  Prdata   integral  32    'h3c20f378 
  Pwdata   integral  32    'h0xxxxxxxx
--------------------------------------
UVM_INFO ../apb_agent_top/apb_monitor.sv(72) @ 1230: uvm_test_top.ahb_apb_env.apb_top.agt[0].apb_mon [apb_monitor] Displaying apb_monitor data
Address compared Successfully
HADDR=800000f0, PADDR=800000f0
Data compared Successfully
