vsim -cvgperinstance -vopt -voptargs="+acc" -coverage -sva -c -do " log -r /* ;coverage save -onexit mem_cov2;run -all; exit" -wlf wave_file2.wlf -l test2.log -sv_seed random work.top "+UVM_TESTNAME=axi_first_seq_test" 
Start time: 10:21:33 on Jul 01,2024
** Note: (vsim-8009) Loading existing optimized design _opt
//  Questa Sim-64
//  Version 2019.2 linux_x86_64 Apr 16 2019
//
//  Copyright 1991-2019 Mentor Graphics Corporation
//  All Rights Reserved.
//
//  QuestaSim and its associated documentation contain trade
//  secrets and commercial or financial information that are the property of
//  Mentor Graphics Corporation and are privileged, confidential,
//  and exempt from disclosure under the Freedom of Information Act,
//  5 U.S.C. Section 552. Furthermore, this information
//  is prohibited from disclosure under the Trade Secrets Act,
//  18 U.S.C. Section 1905.
//
Loading sv_std.std
Loading work.axi_mif(fast)
Loading work.axi_sif(fast)
Loading mtiUvm.uvm_pkg
Loading work.test_packages(fast)
Loading mtiUvm.questa_uvm_pkg(fast)
Loading work.top(fast)
Loading work.axi_mif(fast)
Loading work.axi_sif(fast)
Loading work.axi_interconnect_wrap_4x4(fast)
Loading work.axi_interconnect(fast)
Loading work.arbiter(fast)
Loading work.priority_encoder(fast)
# Loading /home/cad/eda/Questa_2019/questasim/uvm-1.1d/linux_x86_64/uvm_dpi.so
** Warning: (vsim-8634) Code was not compiled with coverage options.
Sv_Seed = 3819211038
 log -r /* 
coverage save -onexit mem_cov2
run -all
----------------------------------------------------------------
UVM-1.1d
(C) 2007-2013 Mentor Graphics Corporation
(C) 2007-2013 Cadence Design Systems, Inc.
(C) 2006-2013 Synopsys, Inc.
(C) 2011-2013 Cypress Semiconductor Corp.
----------------------------------------------------------------

  ***********       IMPORTANT RELEASE NOTES         ************

  You are using a version of the UVM library that has been compiled
  with `UVM_NO_DEPRECATED undefined.
  See http://www.eda.org/svdb/view.php?id=3313 for more details.

  You are using a version of the UVM library that has been compiled
  with `UVM_OBJECT_MUST_HAVE_CONSTRUCTOR undefined.
  See http://www.eda.org/svdb/view.php?id=3770 for more details.

      (Specify +UVM_NO_RELNOTES to turn off this notice)

UVM_INFO verilog_src/questa_uvm_pkg-1.2/src/questa_uvm_pkg.sv(277) @ 0: reporter [Questa UVM] QUESTA_UVM-1.2.3
UVM_INFO verilog_src/questa_uvm_pkg-1.2/src/questa_uvm_pkg.sv(278) @ 0: reporter [Questa UVM]  questa_uvm::init(+struct)
Addressing configuration for axi_interconnect instance top.DUV.axi_interconnect_inst
 0 ( 0): 00000000 / 24 -- 00000000-00ffffff
 1 ( 0): 01000000 / 24 -- 01000000-01ffffff
 2 ( 0): 02000000 / 24 -- 02000000-02ffffff
 3 ( 0): 03000000 / 24 -- 03000000-03ffffff
UVM_INFO @ 0: reporter [RNTST] Running test axi_first_seq_test...
UVM_INFO @ 0: reporter [UVMTOP] UVM testbench topology:
--------------------------------------------------------------------
Name                         Type                        Size  Value
--------------------------------------------------------------------
uvm_test_top                 axi_first_seq_test          -     @492 
  axi_env                    axi_env                     -     @520 
    mast_agt_top             axi_mast_agt_top            -     @528 
      agnth[0]               master_agent                -     @695 
        drvh                 master_driver               -     @852 
          rsp_port           uvm_analysis_port           -     @867 
          seq_item_port      uvm_seq_item_pull_port      -     @859 
        monh                 master_monitor              -     @728 
          monitor_port       uvm_analysis_port           -     @735 
        seqrh                axi_mast_sequencer          -     @743 
          rsp_export         uvm_analysis_export         -     @750 
          seq_item_export    uvm_seq_item_pull_imp       -     @844 
          arbitration_queue  array                       0     -    
          lock_queue         array                       0     -    
          num_last_reqs      integral                    32    'd1  
          num_last_rsps      integral                    32    'd1  
      agnth[1]               master_agent                -     @703 
        drvh                 master_driver               -     @1008
          rsp_port           uvm_analysis_port           -     @1023
          seq_item_port      uvm_seq_item_pull_port      -     @1015
        monh                 master_monitor              -     @884 
          monitor_port       uvm_analysis_port           -     @891 
        seqrh                axi_mast_sequencer          -     @899 
          rsp_export         uvm_analysis_export         -     @906 
          seq_item_export    uvm_seq_item_pull_imp       -     @1000
          arbitration_queue  array                       0     -    
          lock_queue         array                       0     -    
          num_last_reqs      integral                    32    'd1  
          num_last_rsps      integral                    32    'd1  
      agnth[2]               master_agent                -     @711 
        drvh                 master_driver               -     @1164
          rsp_port           uvm_analysis_port           -     @1179
          seq_item_port      uvm_seq_item_pull_port      -     @1171
        monh                 master_monitor              -     @1040
          monitor_port       uvm_analysis_port           -     @1047
        seqrh                axi_mast_sequencer          -     @1055
          rsp_export         uvm_analysis_export         -     @1062
          seq_item_export    uvm_seq_item_pull_imp       -     @1156
          arbitration_queue  array                       0     -    
          lock_queue         array                       0     -    
          num_last_reqs      integral                    32    'd1  
          num_last_rsps      integral                    32    'd1  
      agnth[3]               master_agent                -     @719 
        drvh                 master_driver               -     @1320
          rsp_port           uvm_analysis_port           -     @1335
          seq_item_port      uvm_seq_item_pull_port      -     @1327
        monh                 master_monitor              -     @1196
          monitor_port       uvm_analysis_port           -     @1203
        seqrh                axi_mast_sequencer          -     @1211
          rsp_export         uvm_analysis_export         -     @1218
          seq_item_export    uvm_seq_item_pull_imp       -     @1312
          arbitration_queue  array                       0     -    
          lock_queue         array                       0     -    
          num_last_reqs      integral                    32    'd1  
          num_last_rsps      integral                    32    'd1  
    sb_h                     axi_scoreboard              -     @651 
      fifo_mast[0]           uvm_tlm_analysis_fifo #(T)  -     @1351
        analysis_export      uvm_analysis_imp            -     @1390
        get_ap               uvm_analysis_port           -     @1382
        get_peek_export      uvm_get_peek_imp            -     @1366
        put_ap               uvm_analysis_port           -     @1374
        put_export           uvm_put_imp                 -     @1358
      fifo_mast[1]           uvm_tlm_analysis_fifo #(T)  -     @1398
        analysis_export      uvm_analysis_imp            -     @1437
        get_ap               uvm_analysis_port           -     @1429
        get_peek_export      uvm_get_peek_imp            -     @1413
        put_ap               uvm_analysis_port           -     @1421
        put_export           uvm_put_imp                 -     @1405
      fifo_mast[2]           uvm_tlm_analysis_fifo #(T)  -     @1445
        analysis_export      uvm_analysis_imp            -     @1484
        get_ap               uvm_analysis_port           -     @1476
        get_peek_export      uvm_get_peek_imp            -     @1460
        put_ap               uvm_analysis_port           -     @1468
        put_export           uvm_put_imp                 -     @1452
      fifo_mast[3]           uvm_tlm_analysis_fifo #(T)  -     @1492
        analysis_export      uvm_analysis_imp            -     @1531
        get_ap               uvm_analysis_port           -     @1523
        get_peek_export      uvm_get_peek_imp            -     @1507
        put_ap               uvm_analysis_port           -     @1515
        put_export           uvm_put_imp                 -     @1499
      fifo_slv[0]            uvm_tlm_analysis_fifo #(T)  -     @1539
        analysis_export      uvm_analysis_imp            -     @1578
        get_ap               uvm_analysis_port           -     @1570
        get_peek_export      uvm_get_peek_imp            -     @1554
        put_ap               uvm_analysis_port           -     @1562
        put_export           uvm_put_imp                 -     @1546
      fifo_slv[1]            uvm_tlm_analysis_fifo #(T)  -     @1586
        analysis_export      uvm_analysis_imp            -     @1625
        get_ap               uvm_analysis_port           -     @1617
        get_peek_export      uvm_get_peek_imp            -     @1601
        put_ap               uvm_analysis_port           -     @1609
        put_export           uvm_put_imp                 -     @1593
      fifo_slv[2]            uvm_tlm_analysis_fifo #(T)  -     @1633
        analysis_export      uvm_analysis_imp            -     @1672
        get_ap               uvm_analysis_port           -     @1664
        get_peek_export      uvm_get_peek_imp            -     @1648
        put_ap               uvm_analysis_port           -     @1656
        put_export           uvm_put_imp                 -     @1640
      fifo_slv[3]            uvm_tlm_analysis_fifo #(T)  -     @1680
        analysis_export      uvm_analysis_imp            -     @1719
        get_ap               uvm_analysis_port           -     @1711
        get_peek_export      uvm_get_peek_imp            -     @1695
        put_ap               uvm_analysis_port           -     @1703
        put_export           uvm_put_imp                 -     @1687
    slv_agt_top              axi_slv_agt_top             -     @535 
      agnth[0]               slave_agent                 -     @1740
        drvh                 slave_driver                -     @1897
          rsp_port           uvm_analysis_port           -     @1912
          seq_item_port      uvm_seq_item_pull_port      -     @1904
        monh                 slave_monitor               -     @1773
          monitor_port       uvm_analysis_port           -     @1780
        seqrh                axi_slv_sequencer           -     @1788
          rsp_export         uvm_analysis_export         -     @1795
          seq_item_export    uvm_seq_item_pull_imp       -     @1889
          arbitration_queue  array                       0     -    
          lock_queue         array                       0     -    
          num_last_reqs      integral                    32    'd1  
          num_last_rsps      integral                    32    'd1  
      agnth[1]               slave_agent                 -     @1748
        drvh                 slave_driver                -     @2053
          rsp_port           uvm_analysis_port           -     @2068
          seq_item_port      uvm_seq_item_pull_port      -     @2060
        monh                 slave_monitor               -     @1929
          monitor_port       uvm_analysis_port           -     @1936
        seqrh                axi_slv_sequencer           -     @1944
          rsp_export         uvm_analysis_export         -     @1951
          seq_item_export    uvm_seq_item_pull_imp       -     @2045
          arbitration_queue  array                       0     -    
          lock_queue         array                       0     -    
          num_last_reqs      integral                    32    'd1  
          num_last_rsps      integral                    32    'd1  
      agnth[2]               slave_agent                 -     @1756
        drvh                 slave_driver                -     @2209
          rsp_port           uvm_analysis_port           -     @2224
          seq_item_port      uvm_seq_item_pull_port      -     @2216
        monh                 slave_monitor               -     @2085
          monitor_port       uvm_analysis_port           -     @2092
        seqrh                axi_slv_sequencer           -     @2100
          rsp_export         uvm_analysis_export         -     @2107
          seq_item_export    uvm_seq_item_pull_imp       -     @2201
          arbitration_queue  array                       0     -    
          lock_queue         array                       0     -    
          num_last_reqs      integral                    32    'd1  
          num_last_rsps      integral                    32    'd1  
      agnth[3]               slave_agent                 -     @1764
        drvh                 slave_driver                -     @2365
          rsp_port           uvm_analysis_port           -     @2380
          seq_item_port      uvm_seq_item_pull_port      -     @2372
        monh                 slave_monitor               -     @2241
          monitor_port       uvm_analysis_port           -     @2248
        seqrh                axi_slv_sequencer           -     @2256
          rsp_export         uvm_analysis_export         -     @2263
          seq_item_export    uvm_seq_item_pull_imp       -     @2357
          arbitration_queue  array                       0     -    
          lock_queue         array                       0     -    
          num_last_reqs      integral                    32    'd1  
          num_last_rsps      integral                    32    'd1  
    v_seqrh                  axi_virtual_sequencer       -     @542 
      rsp_export             uvm_analysis_export         -     @549 
      seq_item_export        uvm_seq_item_pull_imp       -     @643 
      arbitration_queue      array                       0     -    
      lock_queue             array                       0     -    
      num_last_reqs          integral                    32    'd1  
      num_last_rsps          integral                    32    'd1  
--------------------------------------------------------------------

UVM_INFO ../master_agent/master_monitor.sv(131) @ 45000: uvm_test_top.axi_env.mast_agt_top.agnth[0].monh [AXI_MASTER_Monitor_Write_Address_Collect] Displaying Data from AXI Master Monior Write Address Collect
-----------------------------------
Name       Type      Size  Value   
-----------------------------------
xtn        axi_xtn   -     @2481   
  AWID     integral  8     159     
  AWADDR   integral  32    'h692816
  AWLEN    integral  8     'd2     
  AWSIZE   integral  3     'd2     
  AWBURST  integral  2     'd1     
  AWVALID  integral  1     'd0     
  AWREADY  integral  1     'd0     
  AWLOCK   integral  1     'd0     
  AWCACHE  integral  4     8       
  AWQOS    integral  4     'd0     
  AWPROT   integral  3     5       
  AWUSER   integral  1     'd0     
  WID      integral  8     'd0     
  WLAST    integral  1     'd0     
  WVALID   integral  1     'd0     
  WREADY   integral  1     'd0     
  WUSER    integral  1     'd0     
  BID      integral  8     'd0     
  BRESP    integral  2     'd0     
  BVALID   integral  1     'd0     
  BREADY   integral  1     'd0     
  BUSER    integral  1     'd0     
  ARID     integral  8     'd0     
  ARADDR   integral  32    'h0     
  ARLEN    integral  8     'd0     
  ARSIZE   integral  3     'd0     
  ARBURST  integral  2     'd0     
  ARVALID  integral  1     'd0     
  ARREADY  integral  1     'd0     
  ARLOCK   integral  1     'd0     
  ARCACHE  integral  4     'd0     
  ARQOS    integral  4     'd0     
  ARPROT   integral  3     'd0     
  ARUSER   integral  1     'd0     
  RID      integral  4     'd0     
  RLAST    integral  1     'd0     
  RVALID   integral  1     'd0     
  RREADY   integral  1     'd0     
  RUSER    integral  1     'd0     
-----------------------------------
UVM_INFO ../master_agent/master_driver.sv(139) @ 55000: uvm_test_top.axi_env.mast_agt_top.agnth[0].drvh [AXI_MASTER_DRIVER_WRITE_ADDRESS] Displaying Data from Master Driver Drive_Write_address channel
----------------------------------------------------------------------------------------------------------
Name                           Type      Size  Value                                                      
----------------------------------------------------------------------------------------------------------
req                            axi_xtn   -     @2504                                                      
  begin_time                   time      64    0                                                          
  depth                        int       32    'd2                                                        
  parent sequence (name)       string    10    mast_seqh0                                                 
  parent sequence (full name)  string    59    uvm_test_top.axi_env.mast_agt_top.agnth[0].seqrh.mast_seqh0
  sequencer                    string    48    uvm_test_top.axi_env.mast_agt_top.agnth[0].seqrh           
  AWID                         integral  8     159                                                        
  AWADDR                       integral  32    'h692816                                                   
  AWLEN                        integral  8     'd2                                                        
  AWSIZE                       integral  3     'd2                                                        
  AWBURST                      integral  2     'd1                                                        
  AWVALID                      integral  1     'd0                                                        
  AWREADY                      integral  1     1                                                          
  AWLOCK                       integral  1     'd0                                                        
  AWCACHE                      integral  4     8                                                          
  AWQOS                        integral  4     'd0                                                        
  AWPROT                       integral  3     5                                                          
  AWUSER                       integral  1     'd0                                                        
  WID                          integral  8     159                                                        
  w_addr[0]                    integral  32    'h692816                                                   
  w_addr[1]                    integral  32    'h692818                                                   
  w_addr[2]                    integral  32    'h69281c                                                   
  WDATA[0]                     integral  32    'haa8dce9d                                                 
  WDATA[1]                     integral  32    'hb309b1ea                                                 
  WDATA[2]                     integral  32    'h61e02d82                                                 
  WSTRB[0]                     integral  4     'b1100                                                     
  WSTRB[1]                     integral  4     'b1111                                                     
  WSTRB[2]                     integral  4     'b1111                                                     
  WLAST                        integral  1     'd0                                                        
  WVALID                       integral  1     'd0                                                        
  WREADY                       integral  1     1                                                          
  WUSER                        integral  1     'd0                                                        
  BID                          integral  8     159                                                        
  BRESP                        integral  2     'd0                                                        
  BVALID                       integral  1     'd0                                                        
  BREADY                       integral  1     1                                                          
  BUSER                        integral  1     'd0                                                        
  ARID                         integral  8     242                                                        
  ARADDR                       integral  32    'h130f54                                                   
  ARLEN                        integral  8     'd1                                                        
  ARSIZE                       integral  3     'd0                                                        
  ARBURST                      integral  2     2                                                          
  ARVALID                      integral  1     'd0                                                        
  ARREADY                      integral  1     'd0                                                        
  ARLOCK                       integral  1     1                                                          
  ARCACHE                      integral  4     'd0                                                        
  ARQOS                        integral  4     9                                                          
  ARPROT                       integral  3     4                                                          
  ARUSER                       integral  1     'd0                                                        
  RID                          integral  4     'd2                                                        
  r_addr[0]                    integral  32    'h130f54                                                   
  r_addr[1]                    integral  32    'h130f55                                                   
  RDATA[0]                     integral  32    'h9bb95011                                                 
  RDATA[1]                     integral  32    'h9c53e247                                                 
  RRESP[0]                     integral  2     3                                                          
  RRESP[1]                     integral  2     'd1                                                        
  RLAST                        integral  1     'd0                                                        
  RVALID                       integral  1     1                                                          
  RREADY                       integral  1     1                                                          
  RUSER                        integral  1     'd0                                                        
----------------------------------------------------------------------------------------------------------
UVM_INFO ../master_agent/master_driver.sv(112) @ 55000: uvm_test_top.axi_env.mast_agt_top.agnth[0].drvh [AXI_MASTER_DRIVER] Displaying Data from Master Driver
----------------------------------------------------------------------------------------------------------
Name                           Type      Size  Value                                                      
----------------------------------------------------------------------------------------------------------
req                            axi_xtn   -     @2504                                                      
  begin_time                   time      64    0                                                          
  depth                        int       32    'd2                                                        
  parent sequence (name)       string    10    mast_seqh0                                                 
  parent sequence (full name)  string    59    uvm_test_top.axi_env.mast_agt_top.agnth[0].seqrh.mast_seqh0
  sequencer                    string    48    uvm_test_top.axi_env.mast_agt_top.agnth[0].seqrh           
  AWID                         integral  8     159                                                        
  AWADDR                       integral  32    'h692816                                                   
  AWLEN                        integral  8     'd2                                                        
  AWSIZE                       integral  3     'd2                                                        
  AWBURST                      integral  2     'd1                                                        
  AWVALID                      integral  1     'd0                                                        
  AWREADY                      integral  1     1                                                          
  AWLOCK                       integral  1     'd0                                                        
  AWCACHE                      integral  4     8                                                          
  AWQOS                        integral  4     'd0                                                        
  AWPROT                       integral  3     5                                                          
  AWUSER                       integral  1     'd0                                                        
  WID                          integral  8     159                                                        
  w_addr[0]                    integral  32    'h692816                                                   
  w_addr[1]                    integral  32    'h692818                                                   
  w_addr[2]                    integral  32    'h69281c                                                   
  WDATA[0]                     integral  32    'haa8dce9d                                                 
  WDATA[1]                     integral  32    'hb309b1ea                                                 
  WDATA[2]                     integral  32    'h61e02d82                                                 
  WSTRB[0]                     integral  4     'b1100                                                     
  WSTRB[1]                     integral  4     'b1111                                                     
  WSTRB[2]                     integral  4     'b1111                                                     
  WLAST                        integral  1     'd0                                                        
  WVALID                       integral  1     'd0                                                        
  WREADY                       integral  1     1                                                          
  WUSER                        integral  1     'd0                                                        
  BID                          integral  8     159                                                        
  BRESP                        integral  2     'd0                                                        
  BVALID                       integral  1     'd0                                                        
  BREADY                       integral  1     1                                                          
  BUSER                        integral  1     'd0                                                        
  ARID                         integral  8     242                                                        
  ARADDR                       integral  32    'h130f54                                                   
  ARLEN                        integral  8     'd1                                                        
  ARSIZE                       integral  3     'd0                                                        
  ARBURST                      integral  2     2                                                          
  ARVALID                      integral  1     'd0                                                        
  ARREADY                      integral  1     'd0                                                        
  ARLOCK                       integral  1     1                                                          
  ARCACHE                      integral  4     'd0                                                        
  ARQOS                        integral  4     9                                                          
  ARPROT                       integral  3     4                                                          
  ARUSER                       integral  1     'd0                                                        
  RID                          integral  4     'd2                                                        
  r_addr[0]                    integral  32    'h130f54                                                   
  r_addr[1]                    integral  32    'h130f55                                                   
  RDATA[0]                     integral  32    'h9bb95011                                                 
  RDATA[1]                     integral  32    'h9c53e247                                                 
  RRESP[0]                     integral  2     3                                                          
  RRESP[1]                     integral  2     'd1                                                        
  RLAST                        integral  1     'd0                                                        
  RVALID                       integral  1     1                                                          
  RREADY                       integral  1     1                                                          
  RUSER                        integral  1     'd0                                                        
----------------------------------------------------------------------------------------------------------
UVM_INFO ../master_agent/master_monitor.sv(103) @ 55000: uvm_test_top.axi_env.mast_agt_top.agnth[0].monh [AXI_MASTER_Monitor] Displaying Data from AXI Master Monior 
UVM_INFO ../slave_agent/slave_monitor.sv(131) @ 65000: uvm_test_top.axi_env.slv_agt_top.agnth[0].monh [AXI_SLAVE_Monitor_Write_Address_Collect] Displaying Data from AXI Slave Monior Write Address Collect
-----------------------------------
Name       Type      Size  Value   
-----------------------------------
xtn        axi_xtn   -     @2441   
  AWID     integral  8     'd0     
  AWADDR   integral  32    'h692816
  AWLEN    integral  8     'd2     
  AWSIZE   integral  3     'd2     
  AWBURST  integral  2     'd1     
  AWVALID  integral  1     'd0     
  AWREADY  integral  1     'd0     
  AWLOCK   integral  1     'd0     
  AWCACHE  integral  4     8       
  AWQOS    integral  4     'd0     
  AWPROT   integral  3     5       
  AWUSER   integral  1     'd0     
  WID      integral  8     'd0     
  WLAST    integral  1     'd0     
  WVALID   integral  1     'd0     
  WREADY   integral  1     'd0     
  WUSER    integral  1     'd0     
  BID      integral  8     'd0     
  BRESP    integral  2     'd0     
  BVALID   integral  1     'd0     
  BREADY   integral  1     'd0     
  BUSER    integral  1     'd0     
  ARID     integral  8     'd0     
  ARADDR   integral  32    'h0     
  ARLEN    integral  8     'd0     
  ARSIZE   integral  3     'd0     
  ARBURST  integral  2     'd0     
  ARVALID  integral  1     'd0     
  ARREADY  integral  1     'd0     
  ARLOCK   integral  1     'd0     
  ARCACHE  integral  4     'd0     
  ARQOS    integral  4     'd0     
  ARPROT   integral  3     'd0     
  ARUSER   integral  1     'd0     
  RID      integral  4     'd0     
  RLAST    integral  1     'd0     
  RVALID   integral  1     'd0     
  RREADY   integral  1     'd0     
  RUSER    integral  1     'd0     
-----------------------------------
UVM_INFO ../slave_agent/slave_driver.sv(146) @ 75000: uvm_test_top.axi_env.slv_agt_top.agnth[0].drvh [AXI_SLAVE_DRIVER_WRITE_ADDRESS] Data from the Drive_Write_address Task for AXI Slave
-----------------------------------
Name       Type      Size  Value   
-----------------------------------
xtn        axi_xtn   -     @2530   
  AWID     integral  8     'd0     
  AWADDR   integral  32    'h692816
  AWLEN    integral  8     'd2     
  AWSIZE   integral  3     'd2     
  AWBURST  integral  2     'd1     
  AWVALID  integral  1     1       
  AWREADY  integral  1     'd0     
  AWLOCK   integral  1     'd0     
  AWCACHE  integral  4     8       
  AWQOS    integral  4     'd0     
  AWPROT   integral  3     5       
  AWUSER   integral  1     'd0     
  WID      integral  8     'd0     
  WLAST    integral  1     'd0     
  WVALID   integral  1     'd0     
  WREADY   integral  1     'd0     
  WUSER    integral  1     'd0     
  BID      integral  8     'd0     
  BRESP    integral  2     'd0     
  BVALID   integral  1     'd0     
  BREADY   integral  1     'd0     
  BUSER    integral  1     'd0     
  ARID     integral  8     'd0     
  ARADDR   integral  32    'h0     
  ARLEN    integral  8     'd0     
  ARSIZE   integral  3     'd0     
  ARBURST  integral  2     'd0     
  ARVALID  integral  1     'd0     
  ARREADY  integral  1     'd0     
  ARLOCK   integral  1     'd0     
  ARCACHE  integral  4     'd0     
  ARQOS    integral  4     'd0     
  ARPROT   integral  3     'd0     
  ARUSER   integral  1     'd0     
  RID      integral  4     'd0     
  RLAST    integral  1     'd0     
  RVALID   integral  1     'd0     
  RREADY   integral  1     'd0     
  RUSER    integral  1     'd0     
-----------------------------------
UVM_INFO ../slave_agent/slave_driver.sv(107) @ 75000: uvm_test_top.axi_env.slv_agt_top.agnth[0].drvh [AXI_SLAVE_DRIVER] Data from Drive Task for AXI Slave
--------------------------------------------------------------------------------------------------------
Name                           Type      Size  Value                                                    
--------------------------------------------------------------------------------------------------------
req                            axi_xtn   -     @2508                                                    
  begin_time                   time      64    0                                                        
  depth                        int       32    'd2                                                      
  parent sequence (name)       string    9     slv_seqh0                                                
  parent sequence (full name)  string    57    uvm_test_top.axi_env.slv_agt_top.agnth[0].seqrh.slv_seqh0
  sequencer                    string    47    uvm_test_top.axi_env.slv_agt_top.agnth[0].seqrh          
  AWID                         integral  8     'd65                                                     
  AWADDR                       integral  32    'h200e423                                                
  AWLEN                        integral  8     'd1                                                      
  AWSIZE                       integral  3     'd0                                                      
  AWBURST                      integral  2     'd0                                                      
  AWVALID                      integral  1     'd0                                                      
  AWREADY                      integral  1     'd0                                                      
  AWLOCK                       integral  1     1                                                        
  AWCACHE                      integral  4     9                                                        
  AWQOS                        integral  4     'd7                                                      
  AWPROT                       integral  3     'd3                                                      
  AWUSER                       integral  1     1                                                        
  WID                          integral  8     'd65                                                     
  w_addr[0]                    integral  32    'h200e423                                                
  w_addr[1]                    integral  32    'h200e423                                                
  WDATA[0]                     integral  32    'hfe3fd5a4                                               
  WDATA[1]                     integral  32    'hbcc1dbe4                                               
  WSTRB[0]                     integral  4     'b1000                                                   
  WSTRB[1]                     integral  4     'b1000                                                   
  WLAST                        integral  1     1                                                        
  WVALID                       integral  1     1                                                        
  WREADY                       integral  1     'd0                                                      
  WUSER                        integral  1     1                                                        
  BID                          integral  8     'd65                                                     
  BRESP                        integral  2     3                                                        
  BVALID                       integral  1     1                                                        
  BREADY                       integral  1     'd0                                                      
  BUSER                        integral  1     'd0                                                      
  ARID                         integral  8     'd54                                                     
  ARADDR                       integral  32    'h149fd5b                                                
  ARLEN                        integral  8     'd4                                                      
  ARSIZE                       integral  3     'd2                                                      
  ARBURST                      integral  2     'd0                                                      
  ARVALID                      integral  1     1                                                        
  ARREADY                      integral  1     'd0                                                      
  ARLOCK                       integral  1     'd0                                                      
  ARCACHE                      integral  4     'd0                                                      
  ARQOS                        integral  4     12                                                       
  ARPROT                       integral  3     'd2                                                      
  ARUSER                       integral  1     1                                                        
  RID                          integral  4     'd6                                                      
  r_addr[0]                    integral  32    'h149fd5b                                                
  r_addr[1]                    integral  32    'h149fd5b                                                
  r_addr[2]                    integral  32    'h149fd5b                                                
  r_addr[3]                    integral  32    'h149fd5b                                                
  r_addr[4]                    integral  32    'h149fd5b                                                
  RDATA[0]                     integral  32    'hd26ce601                                               
  RDATA[1]                     integral  32    'h2f1d4034                                               
  RDATA[2]                     integral  32    'ha448ab3f                                               
  RDATA[3]                     integral  32    'h856ba443                                               
  RDATA[4]                     integral  32    'h92e945fc                                               
  RRESP[0]                     integral  2     'd0                                                      
  RRESP[1]                     integral  2     3                                                        
  RRESP[2]                     integral  2     3                                                        
  RRESP[3]                     integral  2     2                                                        
  RRESP[4]                     integral  2     3                                                        
  RLAST                        integral  1     'd0                                                      
  RVALID                       integral  1     1                                                        
  RREADY                       integral  1     1                                                        
  RUSER                        integral  1     1                                                        
--------------------------------------------------------------------------------------------------------
UVM_INFO ../slave_agent/slave_monitor.sv(104) @ 75000: uvm_test_top.axi_env.slv_agt_top.agnth[0].monh [AXI_SLAVE_Monitor] Displaying Data from AXI Slave Monior 
UVM_INFO ../master_agent/master_driver.sv(170) @ 165000: uvm_test_top.axi_env.mast_agt_top.agnth[0].drvh [AXI_MASTER_DRIVER_WRITE_DATA] Displaying Data from Master Driver Drive_Write_data channel
----------------------------------------------------------------------------------------------------------
Name                           Type      Size  Value                                                      
----------------------------------------------------------------------------------------------------------
req                            axi_xtn   -     @2504                                                      
  begin_time                   time      64    0                                                          
  end_time                     time      64    55000                                                      
  depth                        int       32    'd2                                                        
  parent sequence (name)       string    10    mast_seqh0                                                 
  parent sequence (full name)  string    59    uvm_test_top.axi_env.mast_agt_top.agnth[0].seqrh.mast_seqh0
  sequencer                    string    48    uvm_test_top.axi_env.mast_agt_top.agnth[0].seqrh           
  AWID                         integral  8     159                                                        
  AWADDR                       integral  32    'h692816                                                   
  AWLEN                        integral  8     'd2                                                        
  AWSIZE                       integral  3     'd2                                                        
  AWBURST                      integral  2     'd1                                                        
  AWVALID                      integral  1     'd0                                                        
  AWREADY                      integral  1     1                                                          
  AWLOCK                       integral  1     'd0                                                        
  AWCACHE                      integral  4     8                                                          
  AWQOS                        integral  4     'd0                                                        
  AWPROT                       integral  3     5                                                          
  AWUSER                       integral  1     'd0                                                        
  WID                          integral  8     159                                                        
  w_addr[0]                    integral  32    'h692816                                                   
  w_addr[1]                    integral  32    'h692818                                                   
  w_addr[2]                    integral  32    'h69281c                                                   
  WDATA[0]                     integral  32    'haa8dce9d                                                 
  WDATA[1]                     integral  32    'hb309b1ea                                                 
  WDATA[2]                     integral  32    'h61e02d82                                                 
  WSTRB[0]                     integral  4     'b1100                                                     
  WSTRB[1]                     integral  4     'b1111                                                     
  WSTRB[2]                     integral  4     'b1111                                                     
  WLAST                        integral  1     'd0                                                        
  WVALID                       integral  1     'd0                                                        
  WREADY                       integral  1     1                                                          
  WUSER                        integral  1     'd0                                                        
  BID                          integral  8     159                                                        
  BRESP                        integral  2     'd0                                                        
  BVALID                       integral  1     'd0                                                        
  BREADY                       integral  1     1                                                          
  BUSER                        integral  1     'd0                                                        
  ARID                         integral  8     242                                                        
  ARADDR                       integral  32    'h130f54                                                   
  ARLEN                        integral  8     'd1                                                        
  ARSIZE                       integral  3     'd0                                                        
  ARBURST                      integral  2     2                                                          
  ARVALID                      integral  1     'd0                                                        
  ARREADY                      integral  1     'd0                                                        
  ARLOCK                       integral  1     1                                                          
  ARCACHE                      integral  4     'd0                                                        
  ARQOS                        integral  4     9                                                          
  ARPROT                       integral  3     4                                                          
  ARUSER                       integral  1     'd0                                                        
  RID                          integral  4     'd2                                                        
  r_addr[0]                    integral  32    'h130f54                                                   
  r_addr[1]                    integral  32    'h130f55                                                   
  RDATA[0]                     integral  32    'h9bb95011                                                 
  RDATA[1]                     integral  32    'h9c53e247                                                 
  RRESP[0]                     integral  2     3                                                          
  RRESP[1]                     integral  2     'd1                                                        
  RLAST                        integral  1     'd0                                                        
  RVALID                       integral  1     1                                                          
  RREADY                       integral  1     1                                                          
  RUSER                        integral  1     'd0                                                        
----------------------------------------------------------------------------------------------------------
UVM_INFO ../master_agent/master_monitor.sv(161) @ 165000: uvm_test_top.axi_env.mast_agt_top.agnth[0].monh [AXI_MASTER_Monitor_Write_DATA_Collect] Displaying Data from AXI Master Monior Write DATA Collect
---------------------------------------
Name         Type      Size  Value     
---------------------------------------
xtn          axi_xtn   -     @2481     
  AWID       integral  8     159       
  AWADDR     integral  32    'h692816  
  AWLEN      integral  8     'd2       
  AWSIZE     integral  3     'd2       
  AWBURST    integral  2     'd1       
  AWVALID    integral  1     'd0       
  AWREADY    integral  1     'd0       
  AWLOCK     integral  1     'd0       
  AWCACHE    integral  4     8         
  AWQOS      integral  4     'd0       
  AWPROT     integral  3     5         
  AWUSER     integral  1     'd0       
  WID        integral  8     159       
  w_addr[0]  integral  32    'h692816  
  w_addr[1]  integral  32    'h692818  
  w_addr[2]  integral  32    'h69281c  
  WDATA[0]   integral  32    'haa8dce9d
  WDATA[1]   integral  32    'hb309b1ea
  WDATA[2]   integral  32    'h61e02d82
  WSTRB[0]   integral  4     'b1100    
  WSTRB[1]   integral  4     'b1111    
  WSTRB[2]   integral  4     'b1111    
  WLAST      integral  1     1         
  WVALID     integral  1     'd0       
  WREADY     integral  1     'd0       
  WUSER      integral  1     'd0       
  BID        integral  8     'd0       
  BRESP      integral  2     'd0       
  BVALID     integral  1     'd0       
  BREADY     integral  1     'd0       
  BUSER      integral  1     'd0       
  ARID       integral  8     'd0       
  ARADDR     integral  32    'h0       
  ARLEN      integral  8     'd0       
  ARSIZE     integral  3     'd0       
  ARBURST    integral  2     'd0       
  ARVALID    integral  1     'd0       
  ARREADY    integral  1     'd0       
  ARLOCK     integral  1     'd0       
  ARCACHE    integral  4     'd0       
  ARQOS      integral  4     'd0       
  ARPROT     integral  3     'd0       
  ARUSER     integral  1     'd0       
  RID        integral  4     'd0       
  RLAST      integral  1     'd0       
  RVALID     integral  1     'd0       
  RREADY     integral  1     'd0       
  RUSER      integral  1     'd0       
---------------------------------------
UVM_INFO ../slave_agent/slave_monitor.sv(163) @ 215000: uvm_test_top.axi_env.slv_agt_top.agnth[0].monh [AXI_SLAVE_Monitor_Write_DATA_Collect] Displaying Data from AXI Slave Monior Write DATA Collect
---------------------------------------
Name         Type      Size  Value     
---------------------------------------
xtn          axi_xtn   -     @2441     
  AWID       integral  8     'd0       
  AWADDR     integral  32    'h692816  
  AWLEN      integral  8     'd2       
  AWSIZE     integral  3     'd2       
  AWBURST    integral  2     'd1       
  AWVALID    integral  1     'd0       
  AWREADY    integral  1     'd0       
  AWLOCK     integral  1     'd0       
  AWCACHE    integral  4     8         
  AWQOS      integral  4     'd0       
  AWPROT     integral  3     5         
  AWUSER     integral  1     'd0       
  WID        integral  8     'd0       
  w_addr[0]  integral  32    'h692816  
  w_addr[1]  integral  32    'h692818  
  w_addr[2]  integral  32    'h69281c  
  WDATA[0]   integral  32    'haa8dce9d
  WDATA[1]   integral  32    'hb309b1ea
  WDATA[2]   integral  32    'h61e02d82
  WSTRB[0]   integral  4     'b1100    
  WSTRB[1]   integral  4     'b1111    
  WSTRB[2]   integral  4     'b1111    
  WLAST      integral  1     1         
  WVALID     integral  1     'd0       
  WREADY     integral  1     'd0       
  WUSER      integral  1     'd0       
  BID        integral  8     'd0       
  BRESP      integral  2     'd0       
  BVALID     integral  1     'd0       
  BREADY     integral  1     'd0       
  BUSER      integral  1     'd0       
  ARID       integral  8     'd0       
  ARADDR     integral  32    'h0       
  ARLEN      integral  8     'd0       
  ARSIZE     integral  3     'd0       
  ARBURST    integral  2     'd0       
  ARVALID    integral  1     'd0       
  ARREADY    integral  1     'd0       
  ARLOCK     integral  1     'd0       
  ARCACHE    integral  4     'd0       
  ARQOS      integral  4     'd0       
  ARPROT     integral  3     'd0       
  ARUSER     integral  1     'd0       
  RID        integral  4     'd0       
  RLAST      integral  1     'd0       
  RVALID     integral  1     'd0       
  RREADY     integral  1     'd0       
  RUSER      integral  1     'd0       
---------------------------------------
UVM_INFO ../slave_agent/slave_driver.sv(193) @ 245000: uvm_test_top.axi_env.slv_agt_top.agnth[0].drvh [AXI_SLAVE_DRIVER_WRITE_DATA] Data from the Drive_Write_data Task for AXI Slave
---------------------------------------
Name         Type      Size  Value     
---------------------------------------
xtn          axi_xtn   -     @2530     
  AWID       integral  8     'd0       
  AWADDR     integral  32    'h692816  
  AWLEN      integral  8     'd2       
  AWSIZE     integral  3     'd2       
  AWBURST    integral  2     'd1       
  AWVALID    integral  1     1         
  AWREADY    integral  1     'd0       
  AWLOCK     integral  1     'd0       
  AWCACHE    integral  4     8         
  AWQOS      integral  4     'd0       
  AWPROT     integral  3     5         
  AWUSER     integral  1     'd0       
  WID        integral  8     'd0       
  w_addr[0]  integral  32    'h692816  
  w_addr[1]  integral  32    'h692818  
  w_addr[2]  integral  32    'h69281c  
  WDATA[0]   integral  32    'haa8dce9d
  WDATA[1]   integral  32    'hb309b1ea
  WDATA[2]   integral  32    'h61e02d82
  WSTRB[0]   integral  4     'b1100    
  WSTRB[1]   integral  4     'b1111    
  WSTRB[2]   integral  4     'b1111    
  WLAST      integral  1     'd0       
  WVALID     integral  1     'd0       
  WREADY     integral  1     'd0       
  WUSER      integral  1     'd0       
  BID        integral  8     'd0       
  BRESP      integral  2     'd0       
  BVALID     integral  1     'd0       
  BREADY     integral  1     'd0       
  BUSER      integral  1     'd0       
  ARID       integral  8     'd0       
  ARADDR     integral  32    'h0       
  ARLEN      integral  8     'd0       
  ARSIZE     integral  3     'd0       
  ARBURST    integral  2     'd0       
  ARVALID    integral  1     'd0       
  ARREADY    integral  1     'd0       
  ARLOCK     integral  1     'd0       
  ARCACHE    integral  4     'd0       
  ARQOS      integral  4     'd0       
  ARPROT     integral  3     'd0       
  ARUSER     integral  1     'd0       
  RID        integral  4     'd0       
  RLAST      integral  1     'd0       
  RVALID     integral  1     'd0       
  RREADY     integral  1     'd0       
  RUSER      integral  1     'd0       
---------------------------------------
UVM_INFO ../slave_agent/slave_monitor.sv(178) @ 255000: uvm_test_top.axi_env.slv_agt_top.agnth[0].monh [AXI_SLAVE_Monitor_Write_Response_Collect] Displaying Data from AXI Slave Monior Write Response Collect
---------------------------------------
Name         Type      Size  Value     
---------------------------------------
xtn          axi_xtn   -     @2441     
  AWID       integral  8     'd0       
  AWADDR     integral  32    'h692816  
  AWLEN      integral  8     'd2       
  AWSIZE     integral  3     'd2       
  AWBURST    integral  2     'd1       
  AWVALID    integral  1     'd0       
  AWREADY    integral  1     'd0       
  AWLOCK     integral  1     'd0       
  AWCACHE    integral  4     8         
  AWQOS      integral  4     'd0       
  AWPROT     integral  3     5         
  AWUSER     integral  1     'd0       
  WID        integral  8     'd0       
  w_addr[0]  integral  32    'h692816  
  w_addr[1]  integral  32    'h692818  
  w_addr[2]  integral  32    'h69281c  
  WDATA[0]   integral  32    'haa8dce9d
  WDATA[1]   integral  32    'hb309b1ea
  WDATA[2]   integral  32    'h61e02d82
  WSTRB[0]   integral  4     'b1100    
  WSTRB[1]   integral  4     'b1111    
  WSTRB[2]   integral  4     'b1111    
  WLAST      integral  1     1         
  WVALID     integral  1     'd0       
  WREADY     integral  1     'd0       
  WUSER      integral  1     'd0       
  BID        integral  8     'd0       
  BRESP      integral  2     2         
  BVALID     integral  1     'd0       
  BREADY     integral  1     'd0       
  BUSER      integral  1     'd0       
  ARID       integral  8     'd0       
  ARADDR     integral  32    'h0       
  ARLEN      integral  8     'd0       
  ARSIZE     integral  3     'd0       
  ARBURST    integral  2     'd0       
  ARVALID    integral  1     'd0       
  ARREADY    integral  1     'd0       
  ARLOCK     integral  1     'd0       
  ARCACHE    integral  4     'd0       
  ARQOS      integral  4     'd0       
  ARPROT     integral  3     'd0       
  ARUSER     integral  1     'd0       
  RID        integral  4     'd0       
  RLAST      integral  1     'd0       
  RVALID     integral  1     'd0       
  RREADY     integral  1     'd0       
  RUSER      integral  1     'd0       
---------------------------------------
UVM_INFO ../tb/scoreboard.sv(683) @ 255000: uvm_test_top.axi_env.sb_h [AXI_SCOREBORD-Run_Phase] Data from scoreboard -Slave  Data
---------------------------------------
Name         Type      Size  Value     
---------------------------------------
xtn          axi_xtn   -     @2441     
  AWID       integral  8     'd0       
  AWADDR     integral  32    'h692816  
  AWLEN      integral  8     'd2       
  AWSIZE     integral  3     'd2       
  AWBURST    integral  2     'd1       
  AWVALID    integral  1     'd0       
  AWREADY    integral  1     'd0       
  AWLOCK     integral  1     'd0       
  AWCACHE    integral  4     8         
  AWQOS      integral  4     'd0       
  AWPROT     integral  3     5         
  AWUSER     integral  1     'd0       
  WID        integral  8     'd0       
  w_addr[0]  integral  32    'h692816  
  w_addr[1]  integral  32    'h692818  
  w_addr[2]  integral  32    'h69281c  
  WDATA[0]   integral  32    'haa8dce9d
  WDATA[1]   integral  32    'hb309b1ea
  WDATA[2]   integral  32    'h61e02d82
  WSTRB[0]   integral  4     'b1100    
  WSTRB[1]   integral  4     'b1111    
  WSTRB[2]   integral  4     'b1111    
  WLAST      integral  1     1         
  WVALID     integral  1     'd0       
  WREADY     integral  1     'd0       
  WUSER      integral  1     'd0       
  BID        integral  8     'd0       
  BRESP      integral  2     2         
  BVALID     integral  1     'd0       
  BREADY     integral  1     'd0       
  BUSER      integral  1     'd0       
  ARID       integral  8     'd0       
  ARADDR     integral  32    'h0       
  ARLEN      integral  8     'd0       
  ARSIZE     integral  3     'd0       
  ARBURST    integral  2     'd0       
  ARVALID    integral  1     'd0       
  ARREADY    integral  1     'd0       
  ARLOCK     integral  1     'd0       
  ARCACHE    integral  4     'd0       
  ARQOS      integral  4     'd0       
  ARPROT     integral  3     'd0       
  ARUSER     integral  1     'd0       
  RID        integral  4     'd0       
  RLAST      integral  1     'd0       
  RVALID     integral  1     'd0       
  RREADY     integral  1     'd0       
  RUSER      integral  1     'd0       
---------------------------------------
UVM_INFO ../master_agent/master_monitor.sv(175) @ 265000: uvm_test_top.axi_env.mast_agt_top.agnth[0].monh [AXI_MASTER_Monitor_Write_Response_Collect] Displaying Data from AXI Master Monior Write Response Collect
---------------------------------------
Name         Type      Size  Value     
---------------------------------------
xtn          axi_xtn   -     @2481     
  AWID       integral  8     159       
  AWADDR     integral  32    'h692816  
  AWLEN      integral  8     'd2       
  AWSIZE     integral  3     'd2       
  AWBURST    integral  2     'd1       
  AWVALID    integral  1     'd0       
  AWREADY    integral  1     'd0       
  AWLOCK     integral  1     'd0       
  AWCACHE    integral  4     8         
  AWQOS      integral  4     'd0       
  AWPROT     integral  3     5         
  AWUSER     integral  1     'd0       
  WID        integral  8     159       
  w_addr[0]  integral  32    'h692816  
  w_addr[1]  integral  32    'h692818  
  w_addr[2]  integral  32    'h69281c  
  WDATA[0]   integral  32    'haa8dce9d
  WDATA[1]   integral  32    'hb309b1ea
  WDATA[2]   integral  32    'h61e02d82
  WSTRB[0]   integral  4     'b1100    
  WSTRB[1]   integral  4     'b1111    
  WSTRB[2]   integral  4     'b1111    
  WLAST      integral  1     1         
  WVALID     integral  1     'd0       
  WREADY     integral  1     'd0       
  WUSER      integral  1     'd0       
  BID        integral  8     159       
  BRESP      integral  2     2         
  BVALID     integral  1     'd0       
  BREADY     integral  1     'd0       
  BUSER      integral  1     'd0       
  ARID       integral  8     'd0       
  ARADDR     integral  32    'h0       
  ARLEN      integral  8     'd0       
  ARSIZE     integral  3     'd0       
  ARBURST    integral  2     'd0       
  ARVALID    integral  1     'd0       
  ARREADY    integral  1     'd0       
  ARLOCK     integral  1     'd0       
  ARCACHE    integral  4     'd0       
  ARQOS      integral  4     'd0       
  ARPROT     integral  3     'd0       
  ARUSER     integral  1     'd0       
  RID        integral  4     'd0       
  RLAST      integral  1     'd0       
  RVALID     integral  1     'd0       
  RREADY     integral  1     'd0       
  RUSER      integral  1     'd0       
---------------------------------------
UVM_INFO ../tb/scoreboard.sv(626) @ 265000: uvm_test_top.axi_env.sb_h [AXI_SCOREBORD-Run_Phase] Data from scoreboard -Master  Data
---------------------------------------
Name         Type      Size  Value     
---------------------------------------
xtn          axi_xtn   -     @2481     
  AWID       integral  8     159       
  AWADDR     integral  32    'h692816  
  AWLEN      integral  8     'd2       
  AWSIZE     integral  3     'd2       
  AWBURST    integral  2     'd1       
  AWVALID    integral  1     'd0       
  AWREADY    integral  1     'd0       
  AWLOCK     integral  1     'd0       
  AWCACHE    integral  4     8         
  AWQOS      integral  4     'd0       
  AWPROT     integral  3     5         
  AWUSER     integral  1     'd0       
  WID        integral  8     159       
  w_addr[0]  integral  32    'h692816  
  w_addr[1]  integral  32    'h692818  
  w_addr[2]  integral  32    'h69281c  
  WDATA[0]   integral  32    'haa8dce9d
  WDATA[1]   integral  32    'hb309b1ea
  WDATA[2]   integral  32    'h61e02d82
  WSTRB[0]   integral  4     'b1100    
  WSTRB[1]   integral  4     'b1111    
  WSTRB[2]   integral  4     'b1111    
  WLAST      integral  1     1         
  WVALID     integral  1     'd0       
  WREADY     integral  1     'd0       
  WUSER      integral  1     'd0       
  BID        integral  8     159       
  BRESP      integral  2     2         
  BVALID     integral  1     'd0       
  BREADY     integral  1     'd0       
  BUSER      integral  1     'd0       
  ARID       integral  8     'd0       
  ARADDR     integral  32    'h0       
  ARLEN      integral  8     'd0       
  ARSIZE     integral  3     'd0       
  ARBURST    integral  2     'd0       
  ARVALID    integral  1     'd0       
  ARREADY    integral  1     'd0       
  ARLOCK     integral  1     'd0       
  ARCACHE    integral  4     'd0       
  ARQOS      integral  4     'd0       
  ARPROT     integral  3     'd0       
  ARUSER     integral  1     'd0       
  RID        integral  4     'd0       
  RLAST      integral  1     'd0       
  RVALID     integral  1     'd0       
  RREADY     integral  1     'd0       
  RUSER      integral  1     'd0       
---------------------------------------
UVM_INFO ../tb/scoreboard.sv(765) @ 265000: uvm_test_top.axi_env.sb_h [AXI_SCORE-BOARD--WRITE_DATA] Write Address comparision is Successful
UVM_INFO ../tb/scoreboard.sv(778) @ 265000: uvm_test_top.axi_env.sb_h [AXI_SCORE-BOARD--WRITE_DATA] Write Control information comparision is Successful
UVM_INFO ../tb/scoreboard.sv(785) @ 265000: uvm_test_top.axi_env.sb_h [AXI_SCORE-BOARD--WRITE_DATA] Write Data comparision is Successful
UVM_INFO ../tb/scoreboard.sv(785) @ 265000: uvm_test_top.axi_env.sb_h [AXI_SCORE-BOARD--WRITE_DATA] Write Data comparision is Successful
UVM_INFO ../tb/scoreboard.sv(785) @ 265000: uvm_test_top.axi_env.sb_h [AXI_SCORE-BOARD--WRITE_DATA] Write Data comparision is Successful
UVM_INFO ../tb/scoreboard.sv(791) @ 265000: uvm_test_top.axi_env.sb_h [AXI_SCORE-BOARD--WRITE_DATA] Write Strobe comparision is Successful
UVM_INFO ../tb/scoreboard.sv(791) @ 265000: uvm_test_top.axi_env.sb_h [AXI_SCORE-BOARD--WRITE_DATA] Write Strobe comparision is Successful
UVM_INFO ../tb/scoreboard.sv(791) @ 265000: uvm_test_top.axi_env.sb_h [AXI_SCORE-BOARD--WRITE_DATA] Write Strobe comparision is Successful
UVM_INFO ../tb/scoreboard.sv(808) @ 265000: uvm_test_top.axi_env.sb_h [AXI_SCORE-BOARD--READ_DATA] Read Address comparision is Successful
UVM_INFO ../tb/scoreboard.sv(820) @ 265000: uvm_test_top.axi_env.sb_h [AXI_SCORE-BOARD--READ_DATA] Read Control information comparision is Successful
UVM_INFO ../master_agent/master_driver.sv(188) @ 275000: uvm_test_top.axi_env.mast_agt_top.agnth[0].drvh [AXI_MASTER_DRIVER_WRITE_RESPONSE] Displaying Data from Master Driver Drive_Write_Response channel
----------------------------------------------------------------------------------------------------------
Name                           Type      Size  Value                                                      
----------------------------------------------------------------------------------------------------------
req                            axi_xtn   -     @2504                                                      
  begin_time                   time      64    0                                                          
  end_time                     time      64    55000                                                      
  depth                        int       32    'd2                                                        
  parent sequence (name)       string    10    mast_seqh0                                                 
  parent sequence (full name)  string    59    uvm_test_top.axi_env.mast_agt_top.agnth[0].seqrh.mast_seqh0
  sequencer                    string    48    uvm_test_top.axi_env.mast_agt_top.agnth[0].seqrh           
  AWID                         integral  8     159                                                        
  AWADDR                       integral  32    'h692816                                                   
  AWLEN                        integral  8     'd2                                                        
  AWSIZE                       integral  3     'd2                                                        
  AWBURST                      integral  2     'd1                                                        
  AWVALID                      integral  1     'd0                                                        
  AWREADY                      integral  1     1                                                          
  AWLOCK                       integral  1     'd0                                                        
  AWCACHE                      integral  4     8                                                          
  AWQOS                        integral  4     'd0                                                        
  AWPROT                       integral  3     5                                                          
  AWUSER                       integral  1     'd0                                                        
  WID                          integral  8     159                                                        
  w_addr[0]                    integral  32    'h692816                                                   
  w_addr[1]                    integral  32    'h692818                                                   
  w_addr[2]                    integral  32    'h69281c                                                   
  WDATA[0]                     integral  32    'haa8dce9d                                                 
  WDATA[1]                     integral  32    'hb309b1ea                                                 
  WDATA[2]                     integral  32    'h61e02d82                                                 
  WSTRB[0]                     integral  4     'b1100                                                     
  WSTRB[1]                     integral  4     'b1111                                                     
  WSTRB[2]                     integral  4     'b1111                                                     
  WLAST                        integral  1     'd0                                                        
  WVALID                       integral  1     'd0                                                        
  WREADY                       integral  1     1                                                          
  WUSER                        integral  1     'd0                                                        
  BID                          integral  8     159                                                        
  BRESP                        integral  2     'd0                                                        
  BVALID                       integral  1     'd0                                                        
  BREADY                       integral  1     1                                                          
  BUSER                        integral  1     'd0                                                        
  ARID                         integral  8     242                                                        
  ARADDR                       integral  32    'h130f54                                                   
  ARLEN                        integral  8     'd1                                                        
  ARSIZE                       integral  3     'd0                                                        
  ARBURST                      integral  2     2                                                          
  ARVALID                      integral  1     'd0                                                        
  ARREADY                      integral  1     'd0                                                        
  ARLOCK                       integral  1     1                                                          
  ARCACHE                      integral  4     'd0                                                        
  ARQOS                        integral  4     9                                                          
  ARPROT                       integral  3     4                                                          
  ARUSER                       integral  1     'd0                                                        
  RID                          integral  4     'd2                                                        
  r_addr[0]                    integral  32    'h130f54                                                   
  r_addr[1]                    integral  32    'h130f55                                                   
  RDATA[0]                     integral  32    'h9bb95011                                                 
  RDATA[1]                     integral  32    'h9c53e247                                                 
  RRESP[0]                     integral  2     3                                                          
  RRESP[1]                     integral  2     'd1                                                        
  RLAST                        integral  1     'd0                                                        
  RVALID                       integral  1     1                                                          
  RREADY                       integral  1     1                                                          
  RUSER                        integral  1     'd0                                                        
----------------------------------------------------------------------------------------------------------
UVM_INFO ../slave_agent/slave_driver.sv(214) @ 295000: uvm_test_top.axi_env.slv_agt_top.agnth[0].drvh [AXI_SLAVE_DRIVER_WRITE_RESPONSE] Data from the Drive_Write_response Task for AXI Slave
---------------------------------------
Name         Type      Size  Value     
---------------------------------------
xtn          axi_xtn   -     @2530     
  AWID       integral  8     'd0       
  AWADDR     integral  32    'h692816  
  AWLEN      integral  8     'd2       
  AWSIZE     integral  3     'd2       
  AWBURST    integral  2     'd1       
  AWVALID    integral  1     1         
  AWREADY    integral  1     'd0       
  AWLOCK     integral  1     'd0       
  AWCACHE    integral  4     8         
  AWQOS      integral  4     'd0       
  AWPROT     integral  3     5         
  AWUSER     integral  1     'd0       
  WID        integral  8     'd0       
  w_addr[0]  integral  32    'h692816  
  w_addr[1]  integral  32    'h692818  
  w_addr[2]  integral  32    'h69281c  
  WDATA[0]   integral  32    'haa8dce9d
  WDATA[1]   integral  32    'hb309b1ea
  WDATA[2]   integral  32    'h61e02d82
  WSTRB[0]   integral  4     'b1100    
  WSTRB[1]   integral  4     'b1111    
  WSTRB[2]   integral  4     'b1111    
  WLAST      integral  1     'd0       
  WVALID     integral  1     'd0       
  WREADY     integral  1     'd0       
  WUSER      integral  1     'd0       
  BID        integral  8     'd0       
  BRESP      integral  2     'd0       
  BVALID     integral  1     'd0       
  BREADY     integral  1     'd0       
  BUSER      integral  1     'd0       
  ARID       integral  8     'd0       
  ARADDR     integral  32    'h0       
  ARLEN      integral  8     'd0       
  ARSIZE     integral  3     'd0       
  ARBURST    integral  2     'd0       
  ARVALID    integral  1     'd0       
  ARREADY    integral  1     'd0       
  ARLOCK     integral  1     'd0       
  ARCACHE    integral  4     'd0       
  ARQOS      integral  4     'd0       
  ARPROT     integral  3     'd0       
  ARUSER     integral  1     'd0       
  RID        integral  4     'd0       
  RLAST      integral  1     'd0       
  RVALID     integral  1     'd0       
  RREADY     integral  1     'd0       
  RUSER      integral  1     'd0       
---------------------------------------
UVM_INFO ../master_agent/master_monitor.sv(204) @ 295000: uvm_test_top.axi_env.mast_agt_top.agnth[0].monh [AXI_MASTER_Monitor_Read_Address_Collect] Displaying Data from AXI Master Monior Read Address Collect
-----------------------------------
Name       Type      Size  Value   
-----------------------------------
xtn3       axi_xtn   -     @2485   
  AWID     integral  8     'd0     
  AWADDR   integral  32    'h0     
  AWLEN    integral  8     'd0     
  AWSIZE   integral  3     'd0     
  AWBURST  integral  2     'd0     
  AWVALID  integral  1     'd0     
  AWREADY  integral  1     'd0     
  AWLOCK   integral  1     'd0     
  AWCACHE  integral  4     'd0     
  AWQOS    integral  4     'd0     
  AWPROT   integral  3     'd0     
  AWUSER   integral  1     'd0     
  WID      integral  8     'd0     
  WLAST    integral  1     'd0     
  WVALID   integral  1     'd0     
  WREADY   integral  1     'd0     
  WUSER    integral  1     'd0     
  BID      integral  8     'd0     
  BRESP    integral  2     'd0     
  BVALID   integral  1     'd0     
  BREADY   integral  1     'd0     
  BUSER    integral  1     'd0     
  ARID     integral  8     242     
  ARADDR   integral  32    'h130f54
  ARLEN    integral  8     'd1     
  ARSIZE   integral  3     'd0     
  ARBURST  integral  2     2       
  ARVALID  integral  1     'd0     
  ARREADY  integral  1     'd0     
  ARLOCK   integral  1     1       
  ARCACHE  integral  4     'd0     
  ARQOS    integral  4     9       
  ARPROT   integral  3     4       
  ARUSER   integral  1     'd0     
  RID      integral  4     'd0     
  RLAST    integral  1     'd0     
  RVALID   integral  1     'd0     
  RREADY   integral  1     'd0     
  RUSER    integral  1     'd0     
-----------------------------------
UVM_INFO ../master_agent/master_driver.sv(222) @ 305000: uvm_test_top.axi_env.mast_agt_top.agnth[0].drvh [AXI_MASTER_DRIVER_READ_ADDRESS] Displaying Data from Master Driver Drive_Read_address channel
----------------------------------------------------------------------------------------------------------
Name                           Type      Size  Value                                                      
----------------------------------------------------------------------------------------------------------
req                            axi_xtn   -     @2504                                                      
  begin_time                   time      64    0                                                          
  end_time                     time      64    55000                                                      
  depth                        int       32    'd2                                                        
  parent sequence (name)       string    10    mast_seqh0                                                 
  parent sequence (full name)  string    59    uvm_test_top.axi_env.mast_agt_top.agnth[0].seqrh.mast_seqh0
  sequencer                    string    48    uvm_test_top.axi_env.mast_agt_top.agnth[0].seqrh           
  AWID                         integral  8     159                                                        
  AWADDR                       integral  32    'h692816                                                   
  AWLEN                        integral  8     'd2                                                        
  AWSIZE                       integral  3     'd2                                                        
  AWBURST                      integral  2     'd1                                                        
  AWVALID                      integral  1     'd0                                                        
  AWREADY                      integral  1     1                                                          
  AWLOCK                       integral  1     'd0                                                        
  AWCACHE                      integral  4     8                                                          
  AWQOS                        integral  4     'd0                                                        
  AWPROT                       integral  3     5                                                          
  AWUSER                       integral  1     'd0                                                        
  WID                          integral  8     159                                                        
  w_addr[0]                    integral  32    'h692816                                                   
  w_addr[1]                    integral  32    'h692818                                                   
  w_addr[2]                    integral  32    'h69281c                                                   
  WDATA[0]                     integral  32    'haa8dce9d                                                 
  WDATA[1]                     integral  32    'hb309b1ea                                                 
  WDATA[2]                     integral  32    'h61e02d82                                                 
  WSTRB[0]                     integral  4     'b1100                                                     
  WSTRB[1]                     integral  4     'b1111                                                     
  WSTRB[2]                     integral  4     'b1111                                                     
  WLAST                        integral  1     'd0                                                        
  WVALID                       integral  1     'd0                                                        
  WREADY                       integral  1     1                                                          
  WUSER                        integral  1     'd0                                                        
  BID                          integral  8     159                                                        
  BRESP                        integral  2     'd0                                                        
  BVALID                       integral  1     'd0                                                        
  BREADY                       integral  1     1                                                          
  BUSER                        integral  1     'd0                                                        
  ARID                         integral  8     242                                                        
  ARADDR                       integral  32    'h130f54                                                   
  ARLEN                        integral  8     'd1                                                        
  ARSIZE                       integral  3     'd0                                                        
  ARBURST                      integral  2     2                                                          
  ARVALID                      integral  1     'd0                                                        
  ARREADY                      integral  1     'd0                                                        
  ARLOCK                       integral  1     1                                                          
  ARCACHE                      integral  4     'd0                                                        
  ARQOS                        integral  4     9                                                          
  ARPROT                       integral  3     4                                                          
  ARUSER                       integral  1     'd0                                                        
  RID                          integral  4     'd2                                                        
  r_addr[0]                    integral  32    'h130f54                                                   
  r_addr[1]                    integral  32    'h130f55                                                   
  RDATA[0]                     integral  32    'h9bb95011                                                 
  RDATA[1]                     integral  32    'h9c53e247                                                 
  RRESP[0]                     integral  2     3                                                          
  RRESP[1]                     integral  2     'd1                                                        
  RLAST                        integral  1     'd0                                                        
  RVALID                       integral  1     1                                                          
  RREADY                       integral  1     1                                                          
  RUSER                        integral  1     'd0                                                        
----------------------------------------------------------------------------------------------------------
UVM_INFO ../slave_agent/slave_monitor.sv(207) @ 315000: uvm_test_top.axi_env.slv_agt_top.agnth[0].monh [AXI_SLAVE_Monitor_Read_Address_Collect] Displaying Data from AXI Slave Monior Read Address Collect
-----------------------------------
Name       Type      Size  Value   
-----------------------------------
xtn3       axi_xtn   -     @2445   
  AWID     integral  8     'd0     
  AWADDR   integral  32    'h0     
  AWLEN    integral  8     'd0     
  AWSIZE   integral  3     'd0     
  AWBURST  integral  2     'd0     
  AWVALID  integral  1     'd0     
  AWREADY  integral  1     'd0     
  AWLOCK   integral  1     'd0     
  AWCACHE  integral  4     'd0     
  AWQOS    integral  4     'd0     
  AWPROT   integral  3     'd0     
  AWUSER   integral  1     'd0     
  WID      integral  8     'd0     
  WLAST    integral  1     'd0     
  WVALID   integral  1     'd0     
  WREADY   integral  1     'd0     
  WUSER    integral  1     'd0     
  BID      integral  8     'd0     
  BRESP    integral  2     'd0     
  BVALID   integral  1     'd0     
  BREADY   integral  1     'd0     
  BUSER    integral  1     'd0     
  ARID     integral  8     'd0     
  ARADDR   integral  32    'h130f54
  ARLEN    integral  8     'd1     
  ARSIZE   integral  3     'd0     
  ARBURST  integral  2     2       
  ARVALID  integral  1     'd0     
  ARREADY  integral  1     'd0     
  ARLOCK   integral  1     1       
  ARCACHE  integral  4     'd0     
  ARQOS    integral  4     9       
  ARPROT   integral  3     4       
  ARUSER   integral  1     'd0     
  RID      integral  4     'd0     
  RLAST    integral  1     'd0     
  RVALID   integral  1     'd0     
  RREADY   integral  1     'd0     
  RUSER    integral  1     'd0     
-----------------------------------
UVM_INFO ../slave_agent/slave_driver.sv(249) @ 355000: uvm_test_top.axi_env.slv_agt_top.agnth[0].drvh [AXI_SLAVE_DRIVER_READ_ADDRESS] Data from the Drive_read_address Task for AXI Slave
-----------------------------------
Name       Type      Size  Value   
-----------------------------------
xtn        axi_xtn   -     @2534   
  AWID     integral  8     'd0     
  AWADDR   integral  32    'h0     
  AWLEN    integral  8     'd0     
  AWSIZE   integral  3     'd0     
  AWBURST  integral  2     'd0     
  AWVALID  integral  1     'd0     
  AWREADY  integral  1     'd0     
  AWLOCK   integral  1     'd0     
  AWCACHE  integral  4     'd0     
  AWQOS    integral  4     'd0     
  AWPROT   integral  3     'd0     
  AWUSER   integral  1     'd0     
  WID      integral  8     'd0     
  WLAST    integral  1     'd0     
  WVALID   integral  1     'd0     
  WREADY   integral  1     'd0     
  WUSER    integral  1     'd0     
  BID      integral  8     'd0     
  BRESP    integral  2     'd0     
  BVALID   integral  1     'd0     
  BREADY   integral  1     'd0     
  BUSER    integral  1     'd0     
  ARID     integral  8     'd0     
  ARADDR   integral  32    'h130f54
  ARLEN    integral  8     'd1     
  ARSIZE   integral  3     'd0     
  ARBURST  integral  2     2       
  ARVALID  integral  1     'd0     
  ARREADY  integral  1     'd0     
  ARLOCK   integral  1     1       
  ARCACHE  integral  4     'd0     
  ARQOS    integral  4     9       
  ARPROT   integral  3     4       
  ARUSER   integral  1     'd0     
  RID      integral  4     'd0     
  RLAST    integral  1     'd0     
  RVALID   integral  1     'd0     
  RREADY   integral  1     'd0     
  RUSER    integral  1     'd0     
-----------------------------------
UVM_INFO ../slave_agent/slave_monitor.sv(235) @ 415000: uvm_test_top.axi_env.slv_agt_top.agnth[0].monh [AXI_SLAVE_Monitor_Read_Data_Collect] Displaying Data from AXI Slave Monior Read Data Collect
---------------------------------------
Name         Type      Size  Value     
---------------------------------------
xtn3         axi_xtn   -     @2445     
  AWID       integral  8     'd0       
  AWADDR     integral  32    'h0       
  AWLEN      integral  8     'd0       
  AWSIZE     integral  3     'd0       
  AWBURST    integral  2     'd0       
  AWVALID    integral  1     'd0       
  AWREADY    integral  1     'd0       
  AWLOCK     integral  1     'd0       
  AWCACHE    integral  4     'd0       
  AWQOS      integral  4     'd0       
  AWPROT     integral  3     'd0       
  AWUSER     integral  1     'd0       
  WID        integral  8     'd0       
  WLAST      integral  1     'd0       
  WVALID     integral  1     'd0       
  WREADY     integral  1     'd0       
  WUSER      integral  1     'd0       
  BID        integral  8     'd0       
  BRESP      integral  2     'd0       
  BVALID     integral  1     'd0       
  BREADY     integral  1     'd0       
  BUSER      integral  1     'd0       
  ARID       integral  8     'd0       
  ARADDR     integral  32    'h130f54  
  ARLEN      integral  8     'd1       
  ARSIZE     integral  3     'd0       
  ARBURST    integral  2     2         
  ARVALID    integral  1     'd0       
  ARREADY    integral  1     'd0       
  ARLOCK     integral  1     1         
  ARCACHE    integral  4     'd0       
  ARQOS      integral  4     9         
  ARPROT     integral  3     4         
  ARUSER     integral  1     'd0       
  RID        integral  4     'd0       
  r_addr[0]  integral  32    'h130f54  
  r_addr[1]  integral  32    'h130f55  
  RDATA[0]   integral  32    'h381a0108
  RDATA[1]   integral  32    'h1e42986d
  RRESP[0]   integral  2     'd0       
  RRESP[1]   integral  2     'd0       
  RLAST      integral  1     1         
  RVALID     integral  1     'd0       
  RREADY     integral  1     'd0       
  RUSER      integral  1     'd0       
---------------------------------------
UVM_INFO ../tb/scoreboard.sv(683) @ 415000: uvm_test_top.axi_env.sb_h [AXI_SCOREBORD-Run_Phase] Data from scoreboard -Slave  Data
---------------------------------------
Name         Type      Size  Value     
---------------------------------------
xtn3         axi_xtn   -     @2445     
  AWID       integral  8     'd0       
  AWADDR     integral  32    'h0       
  AWLEN      integral  8     'd0       
  AWSIZE     integral  3     'd0       
  AWBURST    integral  2     'd0       
  AWVALID    integral  1     'd0       
  AWREADY    integral  1     'd0       
  AWLOCK     integral  1     'd0       
  AWCACHE    integral  4     'd0       
  AWQOS      integral  4     'd0       
  AWPROT     integral  3     'd0       
  AWUSER     integral  1     'd0       
  WID        integral  8     'd0       
  WLAST      integral  1     'd0       
  WVALID     integral  1     'd0       
  WREADY     integral  1     'd0       
  WUSER      integral  1     'd0       
  BID        integral  8     'd0       
  BRESP      integral  2     'd0       
  BVALID     integral  1     'd0       
  BREADY     integral  1     'd0       
  BUSER      integral  1     'd0       
  ARID       integral  8     'd0       
  ARADDR     integral  32    'h130f54  
  ARLEN      integral  8     'd1       
  ARSIZE     integral  3     'd0       
  ARBURST    integral  2     2         
  ARVALID    integral  1     'd0       
  ARREADY    integral  1     'd0       
  ARLOCK     integral  1     1         
  ARCACHE    integral  4     'd0       
  ARQOS      integral  4     9         
  ARPROT     integral  3     4         
  ARUSER     integral  1     'd0       
  RID        integral  4     'd0       
  r_addr[0]  integral  32    'h130f54  
  r_addr[1]  integral  32    'h130f55  
  RDATA[0]   integral  32    'h381a0108
  RDATA[1]   integral  32    'h1e42986d
  RRESP[0]   integral  2     'd0       
  RRESP[1]   integral  2     'd0       
  RLAST      integral  1     1         
  RVALID     integral  1     'd0       
  RREADY     integral  1     'd0       
  RUSER      integral  1     'd0       
---------------------------------------
UVM_INFO ../master_agent/master_driver.sv(253) @ 425000: uvm_test_top.axi_env.mast_agt_top.agnth[0].drvh [AXI_MASTER_DRIVER_READ_DATA] Displaying Data from Master Driver Drive_Read_data channel
----------------------------------------------------------------------------------------------------------
Name                           Type      Size  Value                                                      
----------------------------------------------------------------------------------------------------------
req                            axi_xtn   -     @2504                                                      
  begin_time                   time      64    0                                                          
  end_time                     time      64    55000                                                      
  depth                        int       32    'd2                                                        
  parent sequence (name)       string    10    mast_seqh0                                                 
  parent sequence (full name)  string    59    uvm_test_top.axi_env.mast_agt_top.agnth[0].seqrh.mast_seqh0
  sequencer                    string    48    uvm_test_top.axi_env.mast_agt_top.agnth[0].seqrh           
  AWID                         integral  8     159                                                        
  AWADDR                       integral  32    'h692816                                                   
  AWLEN                        integral  8     'd2                                                        
  AWSIZE                       integral  3     'd2                                                        
  AWBURST                      integral  2     'd1                                                        
  AWVALID                      integral  1     'd0                                                        
  AWREADY                      integral  1     1                                                          
  AWLOCK                       integral  1     'd0                                                        
  AWCACHE                      integral  4     8                                                          
  AWQOS                        integral  4     'd0                                                        
  AWPROT                       integral  3     5                                                          
  AWUSER                       integral  1     'd0                                                        
  WID                          integral  8     159                                                        
  w_addr[0]                    integral  32    'h692816                                                   
  w_addr[1]                    integral  32    'h692818                                                   
  w_addr[2]                    integral  32    'h69281c                                                   
  WDATA[0]                     integral  32    'haa8dce9d                                                 
  WDATA[1]                     integral  32    'hb309b1ea                                                 
  WDATA[2]                     integral  32    'h61e02d82                                                 
  WSTRB[0]                     integral  4     'b1100                                                     
  WSTRB[1]                     integral  4     'b1111                                                     
  WSTRB[2]                     integral  4     'b1111                                                     
  WLAST                        integral  1     'd0                                                        
  WVALID                       integral  1     'd0                                                        
  WREADY                       integral  1     1                                                          
  WUSER                        integral  1     'd0                                                        
  BID                          integral  8     159                                                        
  BRESP                        integral  2     'd0                                                        
  BVALID                       integral  1     'd0                                                        
  BREADY                       integral  1     1                                                          
  BUSER                        integral  1     'd0                                                        
  ARID                         integral  8     242                                                        
  ARADDR                       integral  32    'h130f54                                                   
  ARLEN                        integral  8     'd1                                                        
  ARSIZE                       integral  3     'd0                                                        
  ARBURST                      integral  2     2                                                          
  ARVALID                      integral  1     'd0                                                        
  ARREADY                      integral  1     'd0                                                        
  ARLOCK                       integral  1     1                                                          
  ARCACHE                      integral  4     'd0                                                        
  ARQOS                        integral  4     9                                                          
  ARPROT                       integral  3     4                                                          
  ARUSER                       integral  1     'd0                                                        
  RID                          integral  4     'd2                                                        
  r_addr[0]                    integral  32    'h130f54                                                   
  r_addr[1]                    integral  32    'h130f55                                                   
  RDATA[0]                     integral  32    'h0                                                        
  RDATA[1]                     integral  32    'h0                                                        
  RRESP[0]                     integral  2     3                                                          
  RRESP[1]                     integral  2     'd1                                                        
  RLAST                        integral  1     'd0                                                        
  RVALID                       integral  1     1                                                          
  RREADY                       integral  1     1                                                          
  RUSER                        integral  1     'd0                                                        
----------------------------------------------------------------------------------------------------------
