# vsim -vopt -voptargs="+acc" -coverage -sva -c -do " log -r /* ;coverage save -onexit mem_cov4;run -all; exit" -wlf wave_file4.wlf -l test4.log -sv_seed random work.top "+UVM_TESTNAME=random_seq_test" 
# Start time: 16:13:39 on Feb 17,2023
# ** Note: (vsim-8009) Loading existing optimized design _opt
# //  Questa Sim
# //  Version 2022.1 linux Jan 29 2022
# //
# //  Copyright 1991-2022 Mentor Graphics Corporation
# //  All Rights Reserved.
# //
# //  QuestaSim and its associated documentation contain trade
# //  secrets and commercial or financial information that are the property of
# //  Mentor Graphics Corporation and are privileged, confidential,
# //  and exempt from disclosure under the Freedom of Information Act,
# //  5 U.S.C. Section 552. Furthermore, this information
# //  is prohibited from disclosure under the Trade Secrets Act,
# //  18 U.S.C. Section 1905.
# //
# Loading sv_std.std
# Loading work.axi_if(fast)
# Loading mtiUvm.uvm_pkg(fast)
# Loading work.axi_test_pkg(fast)
# Loading mtiUvm.questa_uvm_pkg(fast)
# Loading work.top(fast)
# Loading work.axi_if(fast__2)
# Loading /home/cad/eda/Questa-sim/questasim/uvm-1.1d/linux/uvm_dpi.so
# ** Warning: (vsim-8634) Code was not compiled with coverage options.
# Sv_Seed = 2409924201
#  log -r /* 
# coverage save -onexit mem_cov4
# run -all
# ----------------------------------------------------------------
# UVM-1.1d
# (C) 2007-2013 Mentor Graphics Corporation
# (C) 2007-2013 Cadence Design Systems, Inc.
# (C) 2006-2013 Synopsys, Inc.
# (C) 2011-2013 Cypress Semiconductor Corp.
# ----------------------------------------------------------------
# 
#   ***********       IMPORTANT RELEASE NOTES         ************
# 
#   You are using a version of the UVM library that has been compiled
#   with `UVM_NO_DEPRECATED undefined.
#   See http://www.eda.org/svdb/view.php?id=3313 for more details.
# 
#   You are using a version of the UVM library that has been compiled
#   with `UVM_OBJECT_MUST_HAVE_CONSTRUCTOR undefined.
#   See http://www.eda.org/svdb/view.php?id=3770 for more details.
# 
#       (Specify +UVM_NO_RELNOTES to turn off this notice)
# 
# UVM_INFO verilog_src/questa_uvm_pkg-1.2/src/questa_uvm_pkg.sv(277) @ 0: reporter [Questa UVM] QUESTA_UVM-1.2.3
# UVM_INFO verilog_src/questa_uvm_pkg-1.2/src/questa_uvm_pkg.sv(278) @ 0: reporter [Questa UVM]  questa_uvm::init(+struct)
# UVM_INFO @ 0: reporter [RNTST] Running test random_seq_test...
# start of read_awaddr
# start of slave_raddr
# start of drive_awaddr
# start of drive_raddr
# UVM_INFO ../master_agent_top/master_monitor.sv(111) @ 15: uvm_test_top.env_h.mst_agt_top.mst_agt_h[0].mst_mon_h [MST_MONITOR] printing from master monitor collect_awaddr 
#  -------------------------------------
# Name       Type      Size  Value     
# -------------------------------------
# xtn        axi_xtn   -     @1099     
#   AWID     integral  4     'd0       
#   AWADDR   integral  32    'hb8f3bd38
#   AWLEN    integral  4     'd7       
#   AWSIZE   integral  3     'd0       
#   AWBURST  integral  2     'd0       
#   WID      integral  4     'd0       
#   BID      integral  4     'd0       
#   BRESP    integral  2     'd0       
#   ARID     integral  4     'd0       
#   ARADDR   integral  32    'h0       
#   ARLEN    integral  8     'd0       
#   ARSIZE   integral  3     'd0       
#   ARBURST  integral  2     'd0       
#   RID      integral  4     'd0       
# -------------------------------------
# 
# UVM_INFO ../slave_agent_top/slave_monitor.sv(110) @ 15: uvm_test_top.env_h.slv_agt_top.slv_agt_h[0].slv_mon_h [slv_monitor] printing from slave monitor collect_awaddr 
#  -------------------------------------
# Name       Type      Size  Value     
# -------------------------------------
# xtn        axi_xtn   -     @1081     
#   AWID     integral  4     'd0       
#   AWADDR   integral  32    'hb8f3bd38
#   AWLEN    integral  4     'd7       
#   AWSIZE   integral  3     'd0       
#   AWBURST  integral  2     'd0       
#   WID      integral  4     'd0       
#   BID      integral  4     'd0       
#   BRESP    integral  2     'd0       
#   ARID     integral  4     'd0       
#   ARADDR   integral  32    'h0       
#   ARLEN    integral  8     'd0       
#   ARSIZE   integral  3     'd0       
#   ARBURST  integral  2     'd0       
#   RID      integral  4     'd0       
# -------------------------------------
# 
# ** Warning: (vsim-8630) Infinity results from division operation.
#    Time: 25 ns  Iteration: 3  Process: /axi_test_pkg::master_monitor::collect_data/#FORK#66_f6aa303 File: ../tb/axi_xtn.sv Line: 130
# ** Warning: (vsim-8630) Infinity results from division operation.
#    Time: 25 ns  Iteration: 3  Process: /axi_test_pkg::slave_monitor::collect_data/#FORK#66_f68a174 File: ../tb/axi_xtn.sv Line: 130
# inside drive_raddr before wait ARREADY
# end of drive_awaddr
# -----------------------------------------------------------------------------------------------------------
# Name                           Type      Size  Value                                                       
# -----------------------------------------------------------------------------------------------------------
# req                            axi_xtn   -     @1113                                                       
#   begin_time                   time      64    0                                                           
#   depth                        int       32    'd2                                                         
#   parent sequence (name)       string    5     m_seq                                                       
#   parent sequence (full name)  string    60    uvm_test_top.env_h.mst_agt_top.mst_agt_h[0].mst_seqr_h.m_seq
#   sequencer                    string    54    uvm_test_top.env_h.mst_agt_top.mst_agt_h[0].mst_seqr_h      
#   AWID                         integral  4     'd0                                                         
#   AWADDR                       integral  32    'hb8f3bd38                                                  
#   AWLEN                        integral  4     'd7                                                         
#   AWSIZE                       integral  3     'd0                                                         
#   AWBURST                      integral  2     'd0                                                         
#   WID                          integral  4     'd0                                                         
#   WDATA                        integral  32    'h252b70f3                                                  
#   WSTRB                        integral  4     'b1                                                         
#   WLAST                        integral  1     'dX                                                         
#   WDATA                        integral  32    'h31f46de5                                                  
#   WSTRB                        integral  4     'b1                                                         
#   WLAST                        integral  1     'dX                                                         
#   WDATA                        integral  32    'hb86dfaa1                                                  
#   WSTRB                        integral  4     'b1                                                         
#   WLAST                        integral  1     'dX                                                         
#   WDATA                        integral  32    'h619ab682                                                  
#   WSTRB                        integral  4     'b1                                                         
#   WLAST                        integral  1     'dX                                                         
#   WDATA                        integral  32    'h4f538010                                                  
#   WSTRB                        integral  4     'b1                                                         
#   WLAST                        integral  1     'dX                                                         
#   WDATA                        integral  32    'hae5cfb49                                                  
#   WSTRB                        integral  4     'b1                                                         
#   WLAST                        integral  1     'dX                                                         
#   WDATA                        integral  32    'h4556d779                                                  
#   WSTRB                        integral  4     'b1                                                         
#   WLAST                        integral  1     'dX                                                         
#   WDATA                        integral  32    'hb1edfb09                                                  
#   WSTRB                        integral  4     'b1                                                         
#   WLAST                        integral  1     'dX                                                         
#   BID                          integral  4     'd0                                                         
#   BRESP                        integral  2     'd0                                                         
#   ARID                         integral  4     'd4                                                         
#   ARADDR                       integral  32    'h1bf69146                                                  
#   ARLEN                        integral  8     'd15                                                        
#   ARSIZE                       integral  3     'd0                                                         
#   ARBURST                      integral  2     2                                                           
#   RID                          integral  4     'd4                                                         
#   RDATA                        integral  32    'h51a11536                                                  
#   RRESP                        integral  2     'd0                                                         
#   RDATA                        integral  32    'h29c7067                                                   
#   RRESP                        integral  2     'd0                                                         
#   RDATA                        integral  32    'h3fcf5b41                                                  
#   RRESP                        integral  2     'd0                                                         
#   RDATA                        integral  32    'hb4488d15                                                  
#   RRESP                        integral  2     'd0                                                         
#   RDATA                        integral  32    'h8ae2111b                                                  
#   RRESP                        integral  2     'd0                                                         
#   RDATA                        integral  32    'h7a25a0ae                                                  
#   RRESP                        integral  2     'd0                                                         
#   RDATA                        integral  32    'hd7447ba9                                                  
#   RRESP                        integral  2     'd0                                                         
#   RDATA                        integral  32    'hf9a470b                                                   
#   RRESP                        integral  2     'd0                                                         
#   RDATA                        integral  32    'h2ada8d8a                                                  
#   RRESP                        integral  2     'd0                                                         
#   RDATA                        integral  32    'h45a21da4                                                  
#   RRESP                        integral  2     'd0                                                         
#   RDATA                        integral  32    'h2b130b9c                                                  
#   RRESP                        integral  2     'd0                                                         
#   RDATA                        integral  32    'hd89b5e10                                                  
#   RRESP                        integral  2     'd0                                                         
#   RDATA                        integral  32    'hbf9af425                                                  
#   RRESP                        integral  2     'd0                                                         
#   RDATA                        integral  32    'hfac982b6                                                  
#   RRESP                        integral  2     'd0                                                         
#   RDATA                        integral  32    'h4d05b89c                                                  
#   RRESP                        integral  2     'd0                                                         
#   RDATA                        integral  32    'hc5feea88                                                  
#   RRESP                        integral  2     'd0                                                         
# -----------------------------------------------------------------------------------------------------------
# UVM_INFO ../master_agent_top/master_monitor.sv(188) @ 65: uvm_test_top.env_h.mst_agt_top.mst_agt_h[0].mst_mon_h [MST_MONITOR] printing from master monitor collect_raddr 
#  -------------------------------------
# Name       Type      Size  Value     
# -------------------------------------
# xtn3       axi_xtn   -     @1103     
#   AWID     integral  4     'd0       
#   AWADDR   integral  32    'h0       
#   AWLEN    integral  4     'd0       
#   AWSIZE   integral  3     'd0       
#   AWBURST  integral  2     'd0       
#   WID      integral  4     'd0       
#   BID      integral  4     'd0       
#   BRESP    integral  2     'd0       
#   ARID     integral  4     'd4       
#   ARADDR   integral  32    'h1bf69146
#   ARLEN    integral  8     'd15      
#   ARSIZE   integral  3     'd0       
#   ARBURST  integral  2     2         
#   RID      integral  4     'd0       
# -------------------------------------
# 
# end of read_awaddr
# start of read_awaddr
# end of slave_raddr
# UVM_INFO ../slave_agent_top/slave_monitor.sv(184) @ 65: uvm_test_top.env_h.slv_agt_top.slv_agt_h[0].slv_mon_h [slv_monitor] printing from slave monitor collect_raddr 
#  -------------------------------------
# Name       Type      Size  Value     
# -------------------------------------
# xtn3       axi_xtn   -     @1085     
#   AWID     integral  4     'd0       
#   AWADDR   integral  32    'h0       
#   AWLEN    integral  4     'd0       
#   AWSIZE   integral  3     'd0       
#   AWBURST  integral  2     'd0       
#   WID      integral  4     'd0       
#   BID      integral  4     'd0       
#   BRESP    integral  2     'd0       
#   ARID     integral  4     'd4       
#   ARADDR   integral  32    'h1bf69146
#   ARLEN    integral  8     'd15      
#   ARSIZE   integral  3     'd0       
#   ARBURST  integral  2     2         
#   RID      integral  4     'd0       
# -------------------------------------
# 
# start of drive_wdata
# ** Warning: (vsim-8630) Infinity results from division operation.
#    Time: 65 ns  Iteration: 3  Process: /axi_test_pkg::master_monitor::collect_data/#FORK#88_f6aa4af File: ../tb/axi_xtn.sv Line: 200
# start of read_data
# ** Warning: (vsim-8630) Infinity results from division operation.
#    Time: 65 ns  Iteration: 3  Process: /axi_test_pkg::slave_driver::drive/#FORK#72_f68a142 File: ../tb/axi_xtn.sv Line: 130
# aligned:b8f3bd38
# addresses calculated in slave side are '{b8f3bd38, b8f3bd38, b8f3bd38, b8f3bd38, b8f3bd38, b8f3bd38, b8f3bd38, b8f3bd38}
# start of slave_raddr
# start of slave_rdata
# ** Warning: (vsim-8630) Infinity results from division operation.
#    Time: 65 ns  Iteration: 3  Process: /axi_test_pkg::slave_monitor::collect_data/#FORK#88_f68a19a File: ../tb/axi_xtn.sv Line: 200
# start of drive_awaddr
# slave driver start of awvalid
# WSTRB in slave driver is:1
# value inside mem is: 000000f3
# end of drive_raddr
# start of drive_raddr
# start of drive_rdata
# UVM_INFO ../master_agent_top/master_monitor.sv(111) @ 115: uvm_test_top.env_h.mst_agt_top.mst_agt_h[0].mst_mon_h [MST_MONITOR] printing from master monitor collect_awaddr 
#  -------------------------------------
# Name       Type      Size  Value     
# -------------------------------------
# xtn        axi_xtn   -     @1189     
#   AWID     integral  4     'd0       
#   AWADDR   integral  32    'hfe83ebe8
#   AWLEN    integral  4     13        
#   AWSIZE   integral  3     'd2       
#   AWBURST  integral  2     'd0       
#   WID      integral  4     'd0       
#   BID      integral  4     'd0       
#   BRESP    integral  2     'd0       
#   ARID     integral  4     'd0       
#   ARADDR   integral  32    'h0       
#   ARLEN    integral  8     'd0       
#   ARSIZE   integral  3     'd0       
#   ARBURST  integral  2     'd0       
#   RID      integral  4     'd0       
# -------------------------------------
# 
# UVM_INFO ../slave_agent_top/slave_monitor.sv(110) @ 115: uvm_test_top.env_h.slv_agt_top.slv_agt_h[0].slv_mon_h [slv_monitor] printing from slave monitor collect_awaddr 
#  -------------------------------------
# Name       Type      Size  Value     
# -------------------------------------
# xtn        axi_xtn   -     @1193     
#   AWID     integral  4     'd0       
#   AWADDR   integral  32    'hfe83ebe8
#   AWLEN    integral  4     13        
#   AWSIZE   integral  3     'd2       
#   AWBURST  integral  2     'd0       
#   WID      integral  4     'd0       
#   BID      integral  4     'd0       
#   BRESP    integral  2     'd0       
#   ARID     integral  4     'd0       
#   ARADDR   integral  32    'h0       
#   ARLEN    integral  8     'd0       
#   ARSIZE   integral  3     'd0       
#   ARBURST  integral  2     'd0       
#   RID      integral  4     'd0       
# -------------------------------------
# 
# end of read_awaddr
# start of read_awaddr
# slave driver start of awvalid
# WSTRB in slave driver is:1
# value inside mem is: 000000e5
# end of drive_awaddr
# -----------------------------------------------------------------------------------------------------------
# Name                           Type      Size  Value                                                       
# -----------------------------------------------------------------------------------------------------------
# req                            axi_xtn   -     @1210                                                       
#   begin_time                   time      64    65                                                          
#   depth                        int       32    'd2                                                         
#   parent sequence (name)       string    5     m_seq                                                       
#   parent sequence (full name)  string    60    uvm_test_top.env_h.mst_agt_top.mst_agt_h[0].mst_seqr_h.m_seq
#   sequencer                    string    54    uvm_test_top.env_h.mst_agt_top.mst_agt_h[0].mst_seqr_h      
#   AWID                         integral  4     'd0                                                         
#   AWADDR                       integral  32    'hfe83ebe8                                                  
#   AWLEN                        integral  4     13                                                          
#   AWSIZE                       integral  3     'd2                                                         
#   AWBURST                      integral  2     'd0                                                         
#   WID                          integral  4     'd0                                                         
#   WDATA                        integral  32    'h4f8ddfce                                                  
#   WSTRB                        integral  4     'b1111                                                      
#   WLAST                        integral  1     'dX                                                         
#   WDATA                        integral  32    'hfbe07d5c                                                  
#   WSTRB                        integral  4     'b1111                                                      
#   WLAST                        integral  1     'dX                                                         
#   WDATA                        integral  32    'h9b3cb4d0                                                  
#   WSTRB                        integral  4     'b1111                                                      
#   WLAST                        integral  1     'dX                                                         
#   WDATA                        integral  32    'hd785f949                                                  
#   WSTRB                        integral  4     'b1111                                                      
#   WLAST                        integral  1     'dX                                                         
#   WDATA                        integral  32    'hc79f141                                                   
#   WSTRB                        integral  4     'b1111                                                      
#   WLAST                        integral  1     'dX                                                         
#   WDATA                        integral  32    'h492a583e                                                  
#   WSTRB                        integral  4     'b1111                                                      
#   WLAST                        integral  1     'dX                                                         
#   WDATA                        integral  32    'h12f291d                                                   
#   WSTRB                        integral  4     'b1111                                                      
#   WLAST                        integral  1     'dX                                                         
#   WDATA                        integral  32    'hec1b2076                                                  
#   WSTRB                        integral  4     'b1111                                                      
#   WLAST                        integral  1     'dX                                                         
#   WDATA                        integral  32    'h4ec66cc1                                                  
#   WSTRB                        integral  4     'b1111                                                      
#   WLAST                        integral  1     'dX                                                         
#   WDATA                        integral  32    'hadc4a2f7                                                  
#   WSTRB                        integral  4     'b1111                                                      
#   WLAST                        integral  1     'dX                                                         
#   WDATA                        integral  32    'h1ec5ea7a                                                  
#   WSTRB                        integral  4     'b1111                                                      
#   WLAST                        integral  1     'dX                                                         
#   WDATA                        integral  32    'hfbfd8875                                                  
#   WSTRB                        integral  4     'b1111                                                      
#   WLAST                        integral  1     'dX                                                         
#   WDATA                        integral  32    'h636464cc                                                  
#   WSTRB                        integral  4     'b1111                                                      
#   WLAST                        integral  1     'dX                                                         
#   WDATA                        integral  32    'h86ec4b0d                                                  
#   WSTRB                        integral  4     'b1111                                                      
#   WLAST                        integral  1     'dX                                                         
#   BID                          integral  4     'd0                                                         
#   BRESP                        integral  2     'd0                                                         
#   ARID                         integral  4     15                                                          
#   ARADDR                       integral  32    'h8990a0ed                                                  
#   ARLEN                        integral  8     'd9                                                         
#   ARSIZE                       integral  3     'd0                                                         
#   ARBURST                      integral  2     'd1                                                         
#   RID                          integral  4     15                                                          
#   RDATA                        integral  32    'h9f8c0cb2                                                  
#   RRESP                        integral  2     'd0                                                         
#   RDATA                        integral  32    'hfa7b991f                                                  
#   RRESP                        integral  2     'd0                                                         
#   RDATA                        integral  32    'ha56c6c62                                                  
#   RRESP                        integral  2     'd0                                                         
#   RDATA                        integral  32    'hd7f9a266                                                  
#   RRESP                        integral  2     'd0                                                         
#   RDATA                        integral  32    'h4fb69f29                                                  
#   RRESP                        integral  2     'd0                                                         
#   RDATA                        integral  32    'h252df2e5                                                  
#   RRESP                        integral  2     'd0                                                         
#   RDATA                        integral  32    'hef6fe29e                                                  
#   RRESP                        integral  2     'd0                                                         
#   RDATA                        integral  32    'ha4c60c80                                                  
#   RRESP                        integral  2     'd0                                                         
#   RDATA                        integral  32    'he114bf14                                                  
#   RRESP                        integral  2     'd0                                                         
#   RDATA                        integral  32    'h681ee4f9                                                  
#   RRESP                        integral  2     'd0                                                         
# -----------------------------------------------------------------------------------------------------------
# start of drive_awaddr
# inside drive_raddr before wait ARREADY
# UVM_INFO ../master_agent_top/master_monitor.sv(188) @ 155: uvm_test_top.env_h.mst_agt_top.mst_agt_h[0].mst_mon_h [MST_MONITOR] printing from master monitor collect_raddr 
#  -------------------------------------
# Name       Type      Size  Value     
# -------------------------------------
# xtn3       axi_xtn   -     @1214     
#   AWID     integral  4     'd0       
#   AWADDR   integral  32    'h0       
#   AWLEN    integral  4     'd0       
#   AWSIZE   integral  3     'd0       
#   AWBURST  integral  2     'd0       
#   WID      integral  4     'd0       
#   BID      integral  4     'd0       
#   BRESP    integral  2     'd0       
#   ARID     integral  4     15        
#   ARADDR   integral  32    'h8990a0ed
#   ARLEN    integral  8     'd9       
#   ARSIZE   integral  3     'd0       
#   ARBURST  integral  2     'd1       
#   RID      integral  4     'd0       
# -------------------------------------
# 
# UVM_INFO ../slave_agent_top/slave_monitor.sv(184) @ 155: uvm_test_top.env_h.slv_agt_top.slv_agt_h[0].slv_mon_h [slv_monitor] printing from slave monitor collect_raddr 
#  -------------------------------------
# Name       Type      Size  Value     
# -------------------------------------
# xtn3       axi_xtn   -     @1226     
#   AWID     integral  4     'd0       
#   AWADDR   integral  32    'h0       
#   AWLEN    integral  4     'd0       
#   AWSIZE   integral  3     'd0       
#   AWBURST  integral  2     'd0       
#   WID      integral  4     'd0       
#   BID      integral  4     'd0       
#   BRESP    integral  2     'd0       
#   ARID     integral  4     15        
#   ARADDR   integral  32    'h8990a0ed
#   ARLEN    integral  8     'd9       
#   ARSIZE   integral  3     'd0       
#   ARBURST  integral  2     'd1       
#   RID      integral  4     'd0       
# -------------------------------------
# 
# UVM_INFO ../master_agent_top/master_monitor.sv(111) @ 165: uvm_test_top.env_h.mst_agt_top.mst_agt_h[0].mst_mon_h [MST_MONITOR] printing from master monitor collect_awaddr 
#  -------------------------------------
# Name       Type      Size  Value     
# -------------------------------------
# xtn        axi_xtn   -     @1234     
#   AWID     integral  4     14        
#   AWADDR   integral  32    'h452854c8
#   AWLEN    integral  4     'd3       
#   AWSIZE   integral  3     'd1       
#   AWBURST  integral  2     2         
#   WID      integral  4     'd0       
#   BID      integral  4     'd0       
#   BRESP    integral  2     'd0       
#   ARID     integral  4     'd0       
#   ARADDR   integral  32    'h0       
#   ARLEN    integral  8     'd0       
#   ARSIZE   integral  3     'd0       
#   ARBURST  integral  2     'd0       
#   RID      integral  4     'd0       
# -------------------------------------
# 
# UVM_INFO ../slave_agent_top/slave_monitor.sv(110) @ 165: uvm_test_top.env_h.slv_agt_top.slv_agt_h[0].slv_mon_h [slv_monitor] printing from slave monitor collect_awaddr 
#  -------------------------------------
# Name       Type      Size  Value     
# -------------------------------------
# xtn        axi_xtn   -     @1242     
#   AWID     integral  4     14        
#   AWADDR   integral  32    'h452854c8
#   AWLEN    integral  4     'd3       
#   AWSIZE   integral  3     'd1       
#   AWBURST  integral  2     2         
#   WID      integral  4     'd0       
#   BID      integral  4     'd0       
#   BRESP    integral  2     'd0       
#   ARID     integral  4     'd0       
#   ARADDR   integral  32    'h0       
#   ARLEN    integral  8     'd0       
#   ARSIZE   integral  3     'd0       
#   ARBURST  integral  2     'd0       
#   RID      integral  4     'd0       
# -------------------------------------
# 
# end of read_awaddr
# start of read_awaddr
# slave driver start of awvalid
# WSTRB in slave driver is:1
# value inside mem is: 000000a1
# end of slave_raddr
# start of slave_raddr
# end of drive_raddr
# start of drive_raddr
# end of drive_awaddr
# -----------------------------------------------------------------------------------------------------------
# Name                           Type      Size  Value                                                       
# -----------------------------------------------------------------------------------------------------------
# req                            axi_xtn   -     @1246                                                       
#   begin_time                   time      64    135                                                         
#   depth                        int       32    'd2                                                         
#   parent sequence (name)       string    5     m_seq                                                       
#   parent sequence (full name)  string    60    uvm_test_top.env_h.mst_agt_top.mst_agt_h[0].mst_seqr_h.m_seq
#   sequencer                    string    54    uvm_test_top.env_h.mst_agt_top.mst_agt_h[0].mst_seqr_h      
#   AWID                         integral  4     14                                                          
#   AWADDR                       integral  32    'h452854c8                                                  
#   AWLEN                        integral  4     'd3                                                         
#   AWSIZE                       integral  3     'd1                                                         
#   AWBURST                      integral  2     2                                                           
#   WID                          integral  4     14                                                          
#   WDATA                        integral  32    'he25ce1a9                                                  
#   WSTRB                        integral  4     'b11                                                        
#   WLAST                        integral  1     'dX                                                         
#   WDATA                        integral  32    'h199657c8                                                  
#   WSTRB                        integral  4     'b1100                                                      
#   WLAST                        integral  1     'dX                                                         
#   WDATA                        integral  32    'ha4bbc6cd                                                  
#   WSTRB                        integral  4     'b11                                                        
#   WLAST                        integral  1     'dX                                                         
#   WDATA                        integral  32    'ha53a3ad5                                                  
#   WSTRB                        integral  4     'b1100                                                      
#   WLAST                        integral  1     'dX                                                         
#   BID                          integral  4     14                                                          
#   BRESP                        integral  2     'd0                                                         
#   ARID                         integral  4     'd3                                                         
#   ARADDR                       integral  32    'h666f77c                                                   
#   ARLEN                        integral  8     'd11                                                        
#   ARSIZE                       integral  3     'd2                                                         
#   ARBURST                      integral  2     'd1                                                         
#   RID                          integral  4     'd3                                                         
#   RDATA                        integral  32    'h57ffcdb9                                                  
#   RRESP                        integral  2     'd0                                                         
#   RDATA                        integral  32    'h2bf7eab6                                                  
#   RRESP                        integral  2     'd0                                                         
#   RDATA                        integral  32    'h388b6fd3                                                  
#   RRESP                        integral  2     'd0                                                         
#   RDATA                        integral  32    'h8914a014                                                  
#   RRESP                        integral  2     'd0                                                         
#   RDATA                        integral  32    'h72a3c308                                                  
#   RRESP                        integral  2     'd0                                                         
#   RDATA                        integral  32    'hfd65aafa                                                  
#   RRESP                        integral  2     'd0                                                         
#   RDATA                        integral  32    'h7d142828                                                  
#   RRESP                        integral  2     'd0                                                         
#   RDATA                        integral  32    'h7706922f                                                  
#   RRESP                        integral  2     'd0                                                         
#   RDATA                        integral  32    'hb17c896e                                                  
#   RRESP                        integral  2     'd0                                                         
#   RDATA                        integral  32    'h7ecc0ac3                                                  
#   RRESP                        integral  2     'd0                                                         
#   RDATA                        integral  32    'h69df0855                                                  
#   RRESP                        integral  2     'd0                                                         
#   RDATA                        integral  32    'h63171963                                                  
#   RRESP                        integral  2     'd0                                                         
# -----------------------------------------------------------------------------------------------------------
# start of drive_awaddr
# UVM_INFO ../master_agent_top/master_monitor.sv(111) @ 225: uvm_test_top.env_h.mst_agt_top.mst_agt_h[0].mst_mon_h [MST_MONITOR] printing from master monitor collect_awaddr 
#  -------------------------------------
# Name       Type      Size  Value     
# -------------------------------------
# xtn        axi_xtn   -     @1258     
#   AWID     integral  4     'd1       
#   AWADDR   integral  32    'hcb65b186
#   AWLEN    integral  4     13        
#   AWSIZE   integral  3     'd1       
#   AWBURST  integral  2     'd0       
#   WID      integral  4     'd0       
#   BID      integral  4     'd0       
#   BRESP    integral  2     'd0       
#   ARID     integral  4     'd0       
#   ARADDR   integral  32    'h0       
#   ARLEN    integral  8     'd0       
#   ARSIZE   integral  3     'd0       
#   ARBURST  integral  2     'd0       
#   RID      integral  4     'd0       
# -------------------------------------
# 
# UVM_INFO ../slave_agent_top/slave_monitor.sv(110) @ 225: uvm_test_top.env_h.slv_agt_top.slv_agt_h[0].slv_mon_h [slv_monitor] printing from slave monitor collect_awaddr 
#  -------------------------------------
# Name       Type      Size  Value     
# -------------------------------------
# xtn        axi_xtn   -     @1266     
#   AWID     integral  4     'd1       
#   AWADDR   integral  32    'hcb65b186
#   AWLEN    integral  4     13        
#   AWSIZE   integral  3     'd1       
#   AWBURST  integral  2     'd0       
#   WID      integral  4     'd0       
#   BID      integral  4     'd0       
#   BRESP    integral  2     'd0       
#   ARID     integral  4     'd0       
#   ARADDR   integral  32    'h0       
#   ARLEN    integral  8     'd0       
#   ARSIZE   integral  3     'd0       
#   ARBURST  integral  2     'd0       
#   RID      integral  4     'd0       
# -------------------------------------
# 
# inside drive_raddr before wait ARREADY
# slave driver start of awvalid
# WSTRB in slave driver is:1
# value inside mem is: 00000082
# UVM_INFO ../master_agent_top/master_monitor.sv(188) @ 235: uvm_test_top.env_h.mst_agt_top.mst_agt_h[0].mst_mon_h [MST_MONITOR] printing from master monitor collect_raddr 
#  ------------------------------------
# Name       Type      Size  Value    
# ------------------------------------
# xtn3       axi_xtn   -     @1250    
#   AWID     integral  4     'd0      
#   AWADDR   integral  32    'h0      
#   AWLEN    integral  4     'd0      
#   AWSIZE   integral  3     'd0      
#   AWBURST  integral  2     'd0      
#   WID      integral  4     'd0      
#   BID      integral  4     'd0      
#   BRESP    integral  2     'd0      
#   ARID     integral  4     'd3      
#   ARADDR   integral  32    'h666f77c
#   ARLEN    integral  8     'd11     
#   ARSIZE   integral  3     'd2      
#   ARBURST  integral  2     'd1      
#   RID      integral  4     'd0      
# ------------------------------------
# 
# UVM_INFO ../slave_agent_top/slave_monitor.sv(184) @ 235: uvm_test_top.env_h.slv_agt_top.slv_agt_h[0].slv_mon_h [slv_monitor] printing from slave monitor collect_raddr 
#  ------------------------------------
# Name       Type      Size  Value    
# ------------------------------------
# xtn3       axi_xtn   -     @1254    
#   AWID     integral  4     'd0      
#   AWADDR   integral  32    'h0      
#   AWLEN    integral  4     'd0      
#   AWSIZE   integral  3     'd0      
#   AWBURST  integral  2     'd0      
#   WID      integral  4     'd0      
#   BID      integral  4     'd0      
#   BRESP    integral  2     'd0      
#   ARID     integral  4     'd3      
#   ARADDR   integral  32    'h666f77c
#   ARLEN    integral  8     'd11     
#   ARSIZE   integral  3     'd2      
#   ARBURST  integral  2     'd1      
#   RID      integral  4     'd0      
# ------------------------------------
# 
# end of drive_awaddr
# -----------------------------------------------------------------------------------------------------------
# Name                           Type      Size  Value                                                       
# -----------------------------------------------------------------------------------------------------------
# req                            axi_xtn   -     @1274                                                       
#   begin_time                   time      64    215                                                         
#   depth                        int       32    'd2                                                         
#   parent sequence (name)       string    5     m_seq                                                       
#   parent sequence (full name)  string    60    uvm_test_top.env_h.mst_agt_top.mst_agt_h[0].mst_seqr_h.m_seq
#   sequencer                    string    54    uvm_test_top.env_h.mst_agt_top.mst_agt_h[0].mst_seqr_h      
#   AWID                         integral  4     'd1                                                         
#   AWADDR                       integral  32    'hcb65b186                                                  
#   AWLEN                        integral  4     13                                                          
#   AWSIZE                       integral  3     'd1                                                         
#   AWBURST                      integral  2     'd0                                                         
#   WID                          integral  4     'd1                                                         
#   WDATA                        integral  32    'hd07cf380                                                  
#   WSTRB                        integral  4     'b0                                                         
#   WLAST                        integral  1     'dX                                                         
#   WDATA                        integral  32    'h2a04fb4                                                   
#   WSTRB                        integral  4     'b1100                                                      
#   WLAST                        integral  1     'dX                                                         
#   WDATA                        integral  32    'hcaacd3ff                                                  
#   WSTRB                        integral  4     'b1100                                                      
#   WLAST                        integral  1     'dX                                                         
#   WDATA                        integral  32    'h613cbbb5                                                  
#   WSTRB                        integral  4     'b1100                                                      
#   WLAST                        integral  1     'dX                                                         
#   WDATA                        integral  32    'h6de4bbfc                                                  
#   WSTRB                        integral  4     'b1100                                                      
#   WLAST                        integral  1     'dX                                                         
#   WDATA                        integral  32    'h729f22a3                                                  
#   WSTRB                        integral  4     'b1100                                                      
#   WLAST                        integral  1     'dX                                                         
#   WDATA                        integral  32    'h6a58d80                                                   
#   WSTRB                        integral  4     'b1100                                                      
#   WLAST                        integral  1     'dX                                                         
#   WDATA                        integral  32    'ha094681                                                   
#   WSTRB                        integral  4     'b1100                                                      
#   WLAST                        integral  1     'dX                                                         
#   WDATA                        integral  32    'hbc1414e5                                                  
#   WSTRB                        integral  4     'b1100                                                      
#   WLAST                        integral  1     'dX                                                         
#   WDATA                        integral  32    'h7d1a58dd                                                  
#   WSTRB                        integral  4     'b1100                                                      
#   WLAST                        integral  1     'dX                                                         
#   WDATA                        integral  32    'h3ddfb898                                                  
#   WSTRB                        integral  4     'b1100                                                      
#   WLAST                        integral  1     'dX                                                         
#   WDATA                        integral  32    'h84387e3d                                                  
#   WSTRB                        integral  4     'b1100                                                      
#   WLAST                        integral  1     'dX                                                         
#   WDATA                        integral  32    'hf3d9c6ce                                                  
#   WSTRB                        integral  4     'b1100                                                      
#   WLAST                        integral  1     'dX                                                         
#   WDATA                        integral  32    'h7f96ec51                                                  
#   WSTRB                        integral  4     'b1100                                                      
#   WLAST                        integral  1     'dX                                                         
#   BID                          integral  4     'd1                                                         
#   BRESP                        integral  2     'd0                                                         
#   ARID                         integral  4     9                                                           
#   ARADDR                       integral  32    'ha77ac9de                                                  
#   ARLEN                        integral  8     'd10                                                        
#   ARSIZE                       integral  3     'd1                                                         
#   ARBURST                      integral  2     'd0                                                         
#   RID                          integral  4     9                                                           
#   RDATA                        integral  32    'hd200476b                                                  
#   RRESP                        integral  2     'd0                                                         
#   RDATA                        integral  32    'h3f6d7f9f                                                  
#   RRESP                        integral  2     'd0                                                         
#   RDATA                        integral  32    'h8e63279c                                                  
#   RRESP                        integral  2     'd0                                                         
#   RDATA                        integral  32    'h54fee07d                                                  
#   RRESP                        integral  2     'd0                                                         
#   RDATA                        integral  32    'hde9296f                                                   
#   RRESP                        integral  2     'd0                                                         
#   RDATA                        integral  32    'h7af283c9                                                  
#   RRESP                        integral  2     'd0                                                         
#   RDATA                        integral  32    'hd2d72cac                                                  
#   RRESP                        integral  2     'd0                                                         
#   RDATA                        integral  32    'haf62f569                                                  
#   RRESP                        integral  2     'd0                                                         
#   RDATA                        integral  32    'h42271a36                                                  
#   RRESP                        integral  2     'd0                                                         
#   RDATA                        integral  32    'h6732071b                                                  
#   RRESP                        integral  2     'd0                                                         
#   RDATA                        integral  32    'h58aedab1                                                  
#   RRESP                        integral  2     'd0                                                         
# -----------------------------------------------------------------------------------------------------------
# start of drive_awaddr
# UVM_INFO ../master_agent_top/master_monitor.sv(111) @ 255: uvm_test_top.env_h.mst_agt_top.mst_agt_h[0].mst_mon_h [MST_MONITOR] printing from master monitor collect_awaddr 
#  -------------------------------------
# Name       Type      Size  Value     
# -------------------------------------
# xtn        axi_xtn   -     @1278     
#   AWID     integral  4     'd3       
#   AWADDR   integral  32    'h3b7a547e
#   AWLEN    integral  4     'd1       
#   AWSIZE   integral  3     'd1       
#   AWBURST  integral  2     2         
#   WID      integral  4     'd0       
#   BID      integral  4     'd0       
#   BRESP    integral  2     'd0       
#   ARID     integral  4     'd0       
#   ARADDR   integral  32    'h0       
#   ARLEN    integral  8     'd0       
#   ARSIZE   integral  3     'd0       
#   ARBURST  integral  2     'd0       
#   RID      integral  4     'd0       
# -------------------------------------
# 
# UVM_INFO ../slave_agent_top/slave_monitor.sv(110) @ 255: uvm_test_top.env_h.slv_agt_top.slv_agt_h[0].slv_mon_h [slv_monitor] printing from slave monitor collect_awaddr 
#  -------------------------------------
# Name       Type      Size  Value     
# -------------------------------------
# xtn        axi_xtn   -     @1282     
#   AWID     integral  4     'd3       
#   AWADDR   integral  32    'h3b7a547e
#   AWLEN    integral  4     'd1       
#   AWSIZE   integral  3     'd1       
#   AWBURST  integral  2     2         
#   WID      integral  4     'd0       
#   BID      integral  4     'd0       
#   BRESP    integral  2     'd0       
#   ARID     integral  4     'd0       
#   ARADDR   integral  32    'h0       
#   ARLEN    integral  8     'd0       
#   ARSIZE   integral  3     'd0       
#   ARBURST  integral  2     'd0       
#   RID      integral  4     'd0       
# -------------------------------------
# 
# end of drive_raddr
# start of drive_raddr
# end of read_awaddr
# start of read_awaddr
# slave driver start of awvalid
# WSTRB in slave driver is:1
# value inside mem is: 00000010
# end of slave_raddr
# start of slave_raddr
# end of drive_awaddr
# -----------------------------------------------------------------------------------------------------------
# Name                           Type      Size  Value                                                       
# -----------------------------------------------------------------------------------------------------------
# req                            axi_xtn   -     @1294                                                       
#   begin_time                   time      64    245                                                         
#   depth                        int       32    'd2                                                         
#   parent sequence (name)       string    5     m_seq                                                       
#   parent sequence (full name)  string    60    uvm_test_top.env_h.mst_agt_top.mst_agt_h[0].mst_seqr_h.m_seq
#   sequencer                    string    54    uvm_test_top.env_h.mst_agt_top.mst_agt_h[0].mst_seqr_h      
#   AWID                         integral  4     'd3                                                         
#   AWADDR                       integral  32    'h3b7a547e                                                  
#   AWLEN                        integral  4     'd1                                                         
#   AWSIZE                       integral  3     'd1                                                         
#   AWBURST                      integral  2     2                                                           
#   WID                          integral  4     'd3                                                         
#   WDATA                        integral  32    'h6457d07e                                                  
#   WSTRB                        integral  4     'b1100                                                      
#   WLAST                        integral  1     'dX                                                         
#   WDATA                        integral  32    'haf3dfd24                                                  
#   WSTRB                        integral  4     'b11                                                        
#   WLAST                        integral  1     'dX                                                         
#   BID                          integral  4     'd3                                                         
#   BRESP                        integral  2     'd0                                                         
#   ARID                         integral  4     'd7                                                         
#   ARADDR                       integral  32    'h585b2e08                                                  
#   ARLEN                        integral  8     'd15                                                        
#   ARSIZE                       integral  3     'd2                                                         
#   ARBURST                      integral  2     2                                                           
#   RID                          integral  4     'd7                                                         
#   RDATA                        integral  32    'h3abfaf85                                                  
#   RRESP                        integral  2     'd0                                                         
#   RDATA                        integral  32    'h76b64f73                                                  
#   RRESP                        integral  2     'd0                                                         
#   RDATA                        integral  32    'h66499a51                                                  
#   RRESP                        integral  2     'd0                                                         
#   RDATA                        integral  32    'ha64ec466                                                  
#   RRESP                        integral  2     'd0                                                         
#   RDATA                        integral  32    'h2ef1acc6                                                  
#   RRESP                        integral  2     'd0                                                         
#   RDATA                        integral  32    'h489c65ba                                                  
#   RRESP                        integral  2     'd0                                                         
#   RDATA                        integral  32    'hd9ca1b01                                                  
#   RRESP                        integral  2     'd0                                                         
#   RDATA                        integral  32    'h168719f8                                                  
#   RRESP                        integral  2     'd0                                                         
#   RDATA                        integral  32    'hd05af726                                                  
#   RRESP                        integral  2     'd0                                                         
#   RDATA                        integral  32    'h5dbc9068                                                  
#   RRESP                        integral  2     'd0                                                         
#   RDATA                        integral  32    'hcf252e52                                                  
#   RRESP                        integral  2     'd0                                                         
#   RDATA                        integral  32    'hca4f5a8e                                                  
#   RRESP                        integral  2     'd0                                                         
#   RDATA                        integral  32    'h82342d05                                                  
#   RRESP                        integral  2     'd0                                                         
#   RDATA                        integral  32    'h58641cc6                                                  
#   RRESP                        integral  2     'd0                                                         
#   RDATA                        integral  32    'h2aa2d6aa                                                  
#   RRESP                        integral  2     'd0                                                         
#   RDATA                        integral  32    'h63f36f5b                                                  
#   RRESP                        integral  2     'd0                                                         
# -----------------------------------------------------------------------------------------------------------
# start of drive_awaddr
# UVM_INFO ../master_agent_top/master_monitor.sv(111) @ 295: uvm_test_top.env_h.mst_agt_top.mst_agt_h[0].mst_mon_h [MST_MONITOR] printing from master monitor collect_awaddr 
#  ------------------------------------
# Name       Type      Size  Value    
# ------------------------------------
# xtn        axi_xtn   -     @1298    
#   AWID     integral  4     10       
#   AWADDR   integral  32    'h35a627c
#   AWLEN    integral  4     'd4      
#   AWSIZE   integral  3     'd1      
#   AWBURST  integral  2     'd0      
#   WID      integral  4     'd0      
#   BID      integral  4     'd0      
#   BRESP    integral  2     'd0      
#   ARID     integral  4     'd0      
#   ARADDR   integral  32    'h0      
#   ARLEN    integral  8     'd0      
#   ARSIZE   integral  3     'd0      
#   ARBURST  integral  2     'd0      
#   RID      integral  4     'd0      
# ------------------------------------
# 
# UVM_INFO ../slave_agent_top/slave_monitor.sv(110) @ 295: uvm_test_top.env_h.slv_agt_top.slv_agt_h[0].slv_mon_h [slv_monitor] printing from slave monitor collect_awaddr 
#  ------------------------------------
# Name       Type      Size  Value    
# ------------------------------------
# xtn        axi_xtn   -     @1306    
#   AWID     integral  4     10       
#   AWADDR   integral  32    'h35a627c
#   AWLEN    integral  4     'd4      
#   AWSIZE   integral  3     'd1      
#   AWBURST  integral  2     'd0      
#   WID      integral  4     'd0      
#   BID      integral  4     'd0      
#   BRESP    integral  2     'd0      
#   ARID     integral  4     'd0      
#   ARADDR   integral  32    'h0      
#   ARLEN    integral  8     'd0      
#   ARSIZE   integral  3     'd0      
#   ARBURST  integral  2     'd0      
#   RID      integral  4     'd0      
# ------------------------------------
# 
# inside drive_raddr before wait ARREADY
# slave driver start of awvalid
# WSTRB in slave driver is:1
# value inside mem is: 00000049
# end of read_awaddr
# start of read_awaddr
# end of drive_awaddr
# -----------------------------------------------------------------------------------------------------------
# Name                           Type      Size  Value                                                       
# -----------------------------------------------------------------------------------------------------------
# req                            axi_xtn   -     @1314                                                       
#   begin_time                   time      64    285                                                         
#   depth                        int       32    'd2                                                         
#   parent sequence (name)       string    5     m_seq                                                       
#   parent sequence (full name)  string    60    uvm_test_top.env_h.mst_agt_top.mst_agt_h[0].mst_seqr_h.m_seq
#   sequencer                    string    54    uvm_test_top.env_h.mst_agt_top.mst_agt_h[0].mst_seqr_h      
#   AWID                         integral  4     10                                                          
#   AWADDR                       integral  32    'h35a627c                                                   
#   AWLEN                        integral  4     'd4                                                         
#   AWSIZE                       integral  3     'd1                                                         
#   AWBURST                      integral  2     'd0                                                         
#   WID                          integral  4     10                                                          
#   WDATA                        integral  32    'h1e14a30a                                                  
#   WSTRB                        integral  4     'b11                                                        
#   WLAST                        integral  1     'dX                                                         
#   WDATA                        integral  32    'hf225b8b8                                                  
#   WSTRB                        integral  4     'b11                                                        
#   WLAST                        integral  1     'dX                                                         
#   WDATA                        integral  32    'h53c71e85                                                  
#   WSTRB                        integral  4     'b11                                                        
#   WLAST                        integral  1     'dX                                                         
#   WDATA                        integral  32    'ha0271ede                                                  
#   WSTRB                        integral  4     'b11                                                        
#   WLAST                        integral  1     'dX                                                         
#   WDATA                        integral  32    'h5b0ef583                                                  
#   WSTRB                        integral  4     'b11                                                        
#   WLAST                        integral  1     'dX                                                         
#   BID                          integral  4     10                                                          
#   BRESP                        integral  2     'd0                                                         
#   ARID                         integral  4     9                                                           
#   ARADDR                       integral  32    'h4c42d088                                                  
#   ARLEN                        integral  8     'd7                                                         
#   ARSIZE                       integral  3     'd2                                                         
#   ARBURST                      integral  2     2                                                           
#   RID                          integral  4     9                                                           
#   RDATA                        integral  32    'h57040a4e                                                  
#   RRESP                        integral  2     'd0                                                         
#   RDATA                        integral  32    'hb8bd3b27                                                  
#   RRESP                        integral  2     'd0                                                         
#   RDATA                        integral  32    'h3416ef3e                                                  
#   RRESP                        integral  2     'd0                                                         
#   RDATA                        integral  32    'hb98abe2e                                                  
#   RRESP                        integral  2     'd0                                                         
#   RDATA                        integral  32    'hb99a6d2b                                                  
#   RRESP                        integral  2     'd0                                                         
#   RDATA                        integral  32    'hdc00eb20                                                  
#   RRESP                        integral  2     'd0                                                         
#   RDATA                        integral  32    'he56a2382                                                  
#   RRESP                        integral  2     'd0                                                         
#   RDATA                        integral  32    'h12190d92                                                  
#   RRESP                        integral  2     'd0                                                         
# -----------------------------------------------------------------------------------------------------------
# end of drive_raddr
# UVM_INFO ../master_agent_top/master_monitor.sv(188) @ 345: uvm_test_top.env_h.mst_agt_top.mst_agt_h[0].mst_mon_h [MST_MONITOR] printing from master monitor collect_raddr 
#  -------------------------------------
# Name       Type      Size  Value     
# -------------------------------------
# xtn3       axi_xtn   -     @1286     
#   AWID     integral  4     'd0       
#   AWADDR   integral  32    'h0       
#   AWLEN    integral  4     'd0       
#   AWSIZE   integral  3     'd0       
#   AWBURST  integral  2     'd0       
#   WID      integral  4     'd0       
#   BID      integral  4     'd0       
#   BRESP    integral  2     'd0       
#   ARID     integral  4     9         
#   ARADDR   integral  32    'ha77ac9de
#   ARLEN    integral  8     'd10      
#   ARSIZE   integral  3     'd1       
#   ARBURST  integral  2     'd0       
#   RID      integral  4     'd0       
# -------------------------------------
# 
# UVM_INFO ../slave_agent_top/slave_monitor.sv(184) @ 345: uvm_test_top.env_h.slv_agt_top.slv_agt_h[0].slv_mon_h [slv_monitor] printing from slave monitor collect_raddr 
#  -------------------------------------
# Name       Type      Size  Value     
# -------------------------------------
# xtn3       axi_xtn   -     @1290     
#   AWID     integral  4     'd0       
#   AWADDR   integral  32    'h0       
#   AWLEN    integral  4     'd0       
#   AWSIZE   integral  3     'd0       
#   AWBURST  integral  2     'd0       
#   WID      integral  4     'd0       
#   BID      integral  4     'd0       
#   BRESP    integral  2     'd0       
#   ARID     integral  4     9         
#   ARADDR   integral  32    'ha77ac9de
#   ARLEN    integral  8     'd10      
#   ARSIZE   integral  3     'd1       
#   ARBURST  integral  2     'd0       
#   RID      integral  4     'd0       
# -------------------------------------
# 
# start of drive_raddr
# start of drive_awaddr
# end of slave_raddr
# start of slave_raddr
# UVM_INFO ../master_agent_top/master_monitor.sv(111) @ 375: uvm_test_top.env_h.mst_agt_top.mst_agt_h[0].mst_mon_h [MST_MONITOR] printing from master monitor collect_awaddr 
#  -------------------------------------
# Name       Type      Size  Value     
# -------------------------------------
# xtn        axi_xtn   -     @1318     
#   AWID     integral  4     'd0       
#   AWADDR   integral  32    'h40e6d59e
#   AWLEN    integral  4     10        
#   AWSIZE   integral  3     'd2       
#   AWBURST  integral  2     'd1       
#   WID      integral  4     'd0       
#   BID      integral  4     'd0       
#   BRESP    integral  2     'd0       
#   ARID     integral  4     'd0       
#   ARADDR   integral  32    'h0       
#   ARLEN    integral  8     'd0       
#   ARSIZE   integral  3     'd0       
#   ARBURST  integral  2     'd0       
#   RID      integral  4     'd0       
# -------------------------------------
# 
# UVM_INFO ../slave_agent_top/slave_monitor.sv(110) @ 375: uvm_test_top.env_h.slv_agt_top.slv_agt_h[0].slv_mon_h [slv_monitor] printing from slave monitor collect_awaddr 
#  -------------------------------------
# Name       Type      Size  Value     
# -------------------------------------
# xtn        axi_xtn   -     @1322     
#   AWID     integral  4     'd0       
#   AWADDR   integral  32    'h40e6d59e
#   AWLEN    integral  4     10        
#   AWSIZE   integral  3     'd2       
#   AWBURST  integral  2     'd1       
#   WID      integral  4     'd0       
#   BID      integral  4     'd0       
#   BRESP    integral  2     'd0       
#   ARID     integral  4     'd0       
#   ARADDR   integral  32    'h0       
#   ARLEN    integral  8     'd0       
#   ARSIZE   integral  3     'd0       
#   ARBURST  integral  2     'd0       
#   RID      integral  4     'd0       
# -------------------------------------
# 
# slave driver start of awvalid
# WSTRB in slave driver is:1
# value inside mem is: 00000079
# end of read_awaddr
# start of read_awaddr
# end of drive_awaddr
# -----------------------------------------------------------------------------------------------------------
# Name                           Type      Size  Value                                                       
# -----------------------------------------------------------------------------------------------------------
# req                            axi_xtn   -     @1330                                                       
#   begin_time                   time      64    345                                                         
#   depth                        int       32    'd2                                                         
#   parent sequence (name)       string    5     m_seq                                                       
#   parent sequence (full name)  string    60    uvm_test_top.env_h.mst_agt_top.mst_agt_h[0].mst_seqr_h.m_seq
#   sequencer                    string    54    uvm_test_top.env_h.mst_agt_top.mst_agt_h[0].mst_seqr_h      
#   AWID                         integral  4     'd0                                                         
#   AWADDR                       integral  32    'h40e6d59e                                                  
#   AWLEN                        integral  4     10                                                          
#   AWSIZE                       integral  3     'd2                                                         
#   AWBURST                      integral  2     'd1                                                         
#   WID                          integral  4     'd0                                                         
#   WDATA                        integral  32    'h19a37404                                                  
#   WSTRB                        integral  4     'b1100                                                      
#   WLAST                        integral  1     'dX                                                         
#   WDATA                        integral  32    'hc27a256d                                                  
#   WSTRB                        integral  4     'b1111                                                      
#   WLAST                        integral  1     'dX                                                         
#   WDATA                        integral  32    'h2a35d399                                                  
#   WSTRB                        integral  4     'b1111                                                      
#   WLAST                        integral  1     'dX                                                         
#   WDATA                        integral  32    'h33315895                                                  
#   WSTRB                        integral  4     'b1111                                                      
#   WLAST                        integral  1     'dX                                                         
#   WDATA                        integral  32    'hcd9426a6                                                  
#   WSTRB                        integral  4     'b1111                                                      
#   WLAST                        integral  1     'dX                                                         
#   WDATA                        integral  32    'hcacaae5c                                                  
#   WSTRB                        integral  4     'b1111                                                      
#   WLAST                        integral  1     'dX                                                         
#   WDATA                        integral  32    'h72231c3f                                                  
#   WSTRB                        integral  4     'b1111                                                      
#   WLAST                        integral  1     'dX                                                         
#   WDATA                        integral  32    'hb9dd8bb7                                                  
#   WSTRB                        integral  4     'b1111                                                      
#   WLAST                        integral  1     'dX                                                         
#   WDATA                        integral  32    'h4eecb7aa                                                  
#   WSTRB                        integral  4     'b1111                                                      
#   WLAST                        integral  1     'dX                                                         
#   WDATA                        integral  32    'h218de830                                                  
#   WSTRB                        integral  4     'b1111                                                      
#   WLAST                        integral  1     'dX                                                         
#   WDATA                        integral  32    'h1b751252                                                  
#   WSTRB                        integral  4     'b1111                                                      
#   WLAST                        integral  1     'dX                                                         
#   BID                          integral  4     'd0                                                         
#   BRESP                        integral  2     'd0                                                         
#   ARID                         integral  4     12                                                          
#   ARADDR                       integral  32    'h51e9bfa8                                                  
#   ARLEN                        integral  8     'd17                                                        
#   ARSIZE                       integral  3     'd1                                                         
#   ARBURST                      integral  2     'd0                                                         
#   RID                          integral  4     12                                                          
#   RDATA                        integral  32    'hc7f7e67d                                                  
#   RRESP                        integral  2     'd0                                                         
#   RDATA                        integral  32    'h93670929                                                  
#   RRESP                        integral  2     'd0                                                         
#   RDATA                        integral  32    'hc5cafb77                                                  
#   RRESP                        integral  2     'd0                                                         
#   RDATA                        integral  32    'hf68c477d                                                  
#   RRESP                        integral  2     'd0                                                         
#   RDATA                        integral  32    'h33779ddb                                                  
#   RRESP                        integral  2     'd0                                                         
#   RDATA                        integral  32    'hf8c2c5e3                                                  
#   RRESP                        integral  2     'd0                                                         
#   RDATA                        integral  32    'h9d8d8bff                                                  
#   RRESP                        integral  2     'd0                                                         
#   RDATA                        integral  32    'h6b901862                                                  
#   RRESP                        integral  2     'd0                                                         
#   RDATA                        integral  32    'hfd1f1563                                                  
#   RRESP                        integral  2     'd0                                                         
#   RDATA                        integral  32    'hd49e1d1a                                                  
#   RRESP                        integral  2     'd0                                                         
#   RDATA                        integral  32    'hab9d8ae9                                                  
#   RRESP                        integral  2     'd0                                                         
#   RDATA                        integral  32    'hf60e0b1b                                                  
#   RRESP                        integral  2     'd0                                                         
#   RDATA                        integral  32    'h46e8fa73                                                  
#   RRESP                        integral  2     'd0                                                         
#   RDATA                        integral  32    'h8ee35581                                                  
#   RRESP                        integral  2     'd0                                                         
#   RDATA                        integral  32    'hff397098                                                  
#   RRESP                        integral  2     'd0                                                         
#   RDATA                        integral  32    'hca6bd19d                                                  
#   RRESP                        integral  2     'd0                                                         
#   RDATA                        integral  32    'h455b36d4                                                  
#   RRESP                        integral  2     'd0                                                         
#   RDATA                        integral  32    'h9276dd4                                                   
#   RRESP                        integral  2     'd0                                                         
# -----------------------------------------------------------------------------------------------------------
# inside drive_raddr before wait ARREADY
# start of drive_awaddr
# UVM_INFO ../master_agent_top/master_monitor.sv(188) @ 405: uvm_test_top.env_h.mst_agt_top.mst_agt_h[0].mst_mon_h [MST_MONITOR] printing from master monitor collect_raddr 
#  -------------------------------------
# Name       Type      Size  Value     
# -------------------------------------
# xtn3       axi_xtn   -     @1334     
#   AWID     integral  4     'd0       
#   AWADDR   integral  32    'h0       
#   AWLEN    integral  4     'd0       
#   AWSIZE   integral  3     'd0       
#   AWBURST  integral  2     'd0       
#   WID      integral  4     'd0       
#   BID      integral  4     'd0       
#   BRESP    integral  2     'd0       
#   ARID     integral  4     'd7       
#   ARADDR   integral  32    'h585b2e08
#   ARLEN    integral  8     'd15      
#   ARSIZE   integral  3     'd2       
#   ARBURST  integral  2     2         
#   RID      integral  4     'd0       
# -------------------------------------
# 
# UVM_INFO ../slave_agent_top/slave_monitor.sv(184) @ 405: uvm_test_top.env_h.slv_agt_top.slv_agt_h[0].slv_mon_h [slv_monitor] printing from slave monitor collect_raddr 
#  -------------------------------------
# Name       Type      Size  Value     
# -------------------------------------
# xtn3       axi_xtn   -     @1338     
#   AWID     integral  4     'd0       
#   AWADDR   integral  32    'h0       
#   AWLEN    integral  4     'd0       
#   AWSIZE   integral  3     'd0       
#   AWBURST  integral  2     'd0       
#   WID      integral  4     'd0       
#   BID      integral  4     'd0       
#   BRESP    integral  2     'd0       
#   ARID     integral  4     'd7       
#   ARADDR   integral  32    'h585b2e08
#   ARLEN    integral  8     'd15      
#   ARSIZE   integral  3     'd2       
#   ARBURST  integral  2     2         
#   RID      integral  4     'd0       
# -------------------------------------
# 
# UVM_INFO ../master_agent_top/master_monitor.sv(111) @ 415: uvm_test_top.env_h.mst_agt_top.mst_agt_h[0].mst_mon_h [MST_MONITOR] printing from master monitor collect_awaddr 
#  -------------------------------------
# Name       Type      Size  Value     
# -------------------------------------
# xtn        axi_xtn   -     @1346     
#   AWID     integral  4     14        
#   AWADDR   integral  32    'hcc03624c
#   AWLEN    integral  4     'd1       
#   AWSIZE   integral  3     'd0       
#   AWBURST  integral  2     2         
#   WID      integral  4     'd0       
#   BID      integral  4     'd0       
#   BRESP    integral  2     'd0       
#   ARID     integral  4     'd0       
#   ARADDR   integral  32    'h0       
#   ARLEN    integral  8     'd0       
#   ARSIZE   integral  3     'd0       
#   ARBURST  integral  2     'd0       
#   RID      integral  4     'd0       
# -------------------------------------
# 
# UVM_INFO ../slave_agent_top/slave_monitor.sv(110) @ 415: uvm_test_top.env_h.slv_agt_top.slv_agt_h[0].slv_mon_h [slv_monitor] printing from slave monitor collect_awaddr 
#  -------------------------------------
# Name       Type      Size  Value     
# -------------------------------------
# xtn        axi_xtn   -     @1354     
#   AWID     integral  4     14        
#   AWADDR   integral  32    'hcc03624c
#   AWLEN    integral  4     'd1       
#   AWSIZE   integral  3     'd0       
#   AWBURST  integral  2     2         
#   WID      integral  4     'd0       
#   BID      integral  4     'd0       
#   BRESP    integral  2     'd0       
#   ARID     integral  4     'd0       
#   ARADDR   integral  32    'h0       
#   ARLEN    integral  8     'd0       
#   ARSIZE   integral  3     'd0       
#   ARBURST  integral  2     'd0       
#   RID      integral  4     'd0       
# -------------------------------------
# 
# slave driver start of awvalid
# WSTRB in slave driver is:1
# value inside mem is: 00000009
# end of slave_raddr
# start of slave_raddr
# UVM_INFO ../master_agent_top/master_monitor.sv(159) @ 425: uvm_test_top.env_h.mst_agt_top.mst_agt_h[0].mst_mon_h [MST_MONITOR] printing from master monitor collect_wdata 
#  -------------------------------------
# Name       Type      Size  Value     
# -------------------------------------
# xtn        axi_xtn   -     @1099     
#   AWID     integral  4     'd0       
#   AWADDR   integral  32    'hb8f3bd38
#   AWLEN    integral  4     'd7       
#   AWSIZE   integral  3     'd0       
#   AWBURST  integral  2     'd0       
#   WID      integral  4     'd0       
#   WDATA    integral  32    'hf3      
#   WSTRB    integral  4     'b1       
#   WLAST    integral  1     1         
#   WDATA    integral  32    'he5      
#   WSTRB    integral  4     'b1       
#   WLAST    integral  1     1         
#   WDATA    integral  32    'ha1      
#   WSTRB    integral  4     'b1       
#   WLAST    integral  1     1         
#   WDATA    integral  32    'h82      
#   WSTRB    integral  4     'b1       
#   WLAST    integral  1     1         
#   WDATA    integral  32    'h10      
#   WSTRB    integral  4     'b1       
#   WLAST    integral  1     1         
#   WDATA    integral  32    'h49      
#   WSTRB    integral  4     'b1       
#   WLAST    integral  1     1         
#   WDATA    integral  32    'h79      
#   WSTRB    integral  4     'b1       
#   WLAST    integral  1     1         
#   WDATA    integral  32    'h9       
#   WSTRB    integral  4     'b1       
#   WLAST    integral  1     1         
#   BID      integral  4     'd0       
#   BRESP    integral  2     'd0       
#   ARID     integral  4     'd0       
#   ARADDR   integral  32    'h0       
#   ARLEN    integral  8     'd0       
#   ARSIZE   integral  3     'd0       
#   ARBURST  integral  2     'd0       
#   RID      integral  4     'd0       
# -------------------------------------
# 
# UVM_INFO ../slave_agent_top/slave_monitor.sv(157) @ 425: uvm_test_top.env_h.slv_agt_top.slv_agt_h[0].slv_mon_h [slv_monitor] printing from slave monitor collect_wdata 
#  -------------------------------------
# Name       Type      Size  Value     
# -------------------------------------
# xtn        axi_xtn   -     @1081     
#   AWID     integral  4     'd0       
#   AWADDR   integral  32    'hb8f3bd38
#   AWLEN    integral  4     'd7       
#   AWSIZE   integral  3     'd0       
#   AWBURST  integral  2     'd0       
#   WID      integral  4     'd0       
#   WDATA    integral  32    'hf3      
#   WSTRB    integral  4     'b1       
#   WLAST    integral  1     1         
#   WDATA    integral  32    'he5      
#   WSTRB    integral  4     'b1       
#   WLAST    integral  1     1         
#   WDATA    integral  32    'ha1      
#   WSTRB    integral  4     'b1       
#   WLAST    integral  1     1         
#   WDATA    integral  32    'h82      
#   WSTRB    integral  4     'b1       
#   WLAST    integral  1     1         
#   WDATA    integral  32    'h10      
#   WSTRB    integral  4     'b1       
#   WLAST    integral  1     1         
#   WDATA    integral  32    'h49      
#   WSTRB    integral  4     'b1       
#   WLAST    integral  1     1         
#   WDATA    integral  32    'h79      
#   WSTRB    integral  4     'b1       
#   WLAST    integral  1     1         
#   WDATA    integral  32    'h9       
#   WSTRB    integral  4     'b1       
#   WLAST    integral  1     1         
#   BID      integral  4     'd0       
#   BRESP    integral  2     'd0       
#   ARID     integral  4     'd0       
#   ARADDR   integral  32    'h0       
#   ARLEN    integral  8     'd0       
#   ARSIZE   integral  3     'd0       
#   ARBURST  integral  2     'd0       
#   RID      integral  4     'd0       
# -------------------------------------
# 
# ** Warning: (vsim-8630) Infinity results from division operation.
#    Time: 425 ns  Iteration: 3  Process: /axi_test_pkg::master_monitor::collect_data/#FORK#66_f68a258 File: ../tb/axi_xtn.sv Line: 130
# ** Warning: (vsim-8630) Infinity results from division operation.
#    Time: 425 ns  Iteration: 3  Process: /axi_test_pkg::slave_monitor::collect_data/#FORK#66_f68a217 File: ../tb/axi_xtn.sv Line: 130
# end of drive_awaddr
# -----------------------------------------------------------------------------------------------------------
# Name                           Type      Size  Value                                                       
# -----------------------------------------------------------------------------------------------------------
# req                            axi_xtn   -     @1358                                                       
#   begin_time                   time      64    395                                                         
#   depth                        int       32    'd2                                                         
#   parent sequence (name)       string    5     m_seq                                                       
#   parent sequence (full name)  string    60    uvm_test_top.env_h.mst_agt_top.mst_agt_h[0].mst_seqr_h.m_seq
#   sequencer                    string    54    uvm_test_top.env_h.mst_agt_top.mst_agt_h[0].mst_seqr_h      
#   AWID                         integral  4     14                                                          
#   AWADDR                       integral  32    'hcc03624c                                                  
#   AWLEN                        integral  4     'd1                                                         
#   AWSIZE                       integral  3     'd0                                                         
#   AWBURST                      integral  2     2                                                           
#   WID                          integral  4     14                                                          
#   WDATA                        integral  32    'h89b47982                                                  
#   WSTRB                        integral  4     'b1                                                         
#   WLAST                        integral  1     'dX                                                         
#   WDATA                        integral  32    'hfcd23fe2                                                  
#   WSTRB                        integral  4     'b10                                                        
#   WLAST                        integral  1     'dX                                                         
#   BID                          integral  4     14                                                          
#   BRESP                        integral  2     'd0                                                         
#   ARID                         integral  4     'd4                                                         
#   ARADDR                       integral  32    'hbd9119ed                                                  
#   ARLEN                        integral  8     'd2                                                         
#   ARSIZE                       integral  3     'd0                                                         
#   ARBURST                      integral  2     'd0                                                         
#   RID                          integral  4     'd4                                                         
#   RDATA                        integral  32    'hd0e1678a                                                  
#   RRESP                        integral  2     'd0                                                         
#   RDATA                        integral  32    'hd732d9d8                                                  
#   RRESP                        integral  2     'd0                                                         
#   RDATA                        integral  32    'hb8e8f2f2                                                  
#   RRESP                        integral  2     'd0                                                         
# -----------------------------------------------------------------------------------------------------------
# memory is '{b8f3bd38:00000009 }
# end of read_data
# start of read_data
# ** Warning: (vsim-8630) Infinity results from division operation.
#    Time: 435 ns  Iteration: 3  Process: /axi_test_pkg::slave_driver::drive/#FORK#72_f68a1fe File: ../tb/axi_xtn.sv Line: 130
# aligned:fe83ebe8
# addresses calculated in slave side are '{fe83ebe8, fe83ebe8, fe83ebe8, fe83ebe8, fe83ebe8, fe83ebe8, fe83ebe8, fe83ebe8, fe83ebe8, fe83ebe8, fe83ebe8, fe83ebe8, fe83ebe8, fe83ebe8}
# start of drive_wresp
# BID sent is  0
# start of drive_awaddr
# UVM_INFO ../master_agent_top/master_monitor.sv(111) @ 445: uvm_test_top.env_h.mst_agt_top.mst_agt_h[0].mst_mon_h [MST_MONITOR] printing from master monitor collect_awaddr 
#  -------------------------------------
# Name       Type      Size  Value     
# -------------------------------------
# xtn        axi_xtn   -     @1374     
#   AWID     integral  4     11        
#   AWADDR   integral  32    'h60b962d9
#   AWLEN    integral  4     'd1       
#   AWSIZE   integral  3     'd2       
#   AWBURST  integral  2     'd1       
#   WID      integral  4     'd0       
#   BID      integral  4     'd0       
#   BRESP    integral  2     'd0       
#   ARID     integral  4     'd0       
#   ARADDR   integral  32    'h0       
#   ARLEN    integral  8     'd0       
#   ARSIZE   integral  3     'd0       
#   ARBURST  integral  2     'd0       
#   RID      integral  4     'd0       
# -------------------------------------
# 
# UVM_INFO ../slave_agent_top/slave_monitor.sv(110) @ 445: uvm_test_top.env_h.slv_agt_top.slv_agt_h[0].slv_mon_h [slv_monitor] printing from slave monitor collect_awaddr 
#  -------------------------------------
# Name       Type      Size  Value     
# -------------------------------------
# xtn        axi_xtn   -     @1378     
#   AWID     integral  4     11        
#   AWADDR   integral  32    'h60b962d9
#   AWLEN    integral  4     'd1       
#   AWSIZE   integral  3     'd2       
#   AWBURST  integral  2     'd1       
#   WID      integral  4     'd0       
#   BID      integral  4     'd0       
#   BRESP    integral  2     'd0       
#   ARID     integral  4     'd0       
#   ARADDR   integral  32    'h0       
#   ARLEN    integral  8     'd0       
#   ARSIZE   integral  3     'd0       
#   ARBURST  integral  2     'd0       
#   RID      integral  4     'd0       
# -------------------------------------
# 
# end of drive_raddr
# end of read_awaddr
# start of read_awaddr
# start of drive_raddr
# end of drive_wdata
# end of drive_awaddr
# -----------------------------------------------------------------------------------------------------------
# Name                           Type      Size  Value                                                       
# -----------------------------------------------------------------------------------------------------------
# req                            axi_xtn   -     @1398                                                       
#   begin_time                   time      64    435                                                         
#   depth                        int       32    'd2                                                         
#   parent sequence (name)       string    5     m_seq                                                       
#   parent sequence (full name)  string    60    uvm_test_top.env_h.mst_agt_top.mst_agt_h[0].mst_seqr_h.m_seq
#   sequencer                    string    54    uvm_test_top.env_h.mst_agt_top.mst_agt_h[0].mst_seqr_h      
#   AWID                         integral  4     11                                                          
#   AWADDR                       integral  32    'h60b962d9                                                  
#   AWLEN                        integral  4     'd1                                                         
#   AWSIZE                       integral  3     'd2                                                         
#   AWBURST                      integral  2     'd1                                                         
#   WID                          integral  4     11                                                          
