vsim -vopt -voptargs="+acc" -coverage -sva -c -do " log -r /* ;coverage save -onexit mem_cov3;run -all; exit" -wlf wave_file3.wlf -l test3.log -sv_seed random work.top "+UVM_TESTNAME=wrap_seq_test" 
Start time: 18:50:06 on Jul 04,2024
** Note: (vsim-3812) Design is being optimized...
//  Questa Sim-64
//  Version 2019.2 linux_x86_64 Apr 16 2019
//
//  Copyright 1991-2019 Mentor Graphics Corporation
//  All Rights Reserved.
//
//  QuestaSim and its associated documentation contain trade
//  secrets and commercial or financial information that are the property of
//  Mentor Graphics Corporation and are privileged, confidential,
//  and exempt from disclosure under the Freedom of Information Act,
//  5 U.S.C. Section 552. Furthermore, this information
//  is prohibited from disclosure under the Trade Secrets Act,
//  18 U.S.C. Section 1905.
//
Loading sv_std.std
Loading work.axi_if(fast)
Loading mtiUvm.uvm_pkg
Loading work.axi_test_pkg(fast)
Loading mtiUvm.questa_uvm_pkg(fast)
Loading work.top(fast)
Loading work.axi_if(fast)
# Loading /home/cad/eda/Questa_2019/questasim/uvm-1.1d/linux_x86_64/uvm_dpi.so
** Warning: (vsim-8634) Code was not compiled with coverage options.
Sv_Seed = 746058794
 log -r /* 
coverage save -onexit mem_cov3
run -all
----------------------------------------------------------------
UVM-1.1d
(C) 2007-2013 Mentor Graphics Corporation
(C) 2007-2013 Cadence Design Systems, Inc.
(C) 2006-2013 Synopsys, Inc.
(C) 2011-2013 Cypress Semiconductor Corp.
----------------------------------------------------------------

  ***********       IMPORTANT RELEASE NOTES         ************

  You are using a version of the UVM library that has been compiled
  with `UVM_NO_DEPRECATED undefined.
  See http://www.eda.org/svdb/view.php?id=3313 for more details.

  You are using a version of the UVM library that has been compiled
  with `UVM_OBJECT_MUST_HAVE_CONSTRUCTOR undefined.
  See http://www.eda.org/svdb/view.php?id=3770 for more details.

      (Specify +UVM_NO_RELNOTES to turn off this notice)

UVM_INFO verilog_src/questa_uvm_pkg-1.2/src/questa_uvm_pkg.sv(277) @ 0: reporter [Questa UVM] QUESTA_UVM-1.2.3
UVM_INFO verilog_src/questa_uvm_pkg-1.2/src/questa_uvm_pkg.sv(278) @ 0: reporter [Questa UVM]  questa_uvm::init(+struct)
UVM_INFO @ 0: reporter [RNTST] Running test wrap_seq_test...
start of read_awaddr
start of slave_raddr
start of drive_awaddr
start of drive_raddr
UVM_INFO ../master_agent_top/master_monitor.sv(111) @ 35: uvm_test_top.env_h.mst_agt_top.mst_agt_h[0].mst_mon_h [MST_MONITOR] printing from master monitor collect_awaddr 
 -------------------------------------
Name       Type      Size  Value     
-------------------------------------
xtn        axi_xtn   -     @1099     
  AWID     integral  4     8         
  AWADDR   integral  32    'h26a1bcf0
  AWLEN    integral  4     15        
  AWSIZE   integral  3     'd2       
  AWBURST  integral  2     2         
  WID      integral  4     'd0       
  BID      integral  4     'd0       
  BRESP    integral  2     'd0       
  ARID     integral  4     'd0       
  ARADDR   integral  32    'h0       
  ARLEN    integral  8     'd0       
  ARSIZE   integral  3     'd0       
  ARBURST  integral  2     'd0       
  RID      integral  4     'd0       
-------------------------------------

UVM_INFO ../slave_agent_top/slave_monitor.sv(110) @ 35: uvm_test_top.env_h.slv_agt_top.slv_agt_h[0].slv_mon_h [slv_monitor] printing from slave monitor collect_awaddr 
 -------------------------------------
Name       Type      Size  Value     
-------------------------------------
xtn        axi_xtn   -     @1081     
  AWID     integral  4     8         
  AWADDR   integral  32    'h26a1bcf0
  AWLEN    integral  4     15        
  AWSIZE   integral  3     'd2       
  AWBURST  integral  2     2         
  WID      integral  4     'd0       
  BID      integral  4     'd0       
  BRESP    integral  2     'd0       
  ARID     integral  4     'd0       
  ARADDR   integral  32    'h0       
  ARLEN    integral  8     'd0       
  ARSIZE   integral  3     'd0       
  ARBURST  integral  2     'd0       
  RID      integral  4     'd0       
-------------------------------------

inside drive_raddr before wait ARREADY
end of drive_awaddr
-----------------------------------------------------------------------------------------------------------
Name                           Type      Size  Value                                                       
-----------------------------------------------------------------------------------------------------------
req                            axi_xtn   -     @1113                                                       
  begin_time                   time      64    0                                                           
  depth                        int       32    'd2                                                         
  parent sequence (name)       string    5     m_seq                                                       
  parent sequence (full name)  string    60    uvm_test_top.env_h.mst_agt_top.mst_agt_h[0].mst_seqr_h.m_seq
  sequencer                    string    54    uvm_test_top.env_h.mst_agt_top.mst_agt_h[0].mst_seqr_h      
  AWID                         integral  4     8                                                           
  AWADDR                       integral  32    'h26a1bcf0                                                  
  AWLEN                        integral  4     15                                                          
  AWSIZE                       integral  3     'd2                                                         
  AWBURST                      integral  2     2                                                           
  WID                          integral  4     8                                                           
  WDATA                        integral  32    'h34ef75a6                                                  
  WSTRB                        integral  4     'b1111                                                      
  WLAST                        integral  1     'dX                                                         
  WDATA                        integral  32    'hfb619e38                                                  
  WSTRB                        integral  4     'b1111                                                      
  WLAST                        integral  1     'dX                                                         
  WDATA                        integral  32    'he142ca0a                                                  
  WSTRB                        integral  4     'b1111                                                      
  WLAST                        integral  1     'dX                                                         
  WDATA                        integral  32    'hae5d5922                                                  
  WSTRB                        integral  4     'b1111                                                      
  WLAST                        integral  1     'dX                                                         
  WDATA                        integral  32    'h9458f836                                                  
  WSTRB                        integral  4     'b1111                                                      
  WLAST                        integral  1     'dX                                                         
  WDATA                        integral  32    'h426b5336                                                  
  WSTRB                        integral  4     'b1111                                                      
  WLAST                        integral  1     'dX                                                         
  WDATA                        integral  32    'h2aa4bc1b                                                  
  WSTRB                        integral  4     'b1111                                                      
  WLAST                        integral  1     'dX                                                         
  WDATA                        integral  32    'h5fa48c55                                                  
  WSTRB                        integral  4     'b1111                                                      
  WLAST                        integral  1     'dX                                                         
  WDATA                        integral  32    'hfffac57b                                                  
  WSTRB                        integral  4     'b1111                                                      
  WLAST                        integral  1     'dX                                                         
  WDATA                        integral  32    'h3be2b45a                                                  
  WSTRB                        integral  4     'b1111                                                      
  WLAST                        integral  1     'dX                                                         
  WDATA                        integral  32    'h7b3f8da6                                                  
  WSTRB                        integral  4     'b1111                                                      
  WLAST                        integral  1     'dX                                                         
  WDATA                        integral  32    'ha48eedd7                                                  
  WSTRB                        integral  4     'b1111                                                      
  WLAST                        integral  1     'dX                                                         
  WDATA                        integral  32    'h72d63121                                                  
  WSTRB                        integral  4     'b1111                                                      
  WLAST                        integral  1     'dX                                                         
  WDATA                        integral  32    'h7f051edd                                                  
  WSTRB                        integral  4     'b1111                                                      
  WLAST                        integral  1     'dX                                                         
  WDATA                        integral  32    'hb5c99c1b                                                  
  WSTRB                        integral  4     'b1111                                                      
  WLAST                        integral  1     'dX                                                         
  WDATA                        integral  32    'h8daf3a4                                                   
  WSTRB                        integral  4     'b1111                                                      
  WLAST                        integral  1     'dX                                                         
  BID                          integral  4     8                                                           
  BRESP                        integral  2     'd0                                                         
  ARID                         integral  4     'd6                                                         
  ARADDR                       integral  32    'h6d7fe1de                                                  
  ARLEN                        integral  8     'd3                                                         
  ARSIZE                       integral  3     'd1                                                         
  ARBURST                      integral  2     2                                                           
  RID                          integral  4     'd6                                                         
  RDATA                        integral  32    'h10c49795                                                  
  RRESP                        integral  2     'd0                                                         
  RDATA                        integral  32    'h128e9c4f                                                  
  RRESP                        integral  2     'd0                                                         
  RDATA                        integral  32    'h4b5e5d15                                                  
  RRESP                        integral  2     'd0                                                         
  RDATA                        integral  32    'h98541a19                                                  
  RRESP                        integral  2     'd0                                                         
-----------------------------------------------------------------------------------------------------------
UVM_INFO ../master_agent_top/master_monitor.sv(188) @ 45: uvm_test_top.env_h.mst_agt_top.mst_agt_h[0].mst_mon_h [MST_MONITOR] printing from master monitor collect_raddr 
 -------------------------------------
Name       Type      Size  Value     
-------------------------------------
xtn3       axi_xtn   -     @1103     
  AWID     integral  4     'd0       
  AWADDR   integral  32    'h0       
  AWLEN    integral  4     'd0       
  AWSIZE   integral  3     'd0       
  AWBURST  integral  2     'd0       
  WID      integral  4     'd0       
  BID      integral  4     'd0       
  BRESP    integral  2     'd0       
  ARID     integral  4     'd6       
  ARADDR   integral  32    'h6d7fe1de
  ARLEN    integral  8     'd3       
  ARSIZE   integral  3     'd1       
  ARBURST  integral  2     2         
  RID      integral  4     'd0       
-------------------------------------

UVM_INFO ../slave_agent_top/slave_monitor.sv(184) @ 45: uvm_test_top.env_h.slv_agt_top.slv_agt_h[0].slv_mon_h [slv_monitor] printing from slave monitor collect_raddr 
 -------------------------------------
Name       Type      Size  Value     
-------------------------------------
xtn3       axi_xtn   -     @1085     
  AWID     integral  4     'd0       
  AWADDR   integral  32    'h0       
  AWLEN    integral  4     'd0       
  AWSIZE   integral  3     'd0       
  AWBURST  integral  2     'd0       
  WID      integral  4     'd0       
  BID      integral  4     'd0       
  BRESP    integral  2     'd0       
  ARID     integral  4     'd6       
  ARADDR   integral  32    'h6d7fe1de
  ARLEN    integral  8     'd3       
  ARSIZE   integral  3     'd1       
  ARBURST  integral  2     2         
  RID      integral  4     'd0       
-------------------------------------

start of drive_wdata
start of drive_awaddr
UVM_INFO ../master_agent_top/master_monitor.sv(111) @ 55: uvm_test_top.env_h.mst_agt_top.mst_agt_h[0].mst_mon_h [MST_MONITOR] printing from master monitor collect_awaddr 
 -------------------------------------
Name       Type      Size  Value     
-------------------------------------
xtn        axi_xtn   -     @1210     
  AWID     integral  4     12        
  AWADDR   integral  32    'hc0da2c1c
  AWLEN    integral  4     'd7       
  AWSIZE   integral  3     'd2       
  AWBURST  integral  2     2         
  WID      integral  4     'd0       
  BID      integral  4     'd0       
  BRESP    integral  2     'd0       
  ARID     integral  4     'd0       
  ARADDR   integral  32    'h0       
  ARLEN    integral  8     'd0       
  ARSIZE   integral  3     'd0       
  ARBURST  integral  2     'd0       
  RID      integral  4     'd0       
-------------------------------------

UVM_INFO ../slave_agent_top/slave_monitor.sv(110) @ 55: uvm_test_top.env_h.slv_agt_top.slv_agt_h[0].slv_mon_h [slv_monitor] printing from slave monitor collect_awaddr 
 -------------------------------------
Name       Type      Size  Value     
-------------------------------------
xtn        axi_xtn   -     @1222     
  AWID     integral  4     12        
  AWADDR   integral  32    'hc0da2c1c
  AWLEN    integral  4     'd7       
  AWSIZE   integral  3     'd2       
  AWBURST  integral  2     2         
  WID      integral  4     'd0       
  BID      integral  4     'd0       
  BRESP    integral  2     'd0       
  ARID     integral  4     'd0       
  ARADDR   integral  32    'h0       
  ARLEN    integral  8     'd0       
  ARSIZE   integral  3     'd0       
  ARBURST  integral  2     'd0       
  RID      integral  4     'd0       
-------------------------------------

end of drive_raddr
end of slave_raddr
start of slave_raddr
start of drive_raddr
start of drive_rdata
start of slave_rdata
end of read_awaddr
start of read_awaddr
start of read_data
aligned:26a1bcf0
addresses calculated in slave side are '{26a1bcf0, 26a1bcf4, 26a1bcf8, 26a1bcfc, 26a1bd00, 26a1bd04, 26a1bd08, 26a1bd0c, 26a1bd10, 26a1bd14, 26a1bd18, 26a1bd1c, 26a1bd20, 26a1bd24, 26a1bd28, 26a1bd2c}
inside drive_raddr before wait ARREADY
slave driver start of awvalid
WSTRB in slave driver is:15
value inside mem is: 34ef75a6
end of drive_awaddr
-----------------------------------------------------------------------------------------------------------
Name                           Type      Size  Value                                                       
-----------------------------------------------------------------------------------------------------------
req                            axi_xtn   -     @1198                                                       
  begin_time                   time      64    45                                                          
  depth                        int       32    'd2                                                         
  parent sequence (name)       string    5     m_seq                                                       
  parent sequence (full name)  string    60    uvm_test_top.env_h.mst_agt_top.mst_agt_h[0].mst_seqr_h.m_seq
  sequencer                    string    54    uvm_test_top.env_h.mst_agt_top.mst_agt_h[0].mst_seqr_h      
  AWID                         integral  4     12                                                          
  AWADDR                       integral  32    'hc0da2c1c                                                  
  AWLEN                        integral  4     'd7                                                         
  AWSIZE                       integral  3     'd2                                                         
  AWBURST                      integral  2     2                                                           
  WID                          integral  4     12                                                          
  WDATA                        integral  32    'h9aae3f6d                                                  
  WSTRB                        integral  4     'b1111                                                      
  WLAST                        integral  1     'dX                                                         
  WDATA                        integral  32    'h6323a7f6                                                  
  WSTRB                        integral  4     'b1111                                                      
  WLAST                        integral  1     'dX                                                         
  WDATA                        integral  32    'h49aea454                                                  
  WSTRB                        integral  4     'b1111                                                      
  WLAST                        integral  1     'dX                                                         
  WDATA                        integral  32    'hef5ff5c5                                                  
  WSTRB                        integral  4     'b1111                                                      
  WLAST                        integral  1     'dX                                                         
  WDATA                        integral  32    'ha1963e6e                                                  
  WSTRB                        integral  4     'b1111                                                      
  WLAST                        integral  1     'dX                                                         
  WDATA                        integral  32    'h8cdc5d56                                                  
  WSTRB                        integral  4     'b1111                                                      
  WLAST                        integral  1     'dX                                                         
  WDATA                        integral  32    'h6ebd603                                                   
  WSTRB                        integral  4     'b1111                                                      
  WLAST                        integral  1     'dX                                                         
  WDATA                        integral  32    'hd42704c7                                                  
  WSTRB                        integral  4     'b1111                                                      
  WLAST                        integral  1     'dX                                                         
  BID                          integral  4     12                                                          
  BRESP                        integral  2     'd0                                                         
  ARID                         integral  4     15                                                          
  ARADDR                       integral  32    'h29e4e8c0                                                  
  ARLEN                        integral  8     'd3                                                         
  ARSIZE                       integral  3     'd1                                                         
  ARBURST                      integral  2     2                                                           
  RID                          integral  4     15                                                          
  RDATA                        integral  32    'h7bf976d6                                                  
  RRESP                        integral  2     'd0                                                         
  RDATA                        integral  32    'h5a43e150                                                  
  RRESP                        integral  2     'd0                                                         
  RDATA                        integral  32    'h8fcac2dc                                                  
  RRESP                        integral  2     'd0                                                         
  RDATA                        integral  32    'h34e6b780                                                  
  RRESP                        integral  2     'd0                                                         
-----------------------------------------------------------------------------------------------------------
start of drive_awaddr
UVM_INFO ../master_agent_top/master_monitor.sv(188) @ 115: uvm_test_top.env_h.mst_agt_top.mst_agt_h[0].mst_mon_h [MST_MONITOR] printing from master monitor collect_raddr 
 -------------------------------------
Name       Type      Size  Value     
-------------------------------------
xtn3       axi_xtn   -     @1189     
  AWID     integral  4     'd0       
  AWADDR   integral  32    'h0       
  AWLEN    integral  4     'd0       
  AWSIZE   integral  3     'd0       
  AWBURST  integral  2     'd0       
  WID      integral  4     'd0       
  BID      integral  4     'd0       
  BRESP    integral  2     'd0       
  ARID     integral  4     15        
  ARADDR   integral  32    'h29e4e8c0
  ARLEN    integral  8     'd3       
  ARSIZE   integral  3     'd1       
  ARBURST  integral  2     2         
  RID      integral  4     'd0       
-------------------------------------

UVM_INFO ../slave_agent_top/slave_monitor.sv(184) @ 115: uvm_test_top.env_h.slv_agt_top.slv_agt_h[0].slv_mon_h [slv_monitor] printing from slave monitor collect_raddr 
 -------------------------------------
Name       Type      Size  Value     
-------------------------------------
xtn3       axi_xtn   -     @1193     
  AWID     integral  4     'd0       
  AWADDR   integral  32    'h0       
  AWLEN    integral  4     'd0       
  AWSIZE   integral  3     'd0       
  AWBURST  integral  2     'd0       
  WID      integral  4     'd0       
  BID      integral  4     'd0       
  BRESP    integral  2     'd0       
  ARID     integral  4     15        
  ARADDR   integral  32    'h29e4e8c0
  ARLEN    integral  8     'd3       
  ARSIZE   integral  3     'd1       
  ARBURST  integral  2     2         
  RID      integral  4     'd0       
-------------------------------------

end of slave_raddr
start of slave_raddr
UVM_INFO ../master_agent_top/master_monitor.sv(111) @ 145: uvm_test_top.env_h.mst_agt_top.mst_agt_h[0].mst_mon_h [MST_MONITOR] printing from master monitor collect_awaddr 
 -------------------------------------
Name       Type      Size  Value     
-------------------------------------
xtn        axi_xtn   -     @1234     
  AWID     integral  4     12        
  AWADDR   integral  32    'h9b6f9e26
  AWLEN    integral  4     'd7       
  AWSIZE   integral  3     'd0       
  AWBURST  integral  2     2         
  WID      integral  4     'd0       
  BID      integral  4     'd0       
  BRESP    integral  2     'd0       
  ARID     integral  4     'd0       
  ARADDR   integral  32    'h0       
  ARLEN    integral  8     'd0       
  ARSIZE   integral  3     'd0       
  ARBURST  integral  2     'd0       
  RID      integral  4     'd0       
-------------------------------------

UVM_INFO ../slave_agent_top/slave_monitor.sv(110) @ 145: uvm_test_top.env_h.slv_agt_top.slv_agt_h[0].slv_mon_h [slv_monitor] printing from slave monitor collect_awaddr 
 -------------------------------------
Name       Type      Size  Value     
-------------------------------------
xtn        axi_xtn   -     @1238     
  AWID     integral  4     12        
  AWADDR   integral  32    'h9b6f9e26
  AWLEN    integral  4     'd7       
  AWSIZE   integral  3     'd0       
  AWBURST  integral  2     2         
  WID      integral  4     'd0       
  BID      integral  4     'd0       
  BRESP    integral  2     'd0       
  ARID     integral  4     'd0       
  ARADDR   integral  32    'h0       
  ARLEN    integral  8     'd0       
  ARSIZE   integral  3     'd0       
  ARBURST  integral  2     'd0       
  RID      integral  4     'd0       
-------------------------------------

slave driver start of awvalid
WSTRB in slave driver is:15
value inside mem is: fb619e38
end of drive_raddr
start of drive_raddr
end of drive_awaddr
-----------------------------------------------------------------------------------------------------------
Name                           Type      Size  Value                                                       
-----------------------------------------------------------------------------------------------------------
req                            axi_xtn   -     @1242                                                       
  begin_time                   time      64    105                                                         
  depth                        int       32    'd2                                                         
  parent sequence (name)       string    5     m_seq                                                       
  parent sequence (full name)  string    60    uvm_test_top.env_h.mst_agt_top.mst_agt_h[0].mst_seqr_h.m_seq
  sequencer                    string    54    uvm_test_top.env_h.mst_agt_top.mst_agt_h[0].mst_seqr_h      
  AWID                         integral  4     12                                                          
  AWADDR                       integral  32    'h9b6f9e26                                                  
  AWLEN                        integral  4     'd7                                                         
  AWSIZE                       integral  3     'd0                                                         
  AWBURST                      integral  2     2                                                           
  WID                          integral  4     12                                                          
  WDATA                        integral  32    'hdcd551aa                                                  
  WSTRB                        integral  4     'b0                                                         
  WLAST                        integral  1     'dX                                                         
  WDATA                        integral  32    'h822223e9                                                  
  WSTRB                        integral  4     'b1000                                                      
  WLAST                        integral  1     'dX                                                         
  WDATA                        integral  32    'hd25e1a86                                                  
  WSTRB                        integral  4     'b1                                                         
  WLAST                        integral  1     'dX                                                         
  WDATA                        integral  32    'hfff459d9                                                  
  WSTRB                        integral  4     'b10                                                        
  WLAST                        integral  1     'dX                                                         
  WDATA                        integral  32    'hfab5a6f                                                   
  WSTRB                        integral  4     'b100                                                       
  WLAST                        integral  1     'dX                                                         
  WDATA                        integral  32    'h3ea5887c                                                  
  WSTRB                        integral  4     'b1000                                                      
  WLAST                        integral  1     'dX                                                         
  WDATA                        integral  32    'h87857eab                                                  
  WSTRB                        integral  4     'b1                                                         
  WLAST                        integral  1     'dX                                                         
  WDATA                        integral  32    'h79129620                                                  
  WSTRB                        integral  4     'b10                                                        
  WLAST                        integral  1     'dX                                                         
  BID                          integral  4     12                                                          
  BRESP                        integral  2     'd0                                                         
  ARID                         integral  4     'd0                                                         
  ARADDR                       integral  32    'h3c103484                                                  
  ARLEN                        integral  8     'd3                                                         
  ARSIZE                       integral  3     'd0                                                         
  ARBURST                      integral  2     2                                                           
  RID                          integral  4     'd0                                                         
  RDATA                        integral  32    'hd4ebc616                                                  
  RRESP                        integral  2     'd0                                                         
  RDATA                        integral  32    'hb9081510                                                  
  RRESP                        integral  2     'd0                                                         
  RDATA                        integral  32    'h29bbeae7                                                  
  RRESP                        integral  2     'd0                                                         
  RDATA                        integral  32    'h2db3c55c                                                  
  RRESP                        integral  2     'd0                                                         
-----------------------------------------------------------------------------------------------------------
start of drive_awaddr
UVM_INFO ../master_agent_top/master_monitor.sv(111) @ 185: uvm_test_top.env_h.mst_agt_top.mst_agt_h[0].mst_mon_h [MST_MONITOR] printing from master monitor collect_awaddr 
 -------------------------------------
Name       Type      Size  Value     
-------------------------------------
xtn        axi_xtn   -     @1262     
  AWID     integral  4     'd4       
  AWADDR   integral  32    'hacadd42c
  AWLEN    integral  4     'd1       
  AWSIZE   integral  3     'd0       
  AWBURST  integral  2     2         
  WID      integral  4     'd0       
  BID      integral  4     'd0       
  BRESP    integral  2     'd0       
  ARID     integral  4     'd0       
  ARADDR   integral  32    'h0       
  ARLEN    integral  8     'd0       
  ARSIZE   integral  3     'd0       
  ARBURST  integral  2     'd0       
  RID      integral  4     'd0       
-------------------------------------

UVM_INFO ../slave_agent_top/slave_monitor.sv(110) @ 185: uvm_test_top.env_h.slv_agt_top.slv_agt_h[0].slv_mon_h [slv_monitor] printing from slave monitor collect_awaddr 
 -------------------------------------
Name       Type      Size  Value     
-------------------------------------
xtn        axi_xtn   -     @1266     
  AWID     integral  4     'd4       
  AWADDR   integral  32    'hacadd42c
  AWLEN    integral  4     'd1       
  AWSIZE   integral  3     'd0       
  AWBURST  integral  2     2         
  WID      integral  4     'd0       
  BID      integral  4     'd0       
  BRESP    integral  2     'd0       
  ARID     integral  4     'd0       
  ARADDR   integral  32    'h0       
  ARLEN    integral  8     'd0       
  ARSIZE   integral  3     'd0       
  ARBURST  integral  2     'd0       
  RID      integral  4     'd0       
-------------------------------------

inside drive_raddr before wait ARREADY
end of read_awaddr
start of read_awaddr
end of drive_awaddr
-----------------------------------------------------------------------------------------------------------
Name                           Type      Size  Value                                                       
-----------------------------------------------------------------------------------------------------------
req                            axi_xtn   -     @1270                                                       
  begin_time                   time      64    175                                                         
  depth                        int       32    'd2                                                         
  parent sequence (name)       string    5     m_seq                                                       
  parent sequence (full name)  string    60    uvm_test_top.env_h.mst_agt_top.mst_agt_h[0].mst_seqr_h.m_seq
  sequencer                    string    54    uvm_test_top.env_h.mst_agt_top.mst_agt_h[0].mst_seqr_h      
  AWID                         integral  4     'd4                                                         
  AWADDR                       integral  32    'hacadd42c                                                  
  AWLEN                        integral  4     'd1                                                         
  AWSIZE                       integral  3     'd0                                                         
  AWBURST                      integral  2     2                                                           
  WID                          integral  4     'd4                                                         
  WDATA                        integral  32    'h30caa903                                                  
  WSTRB                        integral  4     'b1                                                         
  WLAST                        integral  1     'dX                                                         
  WDATA                        integral  32    'h6fb39f42                                                  
  WSTRB                        integral  4     'b10                                                        
  WLAST                        integral  1     'dX                                                         
  BID                          integral  4     'd4                                                         
  BRESP                        integral  2     'd0                                                         
  ARID                         integral  4     8                                                           
  ARADDR                       integral  32    'ha347e6c                                                   
  ARLEN                        integral  8     'd3                                                         
  ARSIZE                       integral  3     'd2                                                         
  ARBURST                      integral  2     2                                                           
  RID                          integral  4     8                                                           
  RDATA                        integral  32    'hb894a153                                                  
  RRESP                        integral  2     'd0                                                         
  RDATA                        integral  32    'he32ce3c                                                   
  RRESP                        integral  2     'd0                                                         
  RDATA                        integral  32    'h7e910088                                                  
  RRESP                        integral  2     'd0                                                         
  RDATA                        integral  32    'ha08ee2a7                                                  
  RRESP                        integral  2     'd0                                                         
-----------------------------------------------------------------------------------------------------------
end of slave_raddr
start of slave_raddr
start of drive_awaddr
UVM_INFO ../master_agent_top/master_monitor.sv(111) @ 205: uvm_test_top.env_h.mst_agt_top.mst_agt_h[0].mst_mon_h [MST_MONITOR] printing from master monitor collect_awaddr 
 -------------------------------------
Name       Type      Size  Value     
-------------------------------------
xtn        axi_xtn   -     @1274     
  AWID     integral  4     'd0       
  AWADDR   integral  32    'h85498dc0
  AWLEN    integral  4     15        
  AWSIZE   integral  3     'd1       
  AWBURST  integral  2     2         
  WID      integral  4     'd0       
  BID      integral  4     'd0       
  BRESP    integral  2     'd0       
  ARID     integral  4     'd0       
  ARADDR   integral  32    'h0       
  ARLEN    integral  8     'd0       
  ARSIZE   integral  3     'd0       
  ARBURST  integral  2     'd0       
  RID      integral  4     'd0       
-------------------------------------

UVM_INFO ../slave_agent_top/slave_monitor.sv(110) @ 205: uvm_test_top.env_h.slv_agt_top.slv_agt_h[0].slv_mon_h [slv_monitor] printing from slave monitor collect_awaddr 
 -------------------------------------
Name       Type      Size  Value     
-------------------------------------
xtn        axi_xtn   -     @1286     
  AWID     integral  4     'd0       
  AWADDR   integral  32    'h85498dc0
  AWLEN    integral  4     15        
  AWSIZE   integral  3     'd1       
  AWBURST  integral  2     2         
  WID      integral  4     'd0       
  BID      integral  4     'd0       
  BRESP    integral  2     'd0       
  ARID     integral  4     'd0       
  ARADDR   integral  32    'h0       
  ARLEN    integral  8     'd0       
  ARSIZE   integral  3     'd0       
  ARBURST  integral  2     'd0       
  RID      integral  4     'd0       
-------------------------------------

UVM_INFO ../master_agent_top/master_monitor.sv(188) @ 205: uvm_test_top.env_h.mst_agt_top.mst_agt_h[0].mst_mon_h [MST_MONITOR] printing from master monitor collect_raddr 
 -------------------------------------
Name       Type      Size  Value     
-------------------------------------
xtn3       axi_xtn   -     @1246     
  AWID     integral  4     'd0       
  AWADDR   integral  32    'h0       
  AWLEN    integral  4     'd0       
  AWSIZE   integral  3     'd0       
  AWBURST  integral  2     'd0       
  WID      integral  4     'd0       
  BID      integral  4     'd0       
  BRESP    integral  2     'd0       
  ARID     integral  4     'd0       
  ARADDR   integral  32    'h3c103484
  ARLEN    integral  8     'd3       
  ARSIZE   integral  3     'd0       
  ARBURST  integral  2     2         
  RID      integral  4     'd0       
-------------------------------------

slave driver start of awvalid
WSTRB in slave driver is:15
value inside mem is: e142ca0a
UVM_INFO ../slave_agent_top/slave_monitor.sv(184) @ 205: uvm_test_top.env_h.slv_agt_top.slv_agt_h[0].slv_mon_h [slv_monitor] printing from slave monitor collect_raddr 
 -------------------------------------
Name       Type      Size  Value     
-------------------------------------
xtn3       axi_xtn   -     @1250     
  AWID     integral  4     'd0       
  AWADDR   integral  32    'h0       
  AWLEN    integral  4     'd0       
  AWSIZE   integral  3     'd0       
  AWBURST  integral  2     'd0       
  WID      integral  4     'd0       
  BID      integral  4     'd0       
  BRESP    integral  2     'd0       
  ARID     integral  4     'd0       
  ARADDR   integral  32    'h3c103484
  ARLEN    integral  8     'd3       
  ARSIZE   integral  3     'd0       
  ARBURST  integral  2     2         
  RID      integral  4     'd0       
-------------------------------------

end of drive_raddr
UVM_INFO ../master_agent_top/master_monitor.sv(254) @ 235: uvm_test_top.env_h.mst_agt_top.mst_agt_h[0].mst_mon_h [MST_MONITOR] printing from master monitor monitor_rdata 
 -------------------------------------
Name       Type      Size  Value     
-------------------------------------
xtn3       axi_xtn   -     @1103     
  AWID     integral  4     'd0       
  AWADDR   integral  32    'h0       
  AWLEN    integral  4     'd0       
  AWSIZE   integral  3     'd0       
  AWBURST  integral  2     'd0       
  WID      integral  4     'd0       
  BID      integral  4     'd0       
  BRESP    integral  2     'd0       
  ARID     integral  4     'd6       
  ARADDR   integral  32    'h6d7fe1de
  ARLEN    integral  8     'd3       
  ARSIZE   integral  3     'd1       
  ARBURST  integral  2     2         
  RID      integral  4     'd6       
  RDATA    integral  32    'hc778    
  RRESP    integral  2     'd0       
  RDATA    integral  32    'h1520    
  RRESP    integral  2     'd0       
  RDATA    integral  32    'h9a27    
  RRESP    integral  2     'd0       
  RDATA    integral  32    'he99d    
  RRESP    integral  2     'd0       
-------------------------------------

end of read_awaddr
UVM_INFO ../slave_agent_top/slave_monitor.sv(249) @ 235: uvm_test_top.env_h.slv_agt_top.slv_agt_h[0].slv_mon_h [slv_monitor] printing from slave monitor monitor_rdata 
 -------------------------------------
Name       Type      Size  Value     
-------------------------------------
xtn3       axi_xtn   -     @1085     
  AWID     integral  4     'd0       
  AWADDR   integral  32    'h0       
  AWLEN    integral  4     'd0       
  AWSIZE   integral  3     'd0       
  AWBURST  integral  2     'd0       
  WID      integral  4     'd0       
  BID      integral  4     'd0       
  BRESP    integral  2     'd0       
  ARID     integral  4     'd6       
  ARADDR   integral  32    'h6d7fe1de
  ARLEN    integral  8     'd3       
  ARSIZE   integral  3     'd1       
  ARBURST  integral  2     2         
  RID      integral  4     'd6       
  RDATA    integral  32    'hc778    
  RRESP    integral  2     'd0       
  RDATA    integral  32    'h1520    
  RRESP    integral  2     'd0       
  RDATA    integral  32    'h9a27    
  RRESP    integral  2     'd0       
  RDATA    integral  32    'he99d    
  RRESP    integral  2     'd0       
-------------------------------------

start of drive_raddr
start of read_awaddr
slave driver start of awvalid
WSTRB in slave driver is:15
value inside mem is: ae5d5922
end of drive_awaddr
-----------------------------------------------------------------------------------------------------------
Name                           Type      Size  Value                                                       
-----------------------------------------------------------------------------------------------------------
req                            axi_xtn   -     @1290                                                       
  begin_time                   time      64    195                                                         
  depth                        int       32    'd2                                                         
  parent sequence (name)       string    5     m_seq                                                       
  parent sequence (full name)  string    60    uvm_test_top.env_h.mst_agt_top.mst_agt_h[0].mst_seqr_h.m_seq
  sequencer                    string    54    uvm_test_top.env_h.mst_agt_top.mst_agt_h[0].mst_seqr_h      
  AWID                         integral  4     'd0                                                         
  AWADDR                       integral  32    'h85498dc0                                                  
  AWLEN                        integral  4     15                                                          
  AWSIZE                       integral  3     'd1                                                         
  AWBURST                      integral  2     2                                                           
  WID                          integral  4     'd0                                                         
  WDATA                        integral  32    'hd184db8d                                                  
  WSTRB                        integral  4     'b11                                                        
  WLAST                        integral  1     'dX                                                         
  WDATA                        integral  32    'hd2a17baa                                                  
  WSTRB                        integral  4     'b1100                                                      
  WLAST                        integral  1     'dX                                                         
  WDATA                        integral  32    'h52a78e7f                                                  
  WSTRB                        integral  4     'b11                                                        
  WLAST                        integral  1     'dX                                                         
  WDATA                        integral  32    'h45c97ccc                                                  
  WSTRB                        integral  4     'b1100                                                      
  WLAST                        integral  1     'dX                                                         
  WDATA                        integral  32    'hd51defe6                                                  
  WSTRB                        integral  4     'b11                                                        
  WLAST                        integral  1     'dX                                                         
  WDATA                        integral  32    'hf262798                                                   
  WSTRB                        integral  4     'b1100                                                      
  WLAST                        integral  1     'dX                                                         
  WDATA                        integral  32    'hb201635c                                                  
  WSTRB                        integral  4     'b11                                                        
  WLAST                        integral  1     'dX                                                         
  WDATA                        integral  32    'h1db77c89                                                  
  WSTRB                        integral  4     'b1100                                                      
  WLAST                        integral  1     'dX                                                         
  WDATA                        integral  32    'h708428ba                                                  
  WSTRB                        integral  4     'b11                                                        
  WLAST                        integral  1     'dX                                                         
  WDATA                        integral  32    'h31a640ee                                                  
  WSTRB                        integral  4     'b1100                                                      
  WLAST                        integral  1     'dX                                                         
  WDATA                        integral  32    'h8e7cc968                                                  
  WSTRB                        integral  4     'b11                                                        
  WLAST                        integral  1     'dX                                                         
  WDATA                        integral  32    'hbd8cfb9                                                   
  WSTRB                        integral  4     'b1100                                                      
  WLAST                        integral  1     'dX                                                         
  WDATA                        integral  32    'h353daf47                                                  
  WSTRB                        integral  4     'b11                                                        
  WLAST                        integral  1     'dX                                                         
  WDATA                        integral  32    'h5d21cae5                                                  
  WSTRB                        integral  4     'b1100                                                      
  WLAST                        integral  1     'dX                                                         
  WDATA                        integral  32    'hdb580366                                                  
  WSTRB                        integral  4     'b11                                                        
  WLAST                        integral  1     'dX                                                         
  WDATA                        integral  32    'he223e68c                                                  
  WSTRB                        integral  4     'b1100                                                      
  WLAST                        integral  1     'dX                                                         
  BID                          integral  4     'd0                                                         
  BRESP                        integral  2     'd0                                                         
  ARID                         integral  4     'd2                                                         
  ARADDR                       integral  32    'h3fb997e4                                                  
  ARLEN                        integral  8     'd1                                                         
  ARSIZE                       integral  3     'd2                                                         
  ARBURST                      integral  2     2                                                           
  RID                          integral  4     'd2                                                         
  RDATA                        integral  32    'h7cd4d2e3                                                  
  RRESP                        integral  2     'd0                                                         
  RDATA                        integral  32    'h383985b9                                                  
  RRESP                        integral  2     'd0                                                         
-----------------------------------------------------------------------------------------------------------
end of slave_rdata
start of slave_rdata
start of drive_awaddr
master received address:'{6d7fe1de, 6d7fe1d8, 6d7fe1da, 6d7fe1dc}
memory received in master driver is '{6d7fe1d8:00001520, 6d7fe1da:00009a27, 6d7fe1dc:0000e99d, 6d7fe1de:0000c778 }
end of drive_rdata
start of drive_rdata
UVM_INFO ../master_agent_top/master_monitor.sv(111) @ 295: uvm_test_top.env_h.mst_agt_top.mst_agt_h[0].mst_mon_h [MST_MONITOR] printing from master monitor collect_awaddr 
 ------------------------------------
Name       Type      Size  Value    
------------------------------------
xtn        axi_xtn   -     @1302    
  AWID     integral  4     14       
  AWADDR   integral  32    'h7404f8a
  AWLEN    integral  4     15       
  AWSIZE   integral  3     'd1      
  AWBURST  integral  2     2        
  WID      integral  4     'd0      
  BID      integral  4     'd0      
  BRESP    integral  2     'd0      
  ARID     integral  4     'd0      
  ARADDR   integral  32    'h0      
  ARLEN    integral  8     'd0      
  ARSIZE   integral  3     'd0      
  ARBURST  integral  2     'd0      
  RID      integral  4     'd0      
------------------------------------

UVM_INFO ../slave_agent_top/slave_monitor.sv(110) @ 295: uvm_test_top.env_h.slv_agt_top.slv_agt_h[0].slv_mon_h [slv_monitor] printing from slave monitor collect_awaddr 
 ------------------------------------
Name       Type      Size  Value    
------------------------------------
xtn        axi_xtn   -     @1306    
  AWID     integral  4     14       
  AWADDR   integral  32    'h7404f8a
  AWLEN    integral  4     15       
  AWSIZE   integral  3     'd1      
  AWBURST  integral  2     2        
  WID      integral  4     'd0      
  BID      integral  4     'd0      
  BRESP    integral  2     'd0      
  ARID     integral  4     'd0      
  ARADDR   integral  32    'h0      
  ARLEN    integral  8     'd0      
  ARSIZE   integral  3     'd0      
  ARBURST  integral  2     'd0      
  RID      integral  4     'd0      
------------------------------------

inside drive_raddr before wait ARREADY
UVM_INFO ../master_agent_top/master_monitor.sv(188) @ 305: uvm_test_top.env_h.mst_agt_top.mst_agt_h[0].mst_mon_h [MST_MONITOR] printing from master monitor collect_raddr 
 ------------------------------------
Name       Type      Size  Value    
------------------------------------
xtn3       axi_xtn   -     @1294    
  AWID     integral  4     'd0      
  AWADDR   integral  32    'h0      
  AWLEN    integral  4     'd0      
  AWSIZE   integral  3     'd0      
  AWBURST  integral  2     'd0      
  WID      integral  4     'd0      
  BID      integral  4     'd0      
  BRESP    integral  2     'd0      
  ARID     integral  4     8        
  ARADDR   integral  32    'ha347e6c
  ARLEN    integral  8     'd3      
  ARSIZE   integral  3     'd2      
  ARBURST  integral  2     2        
  RID      integral  4     'd0      
------------------------------------

slave driver start of awvalid
WSTRB in slave driver is:15
value inside mem is: 9458f836
UVM_INFO ../slave_agent_top/slave_monitor.sv(184) @ 305: uvm_test_top.env_h.slv_agt_top.slv_agt_h[0].slv_mon_h [slv_monitor] printing from slave monitor collect_raddr 
 ------------------------------------
Name       Type      Size  Value    
------------------------------------
xtn3       axi_xtn   -     @1298    
  AWID     integral  4     'd0      
  AWADDR   integral  32    'h0      
  AWLEN    integral  4     'd0      
  AWSIZE   integral  3     'd0      
  AWBURST  integral  2     'd0      
  WID      integral  4     'd0      
  BID      integral  4     'd0      
  BRESP    integral  2     'd0      
  ARID     integral  4     8        
  ARADDR   integral  32    'ha347e6c
  ARLEN    integral  8     'd3      
  ARSIZE   integral  3     'd2      
  ARBURST  integral  2     2        
  RID      integral  4     'd0      
------------------------------------

end of drive_raddr
start of drive_raddr
end of drive_awaddr
-----------------------------------------------------------------------------------------------------------
Name                           Type      Size  Value                                                       
-----------------------------------------------------------------------------------------------------------
req                            axi_xtn   -     @1318                                                       
  begin_time                   time      64    255                                                         
  depth                        int       32    'd2                                                         
  parent sequence (name)       string    5     m_seq                                                       
  parent sequence (full name)  string    60    uvm_test_top.env_h.mst_agt_top.mst_agt_h[0].mst_seqr_h.m_seq
  sequencer                    string    54    uvm_test_top.env_h.mst_agt_top.mst_agt_h[0].mst_seqr_h      
  AWID                         integral  4     14                                                          
  AWADDR                       integral  32    'h7404f8a                                                   
  AWLEN                        integral  4     15                                                          
  AWSIZE                       integral  3     'd1                                                         
  AWBURST                      integral  2     2                                                           
  WID                          integral  4     14                                                          
  WDATA                        integral  32    'hdbacd102                                                  
  WSTRB                        integral  4     'b1100                                                      
  WLAST                        integral  1     'dX                                                         
  WDATA                        integral  32    'h1ac4d037                                                  
  WSTRB                        integral  4     'b11                                                        
  WLAST                        integral  1     'dX                                                         
  WDATA                        integral  32    'ha22fd6ef                                                  
  WSTRB                        integral  4     'b1100                                                      
  WLAST                        integral  1     'dX                                                         
  WDATA                        integral  32    'h67debe6                                                   
  WSTRB                        integral  4     'b11                                                        
  WLAST                        integral  1     'dX                                                         
  WDATA                        integral  32    'had224986                                                  
  WSTRB                        integral  4     'b1100                                                      
  WLAST                        integral  1     'dX                                                         
  WDATA                        integral  32    'hd35eb36a                                                  
  WSTRB                        integral  4     'b11                                                        
  WLAST                        integral  1     'dX                                                         
  WDATA                        integral  32    'he76175ea                                                  
  WSTRB                        integral  4     'b1100                                                      
  WLAST                        integral  1     'dX                                                         
  WDATA                        integral  32    'hefe79b85                                                  
  WSTRB                        integral  4     'b11                                                        
  WLAST                        integral  1     'dX                                                         
  WDATA                        integral  32    'h748fe831                                                  
  WSTRB                        integral  4     'b1100                                                      
  WLAST                        integral  1     'dX                                                         
  WDATA                        integral  32    'h85f03c79                                                  
  WSTRB                        integral  4     'b11                                                        
  WLAST                        integral  1     'dX                                                         
  WDATA                        integral  32    'h5c3e9be6                                                  
  WSTRB                        integral  4     'b1100                                                      
  WLAST                        integral  1     'dX                                                         
  WDATA                        integral  32    'h3ef28c27                                                  
  WSTRB                        integral  4     'b11                                                        
  WLAST                        integral  1     'dX                                                         
  WDATA                        integral  32    'h5e826a29                                                  
  WSTRB                        integral  4     'b1100                                                      
  WLAST                        integral  1     'dX                                                         
  WDATA                        integral  32    'h64c42c3                                                   
  WSTRB                        integral  4     'b11                                                        
  WLAST                        integral  1     'dX                                                         
  WDATA                        integral  32    'h401f167c                                                  
  WSTRB                        integral  4     'b1100                                                      
  WLAST                        integral  1     'dX                                                         
  WDATA                        integral  32    'hbfe522c0                                                  
  WSTRB                        integral  4     'b11                                                        
  WLAST                        integral  1     'dX                                                         
  BID                          integral  4     14                                                          
  BRESP                        integral  2     'd0                                                         
  ARID                         integral  4     'd6                                                         
  ARADDR                       integral  32    'h18143f50                                                  
  ARLEN                        integral  8     'd7                                                         
  ARSIZE                       integral  3     'd2                                                         
  ARBURST                      integral  2     2                                                           
  RID                          integral  4     'd6                                                         
  RDATA                        integral  32    'hc24e01fd                                                  
  RRESP                        integral  2     'd0                                                         
  RDATA                        integral  32    'h91a88b0c                                                  
  RRESP                        integral  2     'd0                                                         
  RDATA                        integral  32    'h9a10c4d2                                                  
  RRESP                        integral  2     'd0                                                         
  RDATA                        integral  32    'h16ec74a7                                                  
  RRESP                        integral  2     'd0                                                         
  RDATA                        integral  32    'h450047ea                                                  
  RRESP                        integral  2     'd0                                                         
  RDATA                        integral  32    'hd1947fc7                                                  
  RRESP                        integral  2     'd0                                                         
  RDATA                        integral  32    'h248990ff                                                  
  RRESP                        integral  2     'd0                                                         
  RDATA                        integral  32    'hde54500                                                   
  RRESP                        integral  2     'd0                                                         
-----------------------------------------------------------------------------------------------------------
start of drive_awaddr
UVM_INFO ../master_agent_top/master_monitor.sv(111) @ 335: uvm_test_top.env_h.mst_agt_top.mst_agt_h[0].mst_mon_h [MST_MONITOR] printing from master monitor collect_awaddr 
 -------------------------------------
Name       Type      Size  Value     
-------------------------------------
xtn        axi_xtn   -     @1322     
  AWID     integral  4     'd3       
  AWADDR   integral  32    'h6b1c7d28
  AWLEN    integral  4     'd3       
  AWSIZE   integral  3     'd0       
  AWBURST  integral  2     2         
  WID      integral  4     'd0       
  BID      integral  4     'd0       
  BRESP    integral  2     'd0       
  ARID     integral  4     'd0       
  ARADDR   integral  32    'h0       
  ARLEN    integral  8     'd0       
  ARSIZE   integral  3     'd0       
  ARBURST  integral  2     'd0       
  RID      integral  4     'd0       
-------------------------------------

UVM_INFO ../slave_agent_top/slave_monitor.sv(110) @ 335: uvm_test_top.env_h.slv_agt_top.slv_agt_h[0].slv_mon_h [slv_monitor] printing from slave monitor collect_awaddr 
 -------------------------------------
Name       Type      Size  Value     
-------------------------------------
xtn        axi_xtn   -     @1326     
  AWID     integral  4     'd3       
  AWADDR   integral  32    'h6b1c7d28
  AWLEN    integral  4     'd3       
  AWSIZE   integral  3     'd0       
  AWBURST  integral  2     2         
  WID      integral  4     'd0       
  BID      integral  4     'd0       
  BRESP    integral  2     'd0       
  ARID     integral  4     'd0       
  ARADDR   integral  32    'h0       
  ARLEN    integral  8     'd0       
  ARSIZE   integral  3     'd0       
  ARBURST  integral  2     'd0       
  RID      integral  4     'd0       
-------------------------------------

inside drive_raddr before wait ARREADY
slave driver start of awvalid
WSTRB in slave driver is:15
value inside mem is: 426b5336
end of read_awaddr
start of read_awaddr
end of slave_raddr
start of slave_raddr
end of drive_awaddr
-----------------------------------------------------------------------------------------------------------
Name                           Type      Size  Value                                                       
-----------------------------------------------------------------------------------------------------------
req                            axi_xtn   -     @1338                                                       
  begin_time                   time      64    325                                                         
  depth                        int       32    'd2                                                         
  parent sequence (name)       string    5     m_seq                                                       
  parent sequence (full name)  string    60    uvm_test_top.env_h.mst_agt_top.mst_agt_h[0].mst_seqr_h.m_seq
  sequencer                    string    54    uvm_test_top.env_h.mst_agt_top.mst_agt_h[0].mst_seqr_h      
  AWID                         integral  4     'd3                                                         
  AWADDR                       integral  32    'h6b1c7d28                                                  
  AWLEN                        integral  4     'd3                                                         
  AWSIZE                       integral  3     'd0                                                         
  AWBURST                      integral  2     2                                                           
  WID                          integral  4     'd3                                                         
  WDATA                        integral  32    'h37f2ce9b                                                  
  WSTRB                        integral  4     'b1                                                         
  WLAST                        integral  1     'dX                                                         
  WDATA                        integral  32    'hc59dda1d                                                  
  WSTRB                        integral  4     'b10                                                        
  WLAST                        integral  1     'dX                                                         
  WDATA                        integral  32    'h3b20fe1f                                                  
  WSTRB                        integral  4     'b100                                                       
  WLAST                        integral  1     'dX                                                         
  WDATA                        integral  32    'hd097c6fd                                                  
  WSTRB                        integral  4     'b1000                                                      
  WLAST                        integral  1     'dX                                                         
  BID                          integral  4     'd3                                                         
  BRESP                        integral  2     'd0                                                         
  ARID                         integral  4     'd7                                                         
  ARADDR                       integral  32    'h146e4eb6                                                  
  ARLEN                        integral  8     'd15                                                        
  ARSIZE                       integral  3     'd1                                                         
  ARBURST                      integral  2     2                                                           
  RID                          integral  4     'd7                                                         
  RDATA                        integral  32    'h5daba9b5                                                  
  RRESP                        integral  2     'd0                                                         
  RDATA                        integral  32    'h94e66da8                                                  
  RRESP                        integral  2     'd0                                                         
  RDATA                        integral  32    'h1f07f55b                                                  
  RRESP                        integral  2     'd0                                                         
  RDATA                        integral  32    'hf4a93a39                                                  
  RRESP                        integral  2     'd0                                                         
  RDATA                        integral  32    'h6b1ee2f5                                                  
  RRESP                        integral  2     'd0                                                         
  RDATA                        integral  32    'hd08ecca7                                                  
  RRESP                        integral  2     'd0                                                         
  RDATA                        integral  32    'h4f95398a                                                  
  RRESP                        integral  2     'd0                                                         
  RDATA                        integral  32    'h8c8238fd                                                  
  RRESP                        integral  2     'd0                                                         
  RDATA                        integral  32    'hc2f33387                                                  
  RRESP                        integral  2     'd0                                                         
  RDATA                        integral  32    'h8312de91                                                  
  RRESP                        integral  2     'd0                                                         
  RDATA                        integral  32    'h5b979b67                                                  
  RRESP                        integral  2     'd0                                                         
  RDATA                        integral  32    'hbd8a2341                                                  
  RRESP                        integral  2     'd0                                                         
  RDATA                        integral  32    'h8aba4e8                                                   
  RRESP                        integral  2     'd0                                                         
  RDATA                        integral  32    'hd5e36130                                                  
  RRESP                        integral  2     'd0                                                         
  RDATA                        integral  32    'hda65162b                                                  
  RRESP                        integral  2     'd0                                                         
  RDATA                        integral  32    'h1803e4b1                                                  
  RRESP                        integral  2     'd0                                                         
-----------------------------------------------------------------------------------------------------------
UVM_INFO ../master_agent_top/master_monitor.sv(188) @ 355: uvm_test_top.env_h.mst_agt_top.mst_agt_h[0].mst_mon_h [MST_MONITOR] printing from master monitor collect_raddr 
 -------------------------------------
Name       Type      Size  Value     
-------------------------------------
xtn3       axi_xtn   -     @1330     
  AWID     integral  4     'd0       
  AWADDR   integral  32    'h0       
  AWLEN    integral  4     'd0       
  AWSIZE   integral  3     'd0       
  AWBURST  integral  2     'd0       
  WID      integral  4     'd0       
  BID      integral  4     'd0       
  BRESP    integral  2     'd0       
  ARID     integral  4     'd2       
  ARADDR   integral  32    'h3fb997e4
  ARLEN    integral  8     'd1       
  ARSIZE   integral  3     'd2       
  ARBURST  integral  2     2         
  RID      integral  4     'd0       
-------------------------------------

UVM_INFO ../slave_agent_top/slave_monitor.sv(184) @ 355: uvm_test_top.env_h.slv_agt_top.slv_agt_h[0].slv_mon_h [slv_monitor] printing from slave monitor collect_raddr 
 -------------------------------------
Name       Type      Size  Value     
-------------------------------------
xtn3       axi_xtn   -     @1334     
  AWID     integral  4     'd0       
  AWADDR   integral  32    'h0       
  AWLEN    integral  4     'd0       
  AWSIZE   integral  3     'd0       
  AWBURST  integral  2     'd0       
  WID      integral  4     'd0       
  BID      integral  4     'd0       
  BRESP    integral  2     'd0       
  ARID     integral  4     'd2       
  ARADDR   integral  32    'h3fb997e4
  ARLEN    integral  8     'd1       
  ARSIZE   integral  3     'd2       
  ARBURST  integral  2     2         
  RID      integral  4     'd0       
-------------------------------------

start of drive_awaddr
end of drive_raddr
start of drive_raddr
slave driver start of awvalid
WSTRB in slave driver is:15
value inside mem is: 2aa4bc1b
inside drive_raddr before wait ARREADY
UVM_INFO ../master_agent_top/master_monitor.sv(111) @ 405: uvm_test_top.env_h.mst_agt_top.mst_agt_h[0].mst_mon_h [MST_MONITOR] printing from master monitor collect_awaddr 
 -------------------------------------
Name       Type      Size  Value     
-------------------------------------
xtn        axi_xtn   -     @1342     
  AWID     integral  4     13        
  AWADDR   integral  32    'ha6b5dab4
  AWLEN    integral  4     'd7       
  AWSIZE   integral  3     'd0       
  AWBURST  integral  2     2         
  WID      integral  4     'd0       
  BID      integral  4     'd0       
  BRESP    integral  2     'd0       
  ARID     integral  4     'd0       
  ARADDR   integral  32    'h0       
  ARLEN    integral  8     'd0       
  ARSIZE   integral  3     'd0       
  ARBURST  integral  2     'd0       
  RID      integral  4     'd0       
-------------------------------------

UVM_INFO ../slave_agent_top/slave_monitor.sv(110) @ 405: uvm_test_top.env_h.slv_agt_top.slv_agt_h[0].slv_mon_h [slv_monitor] printing from slave monitor collect_awaddr 
 -------------------------------------
Name       Type      Size  Value     
-------------------------------------
xtn        axi_xtn   -     @1350     
  AWID     integral  4     13        
  AWADDR   integral  32    'ha6b5dab4
  AWLEN    integral  4     'd7       
  AWSIZE   integral  3     'd0       
  AWBURST  integral  2     2         
  WID      integral  4     'd0       
  BID      integral  4     'd0       
  BRESP    integral  2     'd0       
  ARID     integral  4     'd0       
  ARADDR   integral  32    'h0       
  ARLEN    integral  8     'd0       
  ARSIZE   integral  3     'd0       
  ARBURST  integral  2     'd0       
  RID      integral  4     'd0       
-------------------------------------

master received address:'{29e4e8c0, 29e4e8c2, 29e4e8c4, 29e4e8c6}
memory received in master driver is '{29e4e8c0:0000ea1b, 29e4e8c2:0000b39d, 29e4e8c4:00006a57, 29e4e8c6:000025a1 }
end of drive_rdata
UVM_INFO ../master_agent_top/master_monitor.sv(188) @ 415: uvm_test_top.env_h.mst_agt_top.mst_agt_h[0].mst_mon_h [MST_MONITOR] printing from master monitor collect_raddr 
 -------------------------------------
Name       Type      Size  Value     
-------------------------------------
xtn3       axi_xtn   -     @1362     
  AWID     integral  4     'd0       
  AWADDR   integral  32    'h0       
  AWLEN    integral  4     'd0       
  AWSIZE   integral  3     'd0       
  AWBURST  integral  2     'd0       
  WID      integral  4     'd0       
  BID      integral  4     'd0       
  BRESP    integral  2     'd0       
  ARID     integral  4     'd6       
  ARADDR   integral  32    'h18143f50
  ARLEN    integral  8     'd7       
  ARSIZE   integral  3     'd2       
  ARBURST  integral  2     2         
  RID      integral  4     'd0       
-------------------------------------

UVM_INFO ../master_agent_top/master_monitor.sv(254) @ 415: uvm_test_top.env_h.mst_agt_top.mst_agt_h[0].mst_mon_h [MST_MONITOR] printing from master monitor monitor_rdata 
 -------------------------------------
Name       Type      Size  Value     
-------------------------------------
xtn3       axi_xtn   -     @1189     
  AWID     integral  4     'd0       
  AWADDR   integral  32    'h0       
  AWLEN    integral  4     'd0       
  AWSIZE   integral  3     'd0       
  AWBURST  integral  2     'd0       
  WID      integral  4     'd0       
  BID      integral  4     'd0       
  BRESP    integral  2     'd0       
  ARID     integral  4     15        
  ARADDR   integral  32    'h29e4e8c0
  ARLEN    integral  8     'd3       
  ARSIZE   integral  3     'd1       
  ARBURST  integral  2     2         
  RID      integral  4     15        
  RDATA    integral  32    'hea1b    
  RRESP    integral  2     'd0       
  RDATA    integral  32    'hb39d    
  RRESP    integral  2     'd0       
  RDATA    integral  32    'h6a57    
  RRESP    integral  2     'd0       
  RDATA    integral  32    'h25a1    
  RRESP    integral  2     'd0       
-------------------------------------

UVM_INFO ../slave_agent_top/slave_monitor.sv(184) @ 415: uvm_test_top.env_h.slv_agt_top.slv_agt_h[0].slv_mon_h [slv_monitor] printing from slave monitor collect_raddr 
 -------------------------------------
Name       Type      Size  Value     
-------------------------------------
xtn3       axi_xtn   -     @1366     
  AWID     integral  4     'd0       
  AWADDR   integral  32    'h0       
  AWLEN    integral  4     'd0       
  AWSIZE   integral  3     'd0       
  AWBURST  integral  2     'd0       
  WID      integral  4     'd0       
  BID      integral  4     'd0       
  BRESP    integral  2     'd0       
  ARID     integral  4     'd6       
  ARADDR   integral  32    'h18143f50
  ARLEN    integral  8     'd7       
  ARSIZE   integral  3     'd2       
  ARBURST  integral  2     2         
  RID      integral  4     'd0       
-------------------------------------

UVM_INFO ../slave_agent_top/slave_monitor.sv(249) @ 415: uvm_test_top.env_h.slv_agt_top.slv_agt_h[0].slv_mon_h [slv_monitor] printing from slave monitor monitor_rdata 
 -------------------------------------
Name       Type      Size  Value     
-------------------------------------
xtn3       axi_xtn   -     @1193     
  AWID     integral  4     'd0       
  AWADDR   integral  32    'h0       
  AWLEN    integral  4     'd0       
  AWSIZE   integral  3     'd0       
  AWBURST  integral  2     'd0       
  WID      integral  4     'd0       
  BID      integral  4     'd0       
  BRESP    integral  2     'd0       
  ARID     integral  4     15        
  ARADDR   integral  32    'h29e4e8c0
  ARLEN    integral  8     'd3       
  ARSIZE   integral  3     'd1       
  ARBURST  integral  2     2         
  RID      integral  4     15        
  RDATA    integral  32    'hea1b    
  RRESP    integral  2     'd0       
  RDATA    integral  32    'hb39d    
  RRESP    integral  2     'd0       
  RDATA    integral  32    'h6a57    
  RRESP    integral  2     'd0       
  RDATA    integral  32    'h25a1    
  RRESP    integral  2     'd0       
-------------------------------------

start of drive_rdata
slave driver start of awvalid
WSTRB in slave driver is:15
value inside mem is: 5fa48c55
end of drive_raddr
start of drive_raddr
end of drive_awaddr
-----------------------------------------------------------------------------------------------------------
Name                           Type      Size  Value                                                       
-----------------------------------------------------------------------------------------------------------
req                            axi_xtn   -     @1358                                                       
  begin_time                   time      64    355                                                         
  depth                        int       32    'd2                                                         
  parent sequence (name)       string    5     m_seq                                                       
  parent sequence (full name)  string    60    uvm_test_top.env_h.mst_agt_top.mst_agt_h[0].mst_seqr_h.m_seq
  sequencer                    string    54    uvm_test_top.env_h.mst_agt_top.mst_agt_h[0].mst_seqr_h      
  AWID                         integral  4     13                                                          
  AWADDR                       integral  32    'ha6b5dab4                                                  
  AWLEN                        integral  4     'd7                                                         
  AWSIZE                       integral  3     'd0                                                         
  AWBURST                      integral  2     2                                                           
  WID                          integral  4     13                                                          
  WDATA                        integral  32    'ha993e2fd                                                  
  WSTRB                        integral  4     'b1                                                         
  WLAST                        integral  1     'dX                                                         
  WDATA                        integral  32    'hab133374                                                  
  WSTRB                        integral  4     'b10                                                        
  WLAST                        integral  1     'dX                                                         
  WDATA                        integral  32    'h1d1784e                                                   
  WSTRB                        integral  4     'b100                                                       
  WLAST                        integral  1     'dX                                                         
  WDATA                        integral  32    'h6c362c7e                                                  
  WSTRB                        integral  4     'b1000                                                      
  WLAST                        integral  1     'dX                                                         
  WDATA                        integral  32    'hcbf001a0                                                  
  WSTRB                        integral  4     'b1                                                         
  WLAST                        integral  1     'dX                                                         
  WDATA                        integral  32    'h45385dce                                                  
  WSTRB                        integral  4     'b10                                                        
  WLAST                        integral  1     'dX                                                         
  WDATA                        integral  32    'h2cefafa5                                                  
  WSTRB                        integral  4     'b100                                                       
  WLAST                        integral  1     'dX                                                         
  WDATA                        integral  32    'ha5928cda                                                  
  WSTRB                        integral  4     'b1000                                                      
  WLAST                        integral  1     'dX                                                         
  BID                          integral  4     13                                                          
  BRESP                        integral  2     'd0                                                         
  ARID                         integral  4     12                                                          
  ARADDR                       integral  32    'hbbeefd5c                                                  
  ARLEN                        integral  8     'd7                                                         
  ARSIZE                       integral  3     'd2                                                         
  ARBURST                      integral  2     2                                                           
  RID                          integral  4     12                                                          
  RDATA                        integral  32    'hfef627c2                                                  
  RRESP                        integral  2     'd0                                                         
  RDATA                        integral  32    'h53f69589                                                  
  RRESP                        integral  2     'd0                                                         
  RDATA                        integral  32    'hfcc3920                                                   
  RRESP                        integral  2     'd0                                                         
  RDATA                        integral  32    'h167ddc01                                                  
  RRESP                        integral  2     'd0                                                         
  RDATA                        integral  32    'hc7fd02c6                                                  
  RRESP                        integral  2     'd0                                                         
  RDATA                        integral  32    'hb70810d                                                   
  RRESP                        integral  2     'd0                                                         
  RDATA                        integral  32    'hc9fcffc9                                                  
  RRESP                        integral  2     'd0                                                         
  RDATA                        integral  32    'h25479d6                                                   
  RRESP                        integral  2     'd0                                                         
-----------------------------------------------------------------------------------------------------------
end of read_awaddr
start of read_awaddr
end of slave_raddr
start of slave_raddr
start of drive_awaddr
end of slave_rdata
start of slave_rdata
slave driver start of awvalid
WSTRB in slave driver is:15
value inside mem is: fffac57b
UVM_INFO ../master_agent_top/master_monitor.sv(111) @ 485: uvm_test_top.env_h.mst_agt_top.mst_agt_h[0].mst_mon_h [MST_MONITOR] printing from master monitor collect_awaddr 
 -------------------------------------
Name       Type      Size  Value     
-------------------------------------
xtn        axi_xtn   -     @1370     
  AWID     integral  4     14        
  AWADDR   integral  32    'hffab8fcd
  AWLEN    integral  4     'd7       
  AWSIZE   integral  3     'd0       
  AWBURST  integral  2     2         
  WID      integral  4     'd0       
  BID      integral  4     'd0       
  BRESP    integral  2     'd0       
  ARID     integral  4     'd0       
  ARADDR   integral  32    'h0       
  ARLEN    integral  8     'd0       
  ARSIZE   integral  3     'd0       
  ARBURST  integral  2     'd0       
  RID      integral  4     'd0       
-------------------------------------

UVM_INFO ../slave_agent_top/slave_monitor.sv(110) @ 485: uvm_test_top.env_h.slv_agt_top.slv_agt_h[0].slv_mon_h [slv_monitor] printing from slave monitor collect_awaddr 
 -------------------------------------
Name       Type      Size  Value     
-------------------------------------
xtn        axi_xtn   -     @1374     
  AWID     integral  4     14        
  AWADDR   integral  32    'hffab8fcd
  AWLEN    integral  4     'd7       
  AWSIZE   integral  3     'd0       
  AWBURST  integral  2     2         
  WID      integral  4     'd0       
  BID      integral  4     'd0       
  BRESP    integral  2     'd0       
  ARID     integral  4     'd0       
  ARADDR   integral  32    'h0       
  ARLEN    integral  8     'd0       
  ARSIZE   integral  3     'd0       
  ARBURST  integral  2     'd0       
  RID      integral  4     'd0       
-------------------------------------

slave driver start of awvalid
WSTRB in slave driver is:15
value inside mem is: 3be2b45a
inside drive_raddr before wait ARREADY
end of drive_awaddr
-----------------------------------------------------------------------------------------------------------
Name                           Type      Size  Value                                                       
-----------------------------------------------------------------------------------------------------------
req                            axi_xtn   -     @1398                                                       
  begin_time                   time      64    445                                                         
  depth                        int       32    'd2                                                         
  parent sequence (name)       string    5     m_seq                                                       
  parent sequence (full name)  string    60    uvm_test_top.env_h.mst_agt_top.mst_agt_h[0].mst_seqr_h.m_seq
  sequencer                    string    54    uvm_test_top.env_h.mst_agt_top.mst_agt_h[0].mst_seqr_h      
  AWID                         integral  4     14                                                          
  AWADDR                       integral  32    'hffab8fcd                                                  
  AWLEN                        integral  4     'd7                                                         
  AWSIZE                       integral  3     'd0                                                         
  AWBURST                      integral  2     2                                                           
  WID                          integral  4     14                                                          
  WDATA                        integral  32    'h9abfbd97                                                  
  WSTRB                        integral  4     'b0                                                         
  WLAST                        integral  1     'dX                                                         
  WDATA                        integral  32    'he9d8f78                                                   
  WSTRB                        integral  4     'b100                                                       
  WLAST                        integral  1     'dX                                                         
  WDATA                        integral  32    'h2d3d9ffd                                                  
  WSTRB                        integral  4     'b1000                                                      
  WLAST                        integral  1     'dX                                                         
  WDATA                        integral  32    'h70e7db91                                                  
  WSTRB                        integral  4     'b1                                                         
  WLAST                        integral  1     'dX                                                         
  WDATA                        integral  32    'h50ab2cd4                                                  
  WSTRB                        integral  4     'b10                                                        
  WLAST                        integral  1     'dX                                                         
  WDATA                        integral  32    'h7dc9fa38                                                  
  WSTRB                        integral  4     'b100                                                       
  WLAST                        integral  1     'dX                                                         
  WDATA                        integral  32    'h6e7014a6                                                  
  WSTRB                        integral  4     'b1000                                                      
  WLAST                        integral  1     'dX                                                         
  WDATA                        integral  32    'hce759b86                                                  
  WSTRB                        integral  4     'b1                                                         
  WLAST                        integral  1     'dX                                                         
  BID                          integral  4     14                                                          
  BRESP                        integral  2     'd0                                                         
  ARID                         integral  4     11                                                          
  ARADDR                       integral  32    'h288861f4                                                  
  ARLEN                        integral  8     'd7                                                         
  ARSIZE                       integral  3     'd1                                                         
  ARBURST                      integral  2     2                                                           
  RID                          integral  4     11                                                          
  RDATA                        integral  32    'h90bf3aea                                                  
  RRESP                        integral  2     'd0                                                         
  RDATA                        integral  32    'h67430c15                                                  
  RRESP                        integral  2     'd0                                                         
  RDATA                        integral  32    'h13e23c81                                                  
  RRESP                        integral  2     'd0                                                         
  RDATA                        integral  32    'h993fde71                                                  
  RRESP                        integral  2     'd0                                                         
  RDATA                        integral  32    'h734f65cc                                                  
  RRESP                        integral  2     'd0                                                         
  RDATA                        integral  32    'hc23a0af6                                                  
