# vsim -vopt -voptargs="+acc" -coverage -sva -c -do " log -r /* ;coverage save -onexit mem_cov5;run -all; exit" -wlf wave_file5.wlf -l test5.log -sv_seed random work.top "+UVM_TESTNAME=rsize2_seq_test" 
# Start time: 16:13:44 on Feb 17,2023
# ** Note: (vsim-8009) Loading existing optimized design _opt
# //  Questa Sim
# //  Version 2022.1 linux Jan 29 2022
# //
# //  Copyright 1991-2022 Mentor Graphics Corporation
# //  All Rights Reserved.
# //
# //  QuestaSim and its associated documentation contain trade
# //  secrets and commercial or financial information that are the property of
# //  Mentor Graphics Corporation and are privileged, confidential,
# //  and exempt from disclosure under the Freedom of Information Act,
# //  5 U.S.C. Section 552. Furthermore, this information
# //  is prohibited from disclosure under the Trade Secrets Act,
# //  18 U.S.C. Section 1905.
# //
# Loading sv_std.std
# Loading work.axi_if(fast)
# Loading mtiUvm.uvm_pkg(fast)
# Loading work.axi_test_pkg(fast)
# Loading mtiUvm.questa_uvm_pkg(fast)
# Loading work.top(fast)
# Loading work.axi_if(fast__2)
# Loading /home/cad/eda/Questa-sim/questasim/uvm-1.1d/linux/uvm_dpi.so
# ** Warning: (vsim-8634) Code was not compiled with coverage options.
# Sv_Seed = 3859055118
#  log -r /* 
# coverage save -onexit mem_cov5
# run -all
# ----------------------------------------------------------------
# UVM-1.1d
# (C) 2007-2013 Mentor Graphics Corporation
# (C) 2007-2013 Cadence Design Systems, Inc.
# (C) 2006-2013 Synopsys, Inc.
# (C) 2011-2013 Cypress Semiconductor Corp.
# ----------------------------------------------------------------
# 
#   ***********       IMPORTANT RELEASE NOTES         ************
# 
#   You are using a version of the UVM library that has been compiled
#   with `UVM_NO_DEPRECATED undefined.
#   See http://www.eda.org/svdb/view.php?id=3313 for more details.
# 
#   You are using a version of the UVM library that has been compiled
#   with `UVM_OBJECT_MUST_HAVE_CONSTRUCTOR undefined.
#   See http://www.eda.org/svdb/view.php?id=3770 for more details.
# 
#       (Specify +UVM_NO_RELNOTES to turn off this notice)
# 
# UVM_INFO verilog_src/questa_uvm_pkg-1.2/src/questa_uvm_pkg.sv(277) @ 0: reporter [Questa UVM] QUESTA_UVM-1.2.3
# UVM_INFO verilog_src/questa_uvm_pkg-1.2/src/questa_uvm_pkg.sv(278) @ 0: reporter [Questa UVM]  questa_uvm::init(+struct)
# UVM_INFO @ 0: reporter [RNTST] Running test rsize2_seq_test...
# start of read_awaddr
# start of slave_raddr
# start of drive_awaddr
# start of drive_raddr
# UVM_INFO ../master_agent_top/master_monitor.sv(111) @ 15: uvm_test_top.env_h.mst_agt_top.mst_agt_h[0].mst_mon_h [MST_MONITOR] printing from master monitor collect_awaddr 
#  -------------------------------------
# Name       Type      Size  Value     
# -------------------------------------
# xtn        axi_xtn   -     @1099     
#   AWID     integral  4     12        
#   AWADDR   integral  32    'h96dae4e6
#   AWLEN    integral  4     12        
#   AWSIZE   integral  3     'd1       
#   AWBURST  integral  2     'd0       
#   WID      integral  4     'd0       
#   BID      integral  4     'd0       
#   BRESP    integral  2     'd0       
#   ARID     integral  4     'd0       
#   ARADDR   integral  32    'h0       
#   ARLEN    integral  8     'd0       
#   ARSIZE   integral  3     'd0       
#   ARBURST  integral  2     'd0       
#   RID      integral  4     'd0       
# -------------------------------------
# 
# UVM_INFO ../slave_agent_top/slave_monitor.sv(110) @ 15: uvm_test_top.env_h.slv_agt_top.slv_agt_h[0].slv_mon_h [slv_monitor] printing from slave monitor collect_awaddr 
#  -------------------------------------
# Name       Type      Size  Value     
# -------------------------------------
# xtn        axi_xtn   -     @1081     
#   AWID     integral  4     12        
#   AWADDR   integral  32    'h96dae4e6
#   AWLEN    integral  4     12        
#   AWSIZE   integral  3     'd1       
#   AWBURST  integral  2     'd0       
#   WID      integral  4     'd0       
#   BID      integral  4     'd0       
#   BRESP    integral  2     'd0       
#   ARID     integral  4     'd0       
#   ARADDR   integral  32    'h0       
#   ARLEN    integral  8     'd0       
#   ARSIZE   integral  3     'd0       
#   ARBURST  integral  2     'd0       
#   RID      integral  4     'd0       
# -------------------------------------
# 
# ** Warning: (vsim-8630) Infinity results from division operation.
#    Time: 25 ns  Iteration: 3  Process: /axi_test_pkg::master_monitor::collect_data/#FORK#66_f6aa303 File: ../tb/axi_xtn.sv Line: 130
# ** Warning: (vsim-8630) Infinity results from division operation.
#    Time: 25 ns  Iteration: 3  Process: /axi_test_pkg::slave_monitor::collect_data/#FORK#66_f68a174 File: ../tb/axi_xtn.sv Line: 130
# end of drive_awaddr
# -----------------------------------------------------------------------------------------------------------
# Name                           Type      Size  Value                                                       
# -----------------------------------------------------------------------------------------------------------
# req                            axi_xtn   -     @1113                                                       
#   begin_time                   time      64    0                                                           
#   depth                        int       32    'd2                                                         
#   parent sequence (name)       string    5     m_seq                                                       
#   parent sequence (full name)  string    60    uvm_test_top.env_h.mst_agt_top.mst_agt_h[0].mst_seqr_h.m_seq
#   sequencer                    string    54    uvm_test_top.env_h.mst_agt_top.mst_agt_h[0].mst_seqr_h      
#   AWID                         integral  4     12                                                          
#   AWADDR                       integral  32    'h96dae4e6                                                  
#   AWLEN                        integral  4     12                                                          
#   AWSIZE                       integral  3     'd1                                                         
#   AWBURST                      integral  2     'd0                                                         
#   WID                          integral  4     12                                                          
#   WDATA                        integral  32    'h35785c0d                                                  
#   WSTRB                        integral  4     'b0                                                         
#   WLAST                        integral  1     'dX                                                         
#   WDATA                        integral  32    'h9f2743d4                                                  
#   WSTRB                        integral  4     'b1100                                                      
#   WLAST                        integral  1     'dX                                                         
#   WDATA                        integral  32    'h78e56b82                                                  
#   WSTRB                        integral  4     'b1100                                                      
#   WLAST                        integral  1     'dX                                                         
#   WDATA                        integral  32    'h4c768475                                                  
#   WSTRB                        integral  4     'b1100                                                      
#   WLAST                        integral  1     'dX                                                         
#   WDATA                        integral  32    'haa5798df                                                  
#   WSTRB                        integral  4     'b1100                                                      
#   WLAST                        integral  1     'dX                                                         
#   WDATA                        integral  32    'hd7c53d7d                                                  
#   WSTRB                        integral  4     'b1100                                                      
#   WLAST                        integral  1     'dX                                                         
#   WDATA                        integral  32    'h439a99ff                                                  
#   WSTRB                        integral  4     'b1100                                                      
#   WLAST                        integral  1     'dX                                                         
#   WDATA                        integral  32    'hfb193f4f                                                  
#   WSTRB                        integral  4     'b1100                                                      
#   WLAST                        integral  1     'dX                                                         
#   WDATA                        integral  32    'h75333146                                                  
#   WSTRB                        integral  4     'b1100                                                      
#   WLAST                        integral  1     'dX                                                         
#   WDATA                        integral  32    'h7d2b8fb2                                                  
#   WSTRB                        integral  4     'b1100                                                      
#   WLAST                        integral  1     'dX                                                         
#   WDATA                        integral  32    'h98f157a0                                                  
#   WSTRB                        integral  4     'b1100                                                      
#   WLAST                        integral  1     'dX                                                         
#   WDATA                        integral  32    'he30c772f                                                  
#   WSTRB                        integral  4     'b1100                                                      
#   WLAST                        integral  1     'dX                                                         
#   WDATA                        integral  32    'hd8d2e98b                                                  
#   WSTRB                        integral  4     'b1100                                                      
#   WLAST                        integral  1     'dX                                                         
#   BID                          integral  4     12                                                          
#   BRESP                        integral  2     'd0                                                         
#   ARID                         integral  4     15                                                          
#   ARADDR                       integral  32    'h145c8643                                                  
#   ARLEN                        integral  8     'd3                                                         
#   ARSIZE                       integral  3     'd1                                                         
#   ARBURST                      integral  2     'd1                                                         
#   RID                          integral  4     15                                                          
#   RDATA                        integral  32    'hd3075032                                                  
#   RRESP                        integral  2     'd0                                                         
#   RDATA                        integral  32    'hc7066efa                                                  
#   RRESP                        integral  2     'd0                                                         
#   RDATA                        integral  32    'h4184322a                                                  
#   RRESP                        integral  2     'd0                                                         
#   RDATA                        integral  32    'h15f0c202                                                  
#   RRESP                        integral  2     'd0                                                         
# -----------------------------------------------------------------------------------------------------------
# start of drive_wdata
# start of drive_awaddr
# UVM_INFO ../master_agent_top/master_monitor.sv(111) @ 55: uvm_test_top.env_h.mst_agt_top.mst_agt_h[0].mst_mon_h [MST_MONITOR] printing from master monitor collect_awaddr 
#  -------------------------------------
# Name       Type      Size  Value     
# -------------------------------------
# xtn        axi_xtn   -     @1189     
#   AWID     integral  4     'd1       
#   AWADDR   integral  32    'h14889f88
#   AWLEN    integral  4     'd7       
#   AWSIZE   integral  3     'd1       
#   AWBURST  integral  2     2         
#   WID      integral  4     'd0       
#   BID      integral  4     'd0       
#   BRESP    integral  2     'd0       
#   ARID     integral  4     'd0       
#   ARADDR   integral  32    'h0       
#   ARLEN    integral  8     'd0       
#   ARSIZE   integral  3     'd0       
#   ARBURST  integral  2     'd0       
#   RID      integral  4     'd0       
# -------------------------------------
# 
# UVM_INFO ../slave_agent_top/slave_monitor.sv(110) @ 55: uvm_test_top.env_h.slv_agt_top.slv_agt_h[0].slv_mon_h [slv_monitor] printing from slave monitor collect_awaddr 
#  -------------------------------------
# Name       Type      Size  Value     
# -------------------------------------
# xtn        axi_xtn   -     @1193     
#   AWID     integral  4     'd1       
#   AWADDR   integral  32    'h14889f88
#   AWLEN    integral  4     'd7       
#   AWSIZE   integral  3     'd1       
#   AWBURST  integral  2     2         
#   WID      integral  4     'd0       
#   BID      integral  4     'd0       
#   BRESP    integral  2     'd0       
#   ARID     integral  4     'd0       
#   ARADDR   integral  32    'h0       
#   ARLEN    integral  8     'd0       
#   ARSIZE   integral  3     'd0       
#   ARBURST  integral  2     'd0       
#   RID      integral  4     'd0       
# -------------------------------------
# 
# inside drive_raddr before wait ARREADY
# end of drive_awaddr
# -----------------------------------------------------------------------------------------------------------
# Name                           Type      Size  Value                                                       
# -----------------------------------------------------------------------------------------------------------
# req                            axi_xtn   -     @1206                                                       
#   begin_time                   time      64    45                                                          
#   depth                        int       32    'd2                                                         
#   parent sequence (name)       string    5     m_seq                                                       
#   parent sequence (full name)  string    60    uvm_test_top.env_h.mst_agt_top.mst_agt_h[0].mst_seqr_h.m_seq
#   sequencer                    string    54    uvm_test_top.env_h.mst_agt_top.mst_agt_h[0].mst_seqr_h      
#   AWID                         integral  4     'd1                                                         
#   AWADDR                       integral  32    'h14889f88                                                  
#   AWLEN                        integral  4     'd7                                                         
#   AWSIZE                       integral  3     'd1                                                         
#   AWBURST                      integral  2     2                                                           
#   WID                          integral  4     'd1                                                         
#   WDATA                        integral  32    'h9ce7966c                                                  
#   WSTRB                        integral  4     'b11                                                        
#   WLAST                        integral  1     'dX                                                         
#   WDATA                        integral  32    'h3f80e6f5                                                  
#   WSTRB                        integral  4     'b1100                                                      
#   WLAST                        integral  1     'dX                                                         
#   WDATA                        integral  32    'h5f7b1f33                                                  
#   WSTRB                        integral  4     'b11                                                        
#   WLAST                        integral  1     'dX                                                         
#   WDATA                        integral  32    'hb4478141                                                  
#   WSTRB                        integral  4     'b1100                                                      
#   WLAST                        integral  1     'dX                                                         
#   WDATA                        integral  32    'h9474cf8                                                   
#   WSTRB                        integral  4     'b11                                                        
#   WLAST                        integral  1     'dX                                                         
#   WDATA                        integral  32    'h39e0a778                                                  
#   WSTRB                        integral  4     'b1100                                                      
#   WLAST                        integral  1     'dX                                                         
#   WDATA                        integral  32    'h55ed866a                                                  
#   WSTRB                        integral  4     'b11                                                        
#   WLAST                        integral  1     'dX                                                         
#   WDATA                        integral  32    'ha8c39484                                                  
#   WSTRB                        integral  4     'b1100                                                      
#   WLAST                        integral  1     'dX                                                         
#   BID                          integral  4     'd1                                                         
#   BRESP                        integral  2     'd0                                                         
#   ARID                         integral  4     'd7                                                         
#   ARADDR                       integral  32    'h52bcabc6                                                  
#   ARLEN                        integral  8     'd16                                                        
#   ARSIZE                       integral  3     'd1                                                         
#   ARBURST                      integral  2     'd0                                                         
#   RID                          integral  4     'd7                                                         
#   RDATA                        integral  32    'hc264a7a0                                                  
#   RRESP                        integral  2     'd0                                                         
#   RDATA                        integral  32    'hf5d0c7d9                                                  
#   RRESP                        integral  2     'd0                                                         
#   RDATA                        integral  32    'hb63cb857                                                  
#   RRESP                        integral  2     'd0                                                         
#   RDATA                        integral  32    'h5b85aaa                                                   
#   RRESP                        integral  2     'd0                                                         
#   RDATA                        integral  32    'hc7fb721b                                                  
#   RRESP                        integral  2     'd0                                                         
#   RDATA                        integral  32    'hf1f6b95a                                                  
#   RRESP                        integral  2     'd0                                                         
#   RDATA                        integral  32    'h1d7b8014                                                  
#   RRESP                        integral  2     'd0                                                         
#   RDATA                        integral  32    'h9e5702b4                                                  
#   RRESP                        integral  2     'd0                                                         
#   RDATA                        integral  32    'h2a571933                                                  
#   RRESP                        integral  2     'd0                                                         
#   RDATA                        integral  32    'he093f292                                                  
#   RRESP                        integral  2     'd0                                                         
#   RDATA                        integral  32    'h4d50a617                                                  
#   RRESP                        integral  2     'd0                                                         
#   RDATA                        integral  32    'hae914e5b                                                  
#   RRESP                        integral  2     'd0                                                         
#   RDATA                        integral  32    'h453ae6d                                                   
#   RRESP                        integral  2     'd0                                                         
#   RDATA                        integral  32    'h3f1fc9dd                                                  
#   RRESP                        integral  2     'd0                                                         
#   RDATA                        integral  32    'h86f52c25                                                  
#   RRESP                        integral  2     'd0                                                         
#   RDATA                        integral  32    'h32553b3e                                                  
#   RRESP                        integral  2     'd0                                                         
#   RDATA                        integral  32    'haf959849                                                  
#   RRESP                        integral  2     'd0                                                         
# -----------------------------------------------------------------------------------------------------------
# UVM_INFO ../master_agent_top/master_monitor.sv(188) @ 65: uvm_test_top.env_h.mst_agt_top.mst_agt_h[0].mst_mon_h [MST_MONITOR] printing from master monitor collect_raddr 
#  -------------------------------------
# Name       Type      Size  Value     
# -------------------------------------
# xtn3       axi_xtn   -     @1103     
#   AWID     integral  4     'd0       
#   AWADDR   integral  32    'h0       
#   AWLEN    integral  4     'd0       
#   AWSIZE   integral  3     'd0       
#   AWBURST  integral  2     'd0       
#   WID      integral  4     'd0       
#   BID      integral  4     'd0       
#   BRESP    integral  2     'd0       
#   ARID     integral  4     15        
#   ARADDR   integral  32    'h145c8643
#   ARLEN    integral  8     'd3       
#   ARSIZE   integral  3     'd1       
#   ARBURST  integral  2     'd1       
#   RID      integral  4     'd0       
# -------------------------------------
# 
# end of read_awaddr
# start of read_awaddr
# end of slave_raddr
# UVM_INFO ../slave_agent_top/slave_monitor.sv(184) @ 65: uvm_test_top.env_h.slv_agt_top.slv_agt_h[0].slv_mon_h [slv_monitor] printing from slave monitor collect_raddr 
#  -------------------------------------
# Name       Type      Size  Value     
# -------------------------------------
# xtn3       axi_xtn   -     @1085     
#   AWID     integral  4     'd0       
#   AWADDR   integral  32    'h0       
#   AWLEN    integral  4     'd0       
#   AWSIZE   integral  3     'd0       
#   AWBURST  integral  2     'd0       
#   WID      integral  4     'd0       
#   BID      integral  4     'd0       
#   BRESP    integral  2     'd0       
#   ARID     integral  4     15        
#   ARADDR   integral  32    'h145c8643
#   ARLEN    integral  8     'd3       
#   ARSIZE   integral  3     'd1       
#   ARBURST  integral  2     'd1       
#   RID      integral  4     'd0       
# -------------------------------------
# 
# ** Warning: (vsim-8630) Infinity results from division operation.
#    Time: 65 ns  Iteration: 3  Process: /axi_test_pkg::master_monitor::collect_data/#FORK#88_f6aa4af File: ../tb/axi_xtn.sv Line: 200
# start of read_data
# ** Warning: (vsim-8630) Infinity results from division operation.
#    Time: 65 ns  Iteration: 3  Process: /axi_test_pkg::slave_driver::drive/#FORK#72_f68a142 File: ../tb/axi_xtn.sv Line: 130
# aligned:96dae4e6
# addresses calculated in slave side are '{96dae4e6, 96dae4e6, 96dae4e6, 96dae4e6, 96dae4e6, 96dae4e6, 96dae4e6, 96dae4e6, 96dae4e6, 96dae4e6, 96dae4e6, 96dae4e6, 96dae4e6}
# start of slave_raddr
# start of slave_rdata
# ** Warning: (vsim-8630) Infinity results from division operation.
#    Time: 65 ns  Iteration: 3  Process: /axi_test_pkg::slave_monitor::collect_data/#FORK#88_f68a19a File: ../tb/axi_xtn.sv Line: 200
# start of drive_awaddr
# slave driver start of awvalid
# WSTRB in slave driver is:0
# ** Warning: (vsim-3829) Non-existent associative array entry. Returning default value.
#    Time: 75 ns  Iteration: 2  Process: /axi_test_pkg::slave_driver::drive/#FORK#72_f68a142 File: ../slave_agent_top/slave_driver.sv Line: 177
# value inside mem is: 00000000
# UVM_INFO ../master_agent_top/master_monitor.sv(111) @ 85: uvm_test_top.env_h.mst_agt_top.mst_agt_h[0].mst_mon_h [MST_MONITOR] printing from master monitor collect_awaddr 
#  -------------------------------------
# Name       Type      Size  Value     
# -------------------------------------
# xtn        axi_xtn   -     @1210     
#   AWID     integral  4     8         
#   AWADDR   integral  32    'hb7f5eca4
#   AWLEN    integral  4     'd7       
#   AWSIZE   integral  3     'd1       
#   AWBURST  integral  2     2         
#   WID      integral  4     'd0       
#   BID      integral  4     'd0       
#   BRESP    integral  2     'd0       
#   ARID     integral  4     'd0       
#   ARADDR   integral  32    'h0       
#   ARLEN    integral  8     'd0       
#   ARSIZE   integral  3     'd0       
#   ARBURST  integral  2     'd0       
#   RID      integral  4     'd0       
# -------------------------------------
# 
# UVM_INFO ../slave_agent_top/slave_monitor.sv(110) @ 85: uvm_test_top.env_h.slv_agt_top.slv_agt_h[0].slv_mon_h [slv_monitor] printing from slave monitor collect_awaddr 
#  -------------------------------------
# Name       Type      Size  Value     
# -------------------------------------
# xtn        axi_xtn   -     @1218     
#   AWID     integral  4     8         
#   AWADDR   integral  32    'hb7f5eca4
#   AWLEN    integral  4     'd7       
#   AWSIZE   integral  3     'd1       
#   AWBURST  integral  2     2         
#   WID      integral  4     'd0       
#   BID      integral  4     'd0       
#   BRESP    integral  2     'd0       
#   ARID     integral  4     'd0       
#   ARADDR   integral  32    'h0       
#   ARLEN    integral  8     'd0       
#   ARSIZE   integral  3     'd0       
#   ARBURST  integral  2     'd0       
#   RID      integral  4     'd0       
# -------------------------------------
# 
# end of drive_awaddr
# -----------------------------------------------------------------------------------------------------------
# Name                           Type      Size  Value                                                       
# -----------------------------------------------------------------------------------------------------------
# req                            axi_xtn   -     @1222                                                       
#   begin_time                   time      64    65                                                          
#   depth                        int       32    'd2                                                         
#   parent sequence (name)       string    5     m_seq                                                       
#   parent sequence (full name)  string    60    uvm_test_top.env_h.mst_agt_top.mst_agt_h[0].mst_seqr_h.m_seq
#   sequencer                    string    54    uvm_test_top.env_h.mst_agt_top.mst_agt_h[0].mst_seqr_h      
#   AWID                         integral  4     8                                                           
#   AWADDR                       integral  32    'hb7f5eca4                                                  
#   AWLEN                        integral  4     'd7                                                         
#   AWSIZE                       integral  3     'd1                                                         
#   AWBURST                      integral  2     2                                                           
#   WID                          integral  4     8                                                           
#   WDATA                        integral  32    'hdf0aba4d                                                  
#   WSTRB                        integral  4     'b11                                                        
#   WLAST                        integral  1     'dX                                                         
#   WDATA                        integral  32    'h33db3cb0                                                  
#   WSTRB                        integral  4     'b1100                                                      
#   WLAST                        integral  1     'dX                                                         
#   WDATA                        integral  32    'hc6d731f8                                                  
#   WSTRB                        integral  4     'b11                                                        
#   WLAST                        integral  1     'dX                                                         
#   WDATA                        integral  32    'h6e70786c                                                  
#   WSTRB                        integral  4     'b1100                                                      
#   WLAST                        integral  1     'dX                                                         
#   WDATA                        integral  32    'hd8853e2b                                                  
#   WSTRB                        integral  4     'b11                                                        
#   WLAST                        integral  1     'dX                                                         
#   WDATA                        integral  32    'he4d43f4e                                                  
#   WSTRB                        integral  4     'b1100                                                      
#   WLAST                        integral  1     'dX                                                         
#   WDATA                        integral  32    'h7902fa7                                                   
#   WSTRB                        integral  4     'b11                                                        
#   WLAST                        integral  1     'dX                                                         
#   WDATA                        integral  32    'h6fe0519e                                                  
#   WSTRB                        integral  4     'b1100                                                      
#   WLAST                        integral  1     'dX                                                         
#   BID                          integral  4     8                                                           
#   BRESP                        integral  2     'd0                                                         
#   ARID                         integral  4     'd5                                                         
#   ARADDR                       integral  32    'h27ddd0b8                                                  
#   ARLEN                        integral  8     'd8                                                         
#   ARSIZE                       integral  3     'd1                                                         
#   ARBURST                      integral  2     'd1                                                         
#   RID                          integral  4     'd5                                                         
#   RDATA                        integral  32    'h8149f834                                                  
#   RRESP                        integral  2     'd0                                                         
#   RDATA                        integral  32    'ha4e331b6                                                  
#   RRESP                        integral  2     'd0                                                         
#   RDATA                        integral  32    'hb4cb1117                                                  
#   RRESP                        integral  2     'd0                                                         
#   RDATA                        integral  32    'h7bae8610                                                  
#   RRESP                        integral  2     'd0                                                         
#   RDATA                        integral  32    'h503f841b                                                  
#   RRESP                        integral  2     'd0                                                         
#   RDATA                        integral  32    'h3a3cee2                                                   
#   RRESP                        integral  2     'd0                                                         
#   RDATA                        integral  32    'h303c6f7a                                                  
#   RRESP                        integral  2     'd0                                                         
#   RDATA                        integral  32    'hea0bdf4b                                                  
#   RRESP                        integral  2     'd0                                                         
#   RDATA                        integral  32    'h4568e709                                                  
#   RRESP                        integral  2     'd0                                                         
# -----------------------------------------------------------------------------------------------------------
# end of drive_raddr
# start of drive_raddr
# start of drive_rdata
# start of drive_awaddr
# UVM_INFO ../master_agent_top/master_monitor.sv(111) @ 115: uvm_test_top.env_h.mst_agt_top.mst_agt_h[0].mst_mon_h [MST_MONITOR] printing from master monitor collect_awaddr 
#  -------------------------------------
# Name       Type      Size  Value     
# -------------------------------------
# xtn        axi_xtn   -     @1246     
#   AWID     integral  4     'd2       
#   AWADDR   integral  32    'h4209c482
#   AWLEN    integral  4     'd1       
#   AWSIZE   integral  3     'd1       
#   AWBURST  integral  2     2         
#   WID      integral  4     'd0       
#   BID      integral  4     'd0       
#   BRESP    integral  2     'd0       
#   ARID     integral  4     'd0       
#   ARADDR   integral  32    'h0       
#   ARLEN    integral  8     'd0       
#   ARSIZE   integral  3     'd0       
#   ARBURST  integral  2     'd0       
#   RID      integral  4     'd0       
# -------------------------------------
# 
# UVM_INFO ../slave_agent_top/slave_monitor.sv(110) @ 115: uvm_test_top.env_h.slv_agt_top.slv_agt_h[0].slv_mon_h [slv_monitor] printing from slave monitor collect_awaddr 
#  -------------------------------------
# Name       Type      Size  Value     
# -------------------------------------
# xtn        axi_xtn   -     @1250     
#   AWID     integral  4     'd2       
#   AWADDR   integral  32    'h4209c482
#   AWLEN    integral  4     'd1       
#   AWSIZE   integral  3     'd1       
#   AWBURST  integral  2     2         
#   WID      integral  4     'd0       
#   BID      integral  4     'd0       
#   BRESP    integral  2     'd0       
#   ARID     integral  4     'd0       
#   ARADDR   integral  32    'h0       
#   ARLEN    integral  8     'd0       
#   ARSIZE   integral  3     'd0       
#   ARBURST  integral  2     'd0       
#   RID      integral  4     'd0       
# -------------------------------------
# 
# end of read_awaddr
# start of read_awaddr
# slave driver start of awvalid
# WSTRB in slave driver is:12
# value inside mem is: 00009f27
# inside drive_raddr before wait ARREADY
# end of drive_awaddr
# -----------------------------------------------------------------------------------------------------------
# Name                           Type      Size  Value                                                       
# -----------------------------------------------------------------------------------------------------------
# req                            axi_xtn   -     @1254                                                       
#   begin_time                   time      64    105                                                         
#   depth                        int       32    'd2                                                         
#   parent sequence (name)       string    5     m_seq                                                       
#   parent sequence (full name)  string    60    uvm_test_top.env_h.mst_agt_top.mst_agt_h[0].mst_seqr_h.m_seq
#   sequencer                    string    54    uvm_test_top.env_h.mst_agt_top.mst_agt_h[0].mst_seqr_h      
#   AWID                         integral  4     'd2                                                         
#   AWADDR                       integral  32    'h4209c482                                                  
#   AWLEN                        integral  4     'd1                                                         
#   AWSIZE                       integral  3     'd1                                                         
#   AWBURST                      integral  2     2                                                           
#   WID                          integral  4     'd2                                                         
#   WDATA                        integral  32    'h8dadbc1a                                                  
#   WSTRB                        integral  4     'b1100                                                      
#   WLAST                        integral  1     'dX                                                         
#   WDATA                        integral  32    'hcdcd1396                                                  
#   WSTRB                        integral  4     'b11                                                        
#   WLAST                        integral  1     'dX                                                         
#   BID                          integral  4     'd2                                                         
#   BRESP                        integral  2     'd0                                                         
#   ARID                         integral  4     15                                                          
#   ARADDR                       integral  32    'h571b8100                                                  
#   ARLEN                        integral  8     'd1                                                         
#   ARSIZE                       integral  3     'd1                                                         
#   ARBURST                      integral  2     2                                                           
#   RID                          integral  4     15                                                          
#   RDATA                        integral  32    'he2201e0e                                                  
#   RRESP                        integral  2     'd0                                                         
#   RDATA                        integral  32    'heece0ad2                                                  
#   RRESP                        integral  2     'd0                                                         
# -----------------------------------------------------------------------------------------------------------
# UVM_INFO ../master_agent_top/master_monitor.sv(188) @ 165: uvm_test_top.env_h.mst_agt_top.mst_agt_h[0].mst_mon_h [MST_MONITOR] printing from master monitor collect_raddr 
#  -------------------------------------
# Name       Type      Size  Value     
# -------------------------------------
# xtn3       axi_xtn   -     @1226     
#   AWID     integral  4     'd0       
#   AWADDR   integral  32    'h0       
#   AWLEN    integral  4     'd0       
#   AWSIZE   integral  3     'd0       
#   AWBURST  integral  2     'd0       
#   WID      integral  4     'd0       
#   BID      integral  4     'd0       
#   BRESP    integral  2     'd0       
#   ARID     integral  4     'd7       
#   ARADDR   integral  32    'h52bcabc6
#   ARLEN    integral  8     'd16      
#   ARSIZE   integral  3     'd1       
#   ARBURST  integral  2     'd0       
#   RID      integral  4     'd0       
# -------------------------------------
# 
# UVM_INFO ../slave_agent_top/slave_monitor.sv(184) @ 165: uvm_test_top.env_h.slv_agt_top.slv_agt_h[0].slv_mon_h [slv_monitor] printing from slave monitor collect_raddr 
#  -------------------------------------
# Name       Type      Size  Value     
# -------------------------------------
# xtn3       axi_xtn   -     @1238     
#   AWID     integral  4     'd0       
#   AWADDR   integral  32    'h0       
#   AWLEN    integral  4     'd0       
#   AWSIZE   integral  3     'd0       
#   AWBURST  integral  2     'd0       
#   WID      integral  4     'd0       
#   BID      integral  4     'd0       
#   BRESP    integral  2     'd0       
#   ARID     integral  4     'd7       
#   ARADDR   integral  32    'h52bcabc6
#   ARLEN    integral  8     'd16      
#   ARSIZE   integral  3     'd1       
#   ARBURST  integral  2     'd0       
#   RID      integral  4     'd0       
# -------------------------------------
# 
# start of drive_awaddr
# UVM_INFO ../master_agent_top/master_monitor.sv(111) @ 175: uvm_test_top.env_h.mst_agt_top.mst_agt_h[0].mst_mon_h [MST_MONITOR] printing from master monitor collect_awaddr 
#  -------------------------------------
# Name       Type      Size  Value     
# -------------------------------------
# xtn        axi_xtn   -     @1258     
#   AWID     integral  4     13        
#   AWADDR   integral  32    'h7d721a14
#   AWLEN    integral  4     15        
#   AWSIZE   integral  3     'd2       
#   AWBURST  integral  2     2         
#   WID      integral  4     'd0       
#   BID      integral  4     'd0       
#   BRESP    integral  2     'd0       
#   ARID     integral  4     'd0       
#   ARADDR   integral  32    'h0       
#   ARLEN    integral  8     'd0       
#   ARSIZE   integral  3     'd0       
#   ARBURST  integral  2     'd0       
#   RID      integral  4     'd0       
# -------------------------------------
# 
# UVM_INFO ../slave_agent_top/slave_monitor.sv(110) @ 175: uvm_test_top.env_h.slv_agt_top.slv_agt_h[0].slv_mon_h [slv_monitor] printing from slave monitor collect_awaddr 
#  -------------------------------------
# Name       Type      Size  Value     
# -------------------------------------
# xtn        axi_xtn   -     @1266     
#   AWID     integral  4     13        
#   AWADDR   integral  32    'h7d721a14
#   AWLEN    integral  4     15        
#   AWSIZE   integral  3     'd2       
#   AWBURST  integral  2     2         
#   WID      integral  4     'd0       
#   BID      integral  4     'd0       
#   BRESP    integral  2     'd0       
#   ARID     integral  4     'd0       
#   ARADDR   integral  32    'h0       
#   ARLEN    integral  8     'd0       
#   ARSIZE   integral  3     'd0       
#   ARBURST  integral  2     'd0       
#   RID      integral  4     'd0       
# -------------------------------------
# 
# slave driver start of awvalid
# WSTRB in slave driver is:12
# value inside mem is: 000078e5
# end of drive_raddr
# end of slave_raddr
# start of drive_raddr
# start of slave_raddr
# end of read_awaddr
# start of read_awaddr
# inside drive_raddr before wait ARREADY
# slave driver start of awvalid
# WSTRB in slave driver is:12
# value inside mem is: 00004c76
# end of drive_awaddr
# -----------------------------------------------------------------------------------------------------------
# Name                           Type      Size  Value                                                       
# -----------------------------------------------------------------------------------------------------------
# req                            axi_xtn   -     @1270                                                       
#   begin_time                   time      64    165                                                         
#   depth                        int       32    'd2                                                         
#   parent sequence (name)       string    5     m_seq                                                       
#   parent sequence (full name)  string    60    uvm_test_top.env_h.mst_agt_top.mst_agt_h[0].mst_seqr_h.m_seq
#   sequencer                    string    54    uvm_test_top.env_h.mst_agt_top.mst_agt_h[0].mst_seqr_h      
#   AWID                         integral  4     13                                                          
#   AWADDR                       integral  32    'h7d721a14                                                  
#   AWLEN                        integral  4     15                                                          
#   AWSIZE                       integral  3     'd2                                                         
#   AWBURST                      integral  2     2                                                           
#   WID                          integral  4     13                                                          
#   WDATA                        integral  32    'h362bfec0                                                  
#   WSTRB                        integral  4     'b1111                                                      
#   WLAST                        integral  1     'dX                                                         
#   WDATA                        integral  32    'h8906fa65                                                  
#   WSTRB                        integral  4     'b1111                                                      
#   WLAST                        integral  1     'dX                                                         
#   WDATA                        integral  32    'hb188fba9                                                  
#   WSTRB                        integral  4     'b1111                                                      
#   WLAST                        integral  1     'dX                                                         
#   WDATA                        integral  32    'h5628ebea                                                  
#   WSTRB                        integral  4     'b1111                                                      
#   WLAST                        integral  1     'dX                                                         
#   WDATA                        integral  32    'he49d5932                                                  
#   WSTRB                        integral  4     'b1111                                                      
#   WLAST                        integral  1     'dX                                                         
#   WDATA                        integral  32    'h3bc06489                                                  
#   WSTRB                        integral  4     'b1111                                                      
#   WLAST                        integral  1     'dX                                                         
#   WDATA                        integral  32    'h6c2c8804                                                  
#   WSTRB                        integral  4     'b1111                                                      
#   WLAST                        integral  1     'dX                                                         
#   WDATA                        integral  32    'ha786a875                                                  
#   WSTRB                        integral  4     'b1111                                                      
#   WLAST                        integral  1     'dX                                                         
#   WDATA                        integral  32    'hafda2b6c                                                  
#   WSTRB                        integral  4     'b1111                                                      
#   WLAST                        integral  1     'dX                                                         
#   WDATA                        integral  32    'hee26d8ef                                                  
#   WSTRB                        integral  4     'b1111                                                      
#   WLAST                        integral  1     'dX                                                         
#   WDATA                        integral  32    'h51054f2f                                                  
#   WSTRB                        integral  4     'b1111                                                      
#   WLAST                        integral  1     'dX                                                         
#   WDATA                        integral  32    'hcf8b375a                                                  
#   WSTRB                        integral  4     'b1111                                                      
#   WLAST                        integral  1     'dX                                                         
#   WDATA                        integral  32    'h3bc76ce6                                                  
#   WSTRB                        integral  4     'b1111                                                      
#   WLAST                        integral  1     'dX                                                         
#   WDATA                        integral  32    'h88589e73                                                  
#   WSTRB                        integral  4     'b1111                                                      
#   WLAST                        integral  1     'dX                                                         
#   WDATA                        integral  32    'hea411ece                                                  
#   WSTRB                        integral  4     'b1111                                                      
#   WLAST                        integral  1     'dX                                                         
#   WDATA                        integral  32    'he6642673                                                  
#   WSTRB                        integral  4     'b1111                                                      
#   WLAST                        integral  1     'dX                                                         
#   BID                          integral  4     13                                                          
#   BRESP                        integral  2     'd0                                                         
#   ARID                         integral  4     15                                                          
#   ARADDR                       integral  32    'hd72e6932                                                  
#   ARLEN                        integral  8     'd7                                                         
#   ARSIZE                       integral  3     'd1                                                         
#   ARBURST                      integral  2     2                                                           
#   RID                          integral  4     15                                                          
#   RDATA                        integral  32    'h12e6750e                                                  
#   RRESP                        integral  2     'd0                                                         
#   RDATA                        integral  32    'hfda78232                                                  
#   RRESP                        integral  2     'd0                                                         
#   RDATA                        integral  32    'heba33916                                                  
#   RRESP                        integral  2     'd0                                                         
#   RDATA                        integral  32    'hee2798c7                                                  
#   RRESP                        integral  2     'd0                                                         
#   RDATA                        integral  32    'h5def0018                                                  
#   RRESP                        integral  2     'd0                                                         
#   RDATA                        integral  32    'h4627d3b2                                                  
#   RRESP                        integral  2     'd0                                                         
#   RDATA                        integral  32    'h3db2477d                                                  
#   RRESP                        integral  2     'd0                                                         
#   RDATA                        integral  32    'hdcb53f14                                                  
#   RRESP                        integral  2     'd0                                                         
# -----------------------------------------------------------------------------------------------------------
# start of drive_awaddr
# UVM_INFO ../master_agent_top/master_monitor.sv(188) @ 235: uvm_test_top.env_h.mst_agt_top.mst_agt_h[0].mst_mon_h [MST_MONITOR] printing from master monitor collect_raddr 
#  -------------------------------------
# Name       Type      Size  Value     
# -------------------------------------
# xtn3       axi_xtn   -     @1274     
#   AWID     integral  4     'd0       
#   AWADDR   integral  32    'h0       
#   AWLEN    integral  4     'd0       
#   AWSIZE   integral  3     'd0       
#   AWBURST  integral  2     'd0       
#   WID      integral  4     'd0       
#   BID      integral  4     'd0       
#   BRESP    integral  2     'd0       
#   ARID     integral  4     'd5       
#   ARADDR   integral  32    'h27ddd0b8
#   ARLEN    integral  8     'd8       
#   ARSIZE   integral  3     'd1       
#   ARBURST  integral  2     'd1       
#   RID      integral  4     'd0       
# -------------------------------------
# 
# end of slave_raddr
# UVM_INFO ../slave_agent_top/slave_monitor.sv(184) @ 235: uvm_test_top.env_h.slv_agt_top.slv_agt_h[0].slv_mon_h [slv_monitor] printing from slave monitor collect_raddr 
#  -------------------------------------
# Name       Type      Size  Value     
# -------------------------------------
# xtn3       axi_xtn   -     @1278     
#   AWID     integral  4     'd0       
#   AWADDR   integral  32    'h0       
#   AWLEN    integral  4     'd0       
#   AWSIZE   integral  3     'd0       
#   AWBURST  integral  2     'd0       
#   WID      integral  4     'd0       
#   BID      integral  4     'd0       
#   BRESP    integral  2     'd0       
#   ARID     integral  4     'd5       
#   ARADDR   integral  32    'h27ddd0b8
#   ARLEN    integral  8     'd8       
#   ARSIZE   integral  3     'd1       
#   ARBURST  integral  2     'd1       
#   RID      integral  4     'd0       
# -------------------------------------
# 
# start of slave_raddr
# end of drive_raddr
# start of drive_raddr
# UVM_INFO ../master_agent_top/master_monitor.sv(111) @ 255: uvm_test_top.env_h.mst_agt_top.mst_agt_h[0].mst_mon_h [MST_MONITOR] printing from master monitor collect_awaddr 
#  -------------------------------------
# Name       Type      Size  Value     
# -------------------------------------
# xtn        axi_xtn   -     @1282     
#   AWID     integral  4     'd3       
#   AWADDR   integral  32    'h76504d8e
#   AWLEN    integral  4     15        
#   AWSIZE   integral  3     'd1       
#   AWBURST  integral  2     'd1       
#   WID      integral  4     'd0       
#   BID      integral  4     'd0       
#   BRESP    integral  2     'd0       
#   ARID     integral  4     'd0       
#   ARADDR   integral  32    'h0       
#   ARLEN    integral  8     'd0       
#   ARSIZE   integral  3     'd0       
#   ARBURST  integral  2     'd0       
#   RID      integral  4     'd0       
# -------------------------------------
# 
# UVM_INFO ../slave_agent_top/slave_monitor.sv(110) @ 255: uvm_test_top.env_h.slv_agt_top.slv_agt_h[0].slv_mon_h [slv_monitor] printing from slave monitor collect_awaddr 
#  -------------------------------------
# Name       Type      Size  Value     
# -------------------------------------
# xtn        axi_xtn   -     @1286     
#   AWID     integral  4     'd3       
#   AWADDR   integral  32    'h76504d8e
#   AWLEN    integral  4     15        
#   AWSIZE   integral  3     'd1       
#   AWBURST  integral  2     'd1       
#   WID      integral  4     'd0       
#   BID      integral  4     'd0       
#   BRESP    integral  2     'd0       
#   ARID     integral  4     'd0       
#   ARADDR   integral  32    'h0       
#   ARLEN    integral  8     'd0       
#   ARSIZE   integral  3     'd0       
#   ARBURST  integral  2     'd0       
#   RID      integral  4     'd0       
# -------------------------------------
# 
# slave driver start of awvalid
# WSTRB in slave driver is:12
# value inside mem is: 0000aa57
# end of read_awaddr
# start of read_awaddr
# end of drive_awaddr
# -----------------------------------------------------------------------------------------------------------
# Name                           Type      Size  Value                                                       
# -----------------------------------------------------------------------------------------------------------
# req                            axi_xtn   -     @1298                                                       
#   begin_time                   time      64    225                                                         
#   depth                        int       32    'd2                                                         
#   parent sequence (name)       string    5     m_seq                                                       
#   parent sequence (full name)  string    60    uvm_test_top.env_h.mst_agt_top.mst_agt_h[0].mst_seqr_h.m_seq
#   sequencer                    string    54    uvm_test_top.env_h.mst_agt_top.mst_agt_h[0].mst_seqr_h      
#   AWID                         integral  4     'd3                                                         
#   AWADDR                       integral  32    'h76504d8e                                                  
#   AWLEN                        integral  4     15                                                          
#   AWSIZE                       integral  3     'd1                                                         
#   AWBURST                      integral  2     'd1                                                         
#   WID                          integral  4     'd3                                                         
#   WDATA                        integral  32    'h1dc2b1e3                                                  
#   WSTRB                        integral  4     'b1100                                                      
#   WLAST                        integral  1     'dX                                                         
#   WDATA                        integral  32    'h102c91c2                                                  
#   WSTRB                        integral  4     'b11                                                        
#   WLAST                        integral  1     'dX                                                         
#   WDATA                        integral  32    'hb892f472                                                  
#   WSTRB                        integral  4     'b1100                                                      
#   WLAST                        integral  1     'dX                                                         
#   WDATA                        integral  32    'h113cfecd                                                  
#   WSTRB                        integral  4     'b11                                                        
#   WLAST                        integral  1     'dX                                                         
#   WDATA                        integral  32    'h59678be5                                                  
#   WSTRB                        integral  4     'b1100                                                      
#   WLAST                        integral  1     'dX                                                         
#   WDATA                        integral  32    'h8de941c7                                                  
#   WSTRB                        integral  4     'b11                                                        
#   WLAST                        integral  1     'dX                                                         
#   WDATA                        integral  32    'h5829461d                                                  
#   WSTRB                        integral  4     'b1100                                                      
#   WLAST                        integral  1     'dX                                                         
#   WDATA                        integral  32    'h9b6ec3f0                                                  
#   WSTRB                        integral  4     'b11                                                        
#   WLAST                        integral  1     'dX                                                         
#   WDATA                        integral  32    'h275d8b8f                                                  
#   WSTRB                        integral  4     'b1100                                                      
#   WLAST                        integral  1     'dX                                                         
#   WDATA                        integral  32    'hb4e52ebe                                                  
#   WSTRB                        integral  4     'b11                                                        
#   WLAST                        integral  1     'dX                                                         
#   WDATA                        integral  32    'h89a591a6                                                  
#   WSTRB                        integral  4     'b1100                                                      
#   WLAST                        integral  1     'dX                                                         
#   WDATA                        integral  32    'hf50c7e13                                                  
#   WSTRB                        integral  4     'b11                                                        
#   WLAST                        integral  1     'dX                                                         
#   WDATA                        integral  32    'hff49141e                                                  
#   WSTRB                        integral  4     'b1100                                                      
#   WLAST                        integral  1     'dX                                                         
#   WDATA                        integral  32    'heb89e22c                                                  
#   WSTRB                        integral  4     'b11                                                        
#   WLAST                        integral  1     'dX                                                         
#   WDATA                        integral  32    'h151f3cb6                                                  
#   WSTRB                        integral  4     'b1100                                                      
#   WLAST                        integral  1     'dX                                                         
#   WDATA                        integral  32    'h53665010                                                  
#   WSTRB                        integral  4     'b11                                                        
#   WLAST                        integral  1     'dX                                                         
#   BID                          integral  4     'd3                                                         
#   BRESP                        integral  2     'd0                                                         
#   ARID                         integral  4     'd7                                                         
#   ARADDR                       integral  32    'h3f53f8bc                                                  
#   ARLEN                        integral  8     'd8                                                         
#   ARSIZE                       integral  3     'd1                                                         
#   ARBURST                      integral  2     'd1                                                         
#   RID                          integral  4     'd7                                                         
#   RDATA                        integral  32    'h1b6fde8f                                                  
#   RRESP                        integral  2     'd0                                                         
#   RDATA                        integral  32    'h823e0317                                                  
#   RRESP                        integral  2     'd0                                                         
#   RDATA                        integral  32    'hc225d2bb                                                  
#   RRESP                        integral  2     'd0                                                         
#   RDATA                        integral  32    'h846965ae                                                  
#   RRESP                        integral  2     'd0                                                         
#   RDATA                        integral  32    'hfb1d9a05                                                  
#   RRESP                        integral  2     'd0                                                         
#   RDATA                        integral  32    'h961862d8                                                  
#   RRESP                        integral  2     'd0                                                         
#   RDATA                        integral  32    'h66175cf4                                                  
#   RRESP                        integral  2     'd0                                                         
#   RDATA                        integral  32    'h82062fd3                                                  
#   RRESP                        integral  2     'd0                                                         
#   RDATA                        integral  32    'h884f0a64                                                  
#   RRESP                        integral  2     'd0                                                         
# -----------------------------------------------------------------------------------------------------------
# inside drive_raddr before wait ARREADY
# UVM_INFO ../master_agent_top/master_monitor.sv(254) @ 295: uvm_test_top.env_h.mst_agt_top.mst_agt_h[0].mst_mon_h [MST_MONITOR] printing from master monitor monitor_rdata 
#  -------------------------------------
# Name       Type      Size  Value     
# -------------------------------------
# xtn3       axi_xtn   -     @1103     
#   AWID     integral  4     'd0       
#   AWADDR   integral  32    'h0       
#   AWLEN    integral  4     'd0       
#   AWSIZE   integral  3     'd0       
#   AWBURST  integral  2     'd0       
#   WID      integral  4     'd0       
#   BID      integral  4     'd0       
#   BRESP    integral  2     'd0       
#   ARID     integral  4     15        
#   ARADDR   integral  32    'h145c8643
#   ARLEN    integral  8     'd3       
#   ARSIZE   integral  3     'd1       
#   ARBURST  integral  2     'd1       
#   RID      integral  4     15        
#   RDATA    integral  32    'h3b      
#   RRESP    integral  2     'd0       
#   RDATA    integral  32    'h318c    
#   RRESP    integral  2     'd0       
#   RDATA    integral  32    'hd08b    
#   RRESP    integral  2     'd0       
#   RDATA    integral  32    'hf652    
#   RRESP    integral  2     'd0       
# -------------------------------------
# 
# end of slave_rdata
# UVM_INFO ../slave_agent_top/slave_monitor.sv(249) @ 295: uvm_test_top.env_h.slv_agt_top.slv_agt_h[0].slv_mon_h [slv_monitor] printing from slave monitor monitor_rdata 
#  -------------------------------------
# Name       Type      Size  Value     
# -------------------------------------
# xtn3       axi_xtn   -     @1085     
#   AWID     integral  4     'd0       
#   AWADDR   integral  32    'h0       
#   AWLEN    integral  4     'd0       
#   AWSIZE   integral  3     'd0       
#   AWBURST  integral  2     'd0       
#   WID      integral  4     'd0       
#   BID      integral  4     'd0       
#   BRESP    integral  2     'd0       
#   ARID     integral  4     15        
#   ARADDR   integral  32    'h145c8643
#   ARLEN    integral  8     'd3       
#   ARSIZE   integral  3     'd1       
#   ARBURST  integral  2     'd1       
#   RID      integral  4     15        
#   RDATA    integral  32    'h3b      
#   RRESP    integral  2     'd0       
#   RDATA    integral  32    'h318c    
#   RRESP    integral  2     'd0       
#   RDATA    integral  32    'hd08b    
#   RRESP    integral  2     'd0       
#   RDATA    integral  32    'hf652    
#   RRESP    integral  2     'd0       
# -------------------------------------
# 
# ** Warning: (vsim-8630) Infinity results from division operation.
#    Time: 295 ns  Iteration: 3  Process: /axi_test_pkg::master_monitor::collect_data/#FORK#88_f6aa275 File: ../tb/axi_xtn.sv Line: 200
# start of slave_rdata
# ** Warning: (vsim-8630) Infinity results from division operation.
#    Time: 295 ns  Iteration: 3  Process: /axi_test_pkg::slave_monitor::collect_data/#FORK#88_f68a168 File: ../tb/axi_xtn.sv Line: 200
# start of drive_awaddr
# UVM_INFO ../master_agent_top/master_monitor.sv(111) @ 305: uvm_test_top.env_h.mst_agt_top.mst_agt_h[0].mst_mon_h [MST_MONITOR] printing from master monitor collect_awaddr 
#  -------------------------------------
# Name       Type      Size  Value     
# -------------------------------------
# xtn        axi_xtn   -     @1314     
#   AWID     integral  4     11        
#   AWADDR   integral  32    'h7f81f2b8
#   AWLEN    integral  4     15        
#   AWSIZE   integral  3     'd2       
#   AWBURST  integral  2     2         
#   WID      integral  4     'd0       
#   BID      integral  4     'd0       
#   BRESP    integral  2     'd0       
#   ARID     integral  4     'd0       
#   ARADDR   integral  32    'h0       
#   ARLEN    integral  8     'd0       
#   ARSIZE   integral  3     'd0       
#   ARBURST  integral  2     'd0       
#   RID      integral  4     'd0       
# -------------------------------------
# 
# UVM_INFO ../slave_agent_top/slave_monitor.sv(110) @ 305: uvm_test_top.env_h.slv_agt_top.slv_agt_h[0].slv_mon_h [slv_monitor] printing from slave monitor collect_awaddr 
#  -------------------------------------
# Name       Type      Size  Value     
# -------------------------------------
# xtn        axi_xtn   -     @1318     
#   AWID     integral  4     11        
#   AWADDR   integral  32    'h7f81f2b8
#   AWLEN    integral  4     15        
#   AWSIZE   integral  3     'd2       
#   AWBURST  integral  2     2         
#   WID      integral  4     'd0       
#   BID      integral  4     'd0       
#   BRESP    integral  2     'd0       
#   ARID     integral  4     'd0       
#   ARADDR   integral  32    'h0       
#   ARLEN    integral  8     'd0       
#   ARSIZE   integral  3     'd0       
#   ARBURST  integral  2     'd0       
#   RID      integral  4     'd0       
# -------------------------------------
# 
# UVM_INFO ../master_agent_top/master_monitor.sv(188) @ 305: uvm_test_top.env_h.mst_agt_top.mst_agt_h[0].mst_mon_h [MST_MONITOR] printing from master monitor collect_raddr 
#  -------------------------------------
# Name       Type      Size  Value     
# -------------------------------------
# xtn3       axi_xtn   -     @1302     
#   AWID     integral  4     'd0       
#   AWADDR   integral  32    'h0       
#   AWLEN    integral  4     'd0       
#   AWSIZE   integral  3     'd0       
#   AWBURST  integral  2     'd0       
#   WID      integral  4     'd0       
#   BID      integral  4     'd0       
#   BRESP    integral  2     'd0       
#   ARID     integral  4     15        
#   ARADDR   integral  32    'h571b8100
#   ARLEN    integral  8     'd1       
#   ARSIZE   integral  3     'd1       
#   ARBURST  integral  2     2         
#   RID      integral  4     'd0       
# -------------------------------------
# 
# slave driver start of awvalid
# WSTRB in slave driver is:12
# value inside mem is: 0000d7c5
# UVM_INFO ../slave_agent_top/slave_monitor.sv(184) @ 305: uvm_test_top.env_h.slv_agt_top.slv_agt_h[0].slv_mon_h [slv_monitor] printing from slave monitor collect_raddr 
#  -------------------------------------
# Name       Type      Size  Value     
# -------------------------------------
# xtn3       axi_xtn   -     @1310     
#   AWID     integral  4     'd0       
#   AWADDR   integral  32    'h0       
#   AWLEN    integral  4     'd0       
#   AWSIZE   integral  3     'd0       
#   AWBURST  integral  2     'd0       
#   WID      integral  4     'd0       
#   BID      integral  4     'd0       
#   BRESP    integral  2     'd0       
#   ARID     integral  4     15        
#   ARADDR   integral  32    'h571b8100
#   ARLEN    integral  8     'd1       
#   ARSIZE   integral  3     'd1       
#   ARBURST  integral  2     2         
#   RID      integral  4     'd0       
# -------------------------------------
# 
# end of drive_raddr
# end of drive_awaddr
# -----------------------------------------------------------------------------------------------------------
# Name                           Type      Size  Value                                                       
# -----------------------------------------------------------------------------------------------------------
# req                            axi_xtn   -     @1326                                                       
#   begin_time                   time      64    295                                                         
#   depth                        int       32    'd2                                                         
#   parent sequence (name)       string    5     m_seq                                                       
#   parent sequence (full name)  string    60    uvm_test_top.env_h.mst_agt_top.mst_agt_h[0].mst_seqr_h.m_seq
#   sequencer                    string    54    uvm_test_top.env_h.mst_agt_top.mst_agt_h[0].mst_seqr_h      
#   AWID                         integral  4     11                                                          
#   AWADDR                       integral  32    'h7f81f2b8                                                  
#   AWLEN                        integral  4     15                                                          
#   AWSIZE                       integral  3     'd2                                                         
#   AWBURST                      integral  2     2                                                           
#   WID                          integral  4     11                                                          
#   WDATA                        integral  32    'ha711d027                                                  
#   WSTRB                        integral  4     'b1111                                                      
#   WLAST                        integral  1     'dX                                                         
#   WDATA                        integral  32    'h4a382ac2                                                  
#   WSTRB                        integral  4     'b1111                                                      
#   WLAST                        integral  1     'dX                                                         
#   WDATA                        integral  32    'h738225b0                                                  
#   WSTRB                        integral  4     'b1111                                                      
#   WLAST                        integral  1     'dX                                                         
#   WDATA                        integral  32    'h220d8a2f                                                  
#   WSTRB                        integral  4     'b1111                                                      
#   WLAST                        integral  1     'dX                                                         
#   WDATA                        integral  32    'h3f658573                                                  
#   WSTRB                        integral  4     'b1111                                                      
#   WLAST                        integral  1     'dX                                                         
#   WDATA                        integral  32    'h669fd0a4                                                  
#   WSTRB                        integral  4     'b1111                                                      
#   WLAST                        integral  1     'dX                                                         
#   WDATA                        integral  32    'he0f4118c                                                  
#   WSTRB                        integral  4     'b1111                                                      
#   WLAST                        integral  1     'dX                                                         
#   WDATA                        integral  32    'h2beb2162                                                  
#   WSTRB                        integral  4     'b1111                                                      
#   WLAST                        integral  1     'dX                                                         
#   WDATA                        integral  32    'h3a6e40d8                                                  
#   WSTRB                        integral  4     'b1111                                                      
#   WLAST                        integral  1     'dX                                                         
#   WDATA                        integral  32    'h11019be5                                                  
#   WSTRB                        integral  4     'b1111                                                      
#   WLAST                        integral  1     'dX                                                         
#   WDATA                        integral  32    'h190a7612                                                  
#   WSTRB                        integral  4     'b1111                                                      
#   WLAST                        integral  1     'dX                                                         
#   WDATA                        integral  32    'h8e565bc8                                                  
#   WSTRB                        integral  4     'b1111                                                      
#   WLAST                        integral  1     'dX                                                         
#   WDATA                        integral  32    'h60524af7                                                  
#   WSTRB                        integral  4     'b1111                                                      
#   WLAST                        integral  1     'dX                                                         
#   WDATA                        integral  32    'hc3f49bd7                                                  
#   WSTRB                        integral  4     'b1111                                                      
#   WLAST                        integral  1     'dX                                                         
#   WDATA                        integral  32    'he4a452bd                                                  
#   WSTRB                        integral  4     'b1111                                                      
#   WLAST                        integral  1     'dX                                                         
#   WDATA                        integral  32    'h7c702b7c                                                  
#   WSTRB                        integral  4     'b1111                                                      
#   WLAST                        integral  1     'dX                                                         
#   BID                          integral  4     11                                                          
#   BRESP                        integral  2     'd0                                                         
#   ARID                         integral  4     11                                                          
#   ARADDR                       integral  32    'h910008ee                                                  
#   ARLEN                        integral  8     'd15                                                        
#   ARSIZE                       integral  3     'd1                                                         
#   ARBURST                      integral  2     'd0                                                         
#   RID                          integral  4     11                                                          
#   RDATA                        integral  32    'h50de6b7a                                                  
#   RRESP                        integral  2     'd0                                                         
#   RDATA                        integral  32    'h5b225c17                                                  
#   RRESP                        integral  2     'd0                                                         
#   RDATA                        integral  32    'hd5839ea8                                                  
#   RRESP                        integral  2     'd0                                                         
#   RDATA                        integral  32    'ha09d4e2d                                                  
#   RRESP                        integral  2     'd0                                                         
#   RDATA                        integral  32    'hcbff3f42                                                  
#   RRESP                        integral  2     'd0                                                         
#   RDATA                        integral  32    'h24692853                                                  
#   RRESP                        integral  2     'd0                                                         
#   RDATA                        integral  32    'h6ff4300d                                                  
#   RRESP                        integral  2     'd0                                                         
#   RDATA                        integral  32    'h5d8fdf95                                                  
#   RRESP                        integral  2     'd0                                                         
#   RDATA                        integral  32    'hb32b1684                                                  
#   RRESP                        integral  2     'd0                                                         
#   RDATA                        integral  32    'ha06520be                                                  
#   RRESP                        integral  2     'd0                                                         
#   RDATA                        integral  32    'hb450cce5                                                  
#   RRESP                        integral  2     'd0                                                         
#   RDATA                        integral  32    'h2b305868                                                  
#   RRESP                        integral  2     'd0                                                         
#   RDATA                        integral  32    'h138cbc27                                                  
#   RRESP                        integral  2     'd0                                                         
#   RDATA                        integral  32    'h6bd9bf9b                                                  
#   RRESP                        integral  2     'd0                                                         
#   RDATA                        integral  32    'hbbeb9d9d                                                  
#   RRESP                        integral  2     'd0                                                         
#   RDATA                        integral  32    'h25441244                                                  
#   RRESP                        integral  2     'd0                                                         
# -----------------------------------------------------------------------------------------------------------
# start of drive_raddr
# start of drive_awaddr
# UVM_INFO ../master_agent_top/master_monitor.sv(111) @ 325: uvm_test_top.env_h.mst_agt_top.mst_agt_h[0].mst_mon_h [MST_MONITOR] printing from master monitor collect_awaddr 
#  -------------------------------------
# Name       Type      Size  Value     
# -------------------------------------
# xtn        axi_xtn   -     @1346     
#   AWID     integral  4     'd1       
#   AWADDR   integral  32    'hb1afee4d
#   AWLEN    integral  4     'd6       
#   AWSIZE   integral  3     'd1       
#   AWBURST  integral  2     'd1       
#   WID      integral  4     'd0       
#   BID      integral  4     'd0       
#   BRESP    integral  2     'd0       
#   ARID     integral  4     'd0       
#   ARADDR   integral  32    'h0       
#   ARLEN    integral  8     'd0       
#   ARSIZE   integral  3     'd0       
#   ARBURST  integral  2     'd0       
#   RID      integral  4     'd0       
# -------------------------------------
# 
# UVM_INFO ../slave_agent_top/slave_monitor.sv(110) @ 325: uvm_test_top.env_h.slv_agt_top.slv_agt_h[0].slv_mon_h [slv_monitor] printing from slave monitor collect_awaddr 
#  -------------------------------------
# Name       Type      Size  Value     
# -------------------------------------
# xtn        axi_xtn   -     @1350     
#   AWID     integral  4     'd1       
#   AWADDR   integral  32    'hb1afee4d
#   AWLEN    integral  4     'd6       
#   AWSIZE   integral  3     'd1       
#   AWBURST  integral  2     'd1       
#   WID      integral  4     'd0       
#   BID      integral  4     'd0       
#   BRESP    integral  2     'd0       
#   ARID     integral  4     'd0       
#   ARADDR   integral  32    'h0       
#   ARLEN    integral  8     'd0       
#   ARSIZE   integral  3     'd0       
#   ARBURST  integral  2     'd0       
#   RID      integral  4     'd0       
# -------------------------------------
# 
# master received address:'{145c8643, 145c8644, 145c8646, 145c8648}
# memory received in master driver is '{145c8643:0000003b, 145c8644:0000318c, 145c8646:0000d08b, 145c8648:0000f652 }
# end of drive_rdata
# end of slave_raddr
# start of drive_rdata
# start of slave_raddr
# inside drive_raddr before wait ARREADY
# end of read_awaddr
# start of read_awaddr
# slave driver start of awvalid
# WSTRB in slave driver is:12
# value inside mem is: 0000439a
# end of drive_awaddr
# -----------------------------------------------------------------------------------------------------------
# Name                           Type      Size  Value                                                       
# -----------------------------------------------------------------------------------------------------------
# req                            axi_xtn   -     @1354                                                       
#   begin_time                   time      64    315                                                         
#   depth                        int       32    'd2                                                         
#   parent sequence (name)       string    5     m_seq                                                       
#   parent sequence (full name)  string    60    uvm_test_top.env_h.mst_agt_top.mst_agt_h[0].mst_seqr_h.m_seq
#   sequencer                    string    54    uvm_test_top.env_h.mst_agt_top.mst_agt_h[0].mst_seqr_h      
#   AWID                         integral  4     'd1                                                         
#   AWADDR                       integral  32    'hb1afee4d                                                  
#   AWLEN                        integral  4     'd6                                                         
#   AWSIZE                       integral  3     'd1                                                         
#   AWBURST                      integral  2     'd1                                                         
#   WID                          integral  4     'd1                                                         
#   WDATA                        integral  32    'h598f2daf                                                  
#   WSTRB                        integral  4     'b0                                                         
#   WLAST                        integral  1     'dX                                                         
#   WDATA                        integral  32    'h3dcfca1c                                                  
#   WSTRB                        integral  4     'b1100                                                      
#   WLAST                        integral  1     'dX                                                         
#   WDATA                        integral  32    'h7425d450                                                  
#   WSTRB                        integral  4     'b11                                                        
#   WLAST                        integral  1     'dX                                                         
#   WDATA                        integral  32    'he3848e10                                                  
#   WSTRB                        integral  4     'b1100                                                      
#   WLAST                        integral  1     'dX                                                         
#   WDATA                        integral  32    'hf46cb26b                                                  
#   WSTRB                        integral  4     'b11                                                        
#   WLAST                        integral  1     'dX                                                         
#   WDATA                        integral  32    'h59d328d2                                                  
#   WSTRB                        integral  4     'b1100                                                      
#   WLAST                        integral  1     'dX                                                         
#   WDATA                        integral  32    'h680edcfe                                                  
#   WSTRB                        integral  4     'b11                                                        
#   WLAST                        integral  1     'dX                                                         
#   BID                          integral  4     'd1                                                         
#   BRESP                        integral  2     'd0                                                         
#   ARID                         integral  4     11                                                          
#   ARADDR                       integral  32    'h9340d756                                                  
#   ARLEN                        integral  8     'd12                                                        
#   ARSIZE                       integral  3     'd1                                                         
#   ARBURST                      integral  2     'd1                                                         
#   RID                          integral  4     11                                                          
#   RDATA                        integral  32    'hf0d1ba10                                                  
#   RRESP                        integral  2     'd0                                                         
#   RDATA                        integral  32    'hcfcca798                                                  
#   RRESP                        integral  2     'd0                                                         
#   RDATA                        integral  32    'hdd876696                                                  
#   RRESP                        integral  2     'd0                                                         
#   RDATA                        integral  32    'h68914a3                                                   
#   RRESP                        integral  2     'd0                                                         
#   RDATA                        integral  32    'h72c5238e                                                  
#   RRESP                        integral  2     'd0                                                         
#   RDATA                        integral  32    'hc5b607fc                                                  
#   RRESP                        integral  2     'd0                                                         
#   RDATA                        integral  32    'h727b2fe0                                                  
#   RRESP                        integral  2     'd0                                                         
#   RDATA                        integral  32    'h880e6c07                                                  
#   RRESP                        integral  2     'd0                                                         
#   RDATA                        integral  32    'he53583d7                                                  
#   RRESP                        integral  2     'd0                                                         
#   RDATA                        integral  32    'ha4a3e46b                                                  
#   RRESP                        integral  2     'd0                                                         
#   RDATA                        integral  32    'h56a5f41d                                                  
#   RRESP                        integral  2     'd0                                                         
#   RDATA                        integral  32    'hb3f36ab6                                                  
#   RRESP                        integral  2     'd0                                                         
#   RDATA                        integral  32    'h6fd2994e                                                  
#   RRESP                        integral  2     'd0                                                         
# -----------------------------------------------------------------------------------------------------------
# start of drive_awaddr
# UVM_INFO ../master_agent_top/master_monitor.sv(111) @ 385: uvm_test_top.env_h.mst_agt_top.mst_agt_h[0].mst_mon_h [MST_MONITOR] printing from master monitor collect_awaddr 
#  -------------------------------------
# Name       Type      Size  Value     
# -------------------------------------
# xtn        axi_xtn   -     @1358     
#   AWID     integral  4     10        
#   AWADDR   integral  32    'hbc1b12d0
#   AWLEN    integral  4     'd1       
#   AWSIZE   integral  3     'd1       
#   AWBURST  integral  2     2         
#   WID      integral  4     'd0       
#   BID      integral  4     'd0       
#   BRESP    integral  2     'd0       
#   ARID     integral  4     'd0       
#   ARADDR   integral  32    'h0       
#   ARLEN    integral  8     'd0       
#   ARSIZE   integral  3     'd0       
#   ARBURST  integral  2     'd0       
#   RID      integral  4     'd0       
# -------------------------------------
# 
# UVM_INFO ../slave_agent_top/slave_monitor.sv(110) @ 385: uvm_test_top.env_h.slv_agt_top.slv_agt_h[0].slv_mon_h [slv_monitor] printing from slave monitor collect_awaddr 
#  -------------------------------------
# Name       Type      Size  Value     
# -------------------------------------
# xtn        axi_xtn   -     @1362     
#   AWID     integral  4     10        
#   AWADDR   integral  32    'hbc1b12d0
#   AWLEN    integral  4     'd1       
#   AWSIZE   integral  3     'd1       
#   AWBURST  integral  2     2         
#   WID      integral  4     'd0       
#   BID      integral  4     'd0       
#   BRESP    integral  2     'd0       
#   ARID     integral  4     'd0       
#   ARADDR   integral  32    'h0       
#   ARLEN    integral  8     'd0       
#   ARSIZE   integral  3     'd0       
#   ARBURST  integral  2     'd0       
#   RID      integral  4     'd0       
