vsim -vopt -voptargs="+acc" -coverage -sva -c -do " log -r /* ;coverage save -onexit mem_cov1;run -all; exit" -wlf wave_file1.wlf -l test1.log -sv_seed random work.top "+UVM_TESTNAME=fixed_seq_test" 
Start time: 15:18:21 on Jan 13,2024
** Note: (vsim-8009) Loading existing optimized design _opt2
//  Questa Sim-64
//  Version 2019.2 linux_x86_64 Apr 16 2019
//
//  Copyright 1991-2019 Mentor Graphics Corporation
//  All Rights Reserved.
//
//  QuestaSim and its associated documentation contain trade
//  secrets and commercial or financial information that are the property of
//  Mentor Graphics Corporation and are privileged, confidential,
//  and exempt from disclosure under the Freedom of Information Act,
//  5 U.S.C. Section 552. Furthermore, this information
//  is prohibited from disclosure under the Trade Secrets Act,
//  18 U.S.C. Section 1905.
//
Loading sv_std.std
Loading work.axi_if(fast)
Loading mtiUvm.uvm_pkg
Loading work.axi_test_pkg(fast)
Loading mtiUvm.questa_uvm_pkg(fast)
Loading work.top(fast)
Loading work.axi_if(fast)
# Loading /home/cad/eda/Questa_2019/questasim/uvm-1.1d/linux_x86_64/uvm_dpi.so
** Warning: (vsim-8634) Code was not compiled with coverage options.
Sv_Seed = 1416301735
 log -r /* 
coverage save -onexit mem_cov1
run -all
----------------------------------------------------------------
UVM-1.1d
(C) 2007-2013 Mentor Graphics Corporation
(C) 2007-2013 Cadence Design Systems, Inc.
(C) 2006-2013 Synopsys, Inc.
(C) 2011-2013 Cypress Semiconductor Corp.
----------------------------------------------------------------

  ***********       IMPORTANT RELEASE NOTES         ************

  You are using a version of the UVM library that has been compiled
  with `UVM_NO_DEPRECATED undefined.
  See http://www.eda.org/svdb/view.php?id=3313 for more details.

  You are using a version of the UVM library that has been compiled
  with `UVM_OBJECT_MUST_HAVE_CONSTRUCTOR undefined.
  See http://www.eda.org/svdb/view.php?id=3770 for more details.

      (Specify +UVM_NO_RELNOTES to turn off this notice)

UVM_INFO verilog_src/questa_uvm_pkg-1.2/src/questa_uvm_pkg.sv(277) @ 0: reporter [Questa UVM] QUESTA_UVM-1.2.3
UVM_INFO verilog_src/questa_uvm_pkg-1.2/src/questa_uvm_pkg.sv(278) @ 0: reporter [Questa UVM]  questa_uvm::init(+struct)
UVM_INFO @ 0: reporter [RNTST] Running test fixed_seq_test...
start of read_awaddr
start of slave_raddr
start of drive_awaddr
start of drive_raddr
UVM_INFO ../master_agent_top/master_monitor.sv(111) @ 35: uvm_test_top.env_h.mst_agt_top.mst_agt_h[0].mst_mon_h [MST_MONITOR] printing from master monitor collect_awaddr 
 -------------------------------------
Name       Type      Size  Value     
-------------------------------------
xtn        axi_xtn   -     @1099     
  AWID     integral  4     'd3       
  AWADDR   integral  32    'h2a25c74c
  AWLEN    integral  4     8         
  AWSIZE   integral  3     'd0       
  AWBURST  integral  2     'd0       
  WID      integral  4     'd0       
  BID      integral  4     'd0       
  BRESP    integral  2     'd0       
  ARID     integral  4     'd0       
  ARADDR   integral  32    'h0       
  ARLEN    integral  8     'd0       
  ARSIZE   integral  3     'd0       
  ARBURST  integral  2     'd0       
  RID      integral  4     'd0       
-------------------------------------

UVM_INFO ../slave_agent_top/slave_monitor.sv(110) @ 35: uvm_test_top.env_h.slv_agt_top.slv_agt_h[0].slv_mon_h [slv_monitor] printing from slave monitor collect_awaddr 
 -------------------------------------
Name       Type      Size  Value     
-------------------------------------
xtn        axi_xtn   -     @1081     
  AWID     integral  4     'd3       
  AWADDR   integral  32    'h2a25c74c
  AWLEN    integral  4     8         
  AWSIZE   integral  3     'd0       
  AWBURST  integral  2     'd0       
  WID      integral  4     'd0       
  BID      integral  4     'd0       
  BRESP    integral  2     'd0       
  ARID     integral  4     'd0       
  ARADDR   integral  32    'h0       
  ARLEN    integral  8     'd0       
  ARSIZE   integral  3     'd0       
  ARBURST  integral  2     'd0       
  RID      integral  4     'd0       
-------------------------------------

inside drive_raddr before wait ARREADY
UVM_INFO ../master_agent_top/master_monitor.sv(188) @ 65: uvm_test_top.env_h.mst_agt_top.mst_agt_h[0].mst_mon_h [MST_MONITOR] printing from master monitor collect_raddr 
 -------------------------------------
Name       Type      Size  Value     
-------------------------------------
xtn3       axi_xtn   -     @1103     
  AWID     integral  4     'd0       
  AWADDR   integral  32    'h0       
  AWLEN    integral  4     'd0       
  AWSIZE   integral  3     'd0       
  AWBURST  integral  2     'd0       
  WID      integral  4     'd0       
  BID      integral  4     'd0       
  BRESP    integral  2     'd0       
  ARID     integral  4     13        
  ARADDR   integral  32    'ha42bd4a8
  ARLEN    integral  8     'd14      
  ARSIZE   integral  3     'd1       
  ARBURST  integral  2     'd0       
  RID      integral  4     'd0       
-------------------------------------

end of slave_raddr
start of slave_raddr
end of read_awaddr
UVM_INFO ../slave_agent_top/slave_monitor.sv(184) @ 65: uvm_test_top.env_h.slv_agt_top.slv_agt_h[0].slv_mon_h [slv_monitor] printing from slave monitor collect_raddr 
 -------------------------------------
Name       Type      Size  Value     
-------------------------------------
xtn3       axi_xtn   -     @1085     
  AWID     integral  4     'd0       
  AWADDR   integral  32    'h0       
  AWLEN    integral  4     'd0       
  AWSIZE   integral  3     'd0       
  AWBURST  integral  2     'd0       
  WID      integral  4     'd0       
  BID      integral  4     'd0       
  BRESP    integral  2     'd0       
  ARID     integral  4     13        
  ARADDR   integral  32    'ha42bd4a8
  ARLEN    integral  8     'd14      
  ARSIZE   integral  3     'd1       
  ARBURST  integral  2     'd0       
  RID      integral  4     'd0       
-------------------------------------

start of slave_rdata
start of read_awaddr
start of read_data
aligned:2a25c74c
addresses calculated in slave side are '{2a25c74c, 2a25c74c, 2a25c74c, 2a25c74c, 2a25c74c, 2a25c74c, 2a25c74c, 2a25c74c, 2a25c74c}
end of drive_awaddr
-----------------------------------------------------------------------------------------------------------
Name                           Type      Size  Value                                                       
-----------------------------------------------------------------------------------------------------------
req                            axi_xtn   -     @1113                                                       
  begin_time                   time      64    0                                                           
  depth                        int       32    'd2                                                         
  parent sequence (name)       string    5     m_seq                                                       
  parent sequence (full name)  string    60    uvm_test_top.env_h.mst_agt_top.mst_agt_h[0].mst_seqr_h.m_seq
  sequencer                    string    54    uvm_test_top.env_h.mst_agt_top.mst_agt_h[0].mst_seqr_h      
  AWID                         integral  4     'd3                                                         
  AWADDR                       integral  32    'h2a25c74c                                                  
  AWLEN                        integral  4     8                                                           
  AWSIZE                       integral  3     'd0                                                         
  AWBURST                      integral  2     'd0                                                         
  WID                          integral  4     'd3                                                         
  WDATA                        integral  32    'h6109c4c0                                                  
  WSTRB                        integral  4     'b1                                                         
  WLAST                        integral  1     'dX                                                         
  WDATA                        integral  32    'h49b0bd99                                                  
  WSTRB                        integral  4     'b1                                                         
  WLAST                        integral  1     'dX                                                         
  WDATA                        integral  32    'h10a500c9                                                  
  WSTRB                        integral  4     'b1                                                         
  WLAST                        integral  1     'dX                                                         
  WDATA                        integral  32    'h586b7a4f                                                  
  WSTRB                        integral  4     'b1                                                         
  WLAST                        integral  1     'dX                                                         
  WDATA                        integral  32    'h317b3c3c                                                  
  WSTRB                        integral  4     'b1                                                         
  WLAST                        integral  1     'dX                                                         
  WDATA                        integral  32    'hf8820c46                                                  
  WSTRB                        integral  4     'b1                                                         
  WLAST                        integral  1     'dX                                                         
  WDATA                        integral  32    'h8187b9fc                                                  
  WSTRB                        integral  4     'b1                                                         
  WLAST                        integral  1     'dX                                                         
  WDATA                        integral  32    'h5ac8d754                                                  
  WSTRB                        integral  4     'b1                                                         
  WLAST                        integral  1     'dX                                                         
  WDATA                        integral  32    'h175fcdcd                                                  
  WSTRB                        integral  4     'b1                                                         
  WLAST                        integral  1     'dX                                                         
  BID                          integral  4     'd3                                                         
  BRESP                        integral  2     'd0                                                         
  ARID                         integral  4     13                                                          
  ARADDR                       integral  32    'ha42bd4a8                                                  
  ARLEN                        integral  8     'd14                                                        
  ARSIZE                       integral  3     'd1                                                         
  ARBURST                      integral  2     'd0                                                         
  RID                          integral  4     13                                                          
  RDATA                        integral  32    'h35c0f76                                                   
  RRESP                        integral  2     'd0                                                         
  RDATA                        integral  32    'h56571987                                                  
  RRESP                        integral  2     'd0                                                         
  RDATA                        integral  32    'hfab16795                                                  
  RRESP                        integral  2     'd0                                                         
  RDATA                        integral  32    'hc8254434                                                  
  RRESP                        integral  2     'd0                                                         
  RDATA                        integral  32    'h874196                                                    
  RRESP                        integral  2     'd0                                                         
  RDATA                        integral  32    'hf06b666b                                                  
  RRESP                        integral  2     'd0                                                         
  RDATA                        integral  32    'he3c01841                                                  
  RRESP                        integral  2     'd0                                                         
  RDATA                        integral  32    'haa375a74                                                  
  RRESP                        integral  2     'd0                                                         
  RDATA                        integral  32    'hcfcef801                                                  
  RRESP                        integral  2     'd0                                                         
  RDATA                        integral  32    'h81964ee4                                                  
  RRESP                        integral  2     'd0                                                         
  RDATA                        integral  32    'h85d46f61                                                  
  RRESP                        integral  2     'd0                                                         
  RDATA                        integral  32    'hc9e534c4                                                  
  RRESP                        integral  2     'd0                                                         
  RDATA                        integral  32    'h9043fba1                                                  
  RRESP                        integral  2     'd0                                                         
  RDATA                        integral  32    'h33d95fc3                                                  
  RRESP                        integral  2     'd0                                                         
  RDATA                        integral  32    'h8fa9cc45                                                  
  RRESP                        integral  2     'd0                                                         
-----------------------------------------------------------------------------------------------------------
end of drive_raddr
start of drive_wdata
start of drive_rdata
start of drive_awaddr
start of drive_raddr
slave driver start of awvalid
WSTRB in slave driver is:1
value inside mem is: 000000c0
inside drive_raddr before wait ARREADY
UVM_INFO ../master_agent_top/master_monitor.sv(111) @ 125: uvm_test_top.env_h.mst_agt_top.mst_agt_h[0].mst_mon_h [MST_MONITOR] printing from master monitor collect_awaddr 
 ------------------------------------
Name       Type      Size  Value    
------------------------------------
xtn        axi_xtn   -     @1189    
  AWID     integral  4     'd5      
  AWADDR   integral  32    'h4176b6a
  AWLEN    integral  4     11       
  AWSIZE   integral  3     'd1      
  AWBURST  integral  2     'd0      
  WID      integral  4     'd0      
  BID      integral  4     'd0      
  BRESP    integral  2     'd0      
  ARID     integral  4     'd0      
  ARADDR   integral  32    'h0      
  ARLEN    integral  8     'd0      
  ARSIZE   integral  3     'd0      
  ARBURST  integral  2     'd0      
  RID      integral  4     'd0      
------------------------------------

UVM_INFO ../slave_agent_top/slave_monitor.sv(110) @ 125: uvm_test_top.env_h.slv_agt_top.slv_agt_h[0].slv_mon_h [slv_monitor] printing from slave monitor collect_awaddr 
 ------------------------------------
Name       Type      Size  Value    
------------------------------------
xtn        axi_xtn   -     @1193    
  AWID     integral  4     'd5      
  AWADDR   integral  32    'h4176b6a
  AWLEN    integral  4     11       
  AWSIZE   integral  3     'd1      
  AWBURST  integral  2     'd0      
  WID      integral  4     'd0      
  BID      integral  4     'd0      
  BRESP    integral  2     'd0      
  ARID     integral  4     'd0      
  ARADDR   integral  32    'h0      
  ARLEN    integral  8     'd0      
  ARSIZE   integral  3     'd0      
  ARBURST  integral  2     'd0      
  RID      integral  4     'd0      
------------------------------------

UVM_INFO ../master_agent_top/master_monitor.sv(188) @ 125: uvm_test_top.env_h.mst_agt_top.mst_agt_h[0].mst_mon_h [MST_MONITOR] printing from master monitor collect_raddr 
 -------------------------------------
Name       Type      Size  Value     
-------------------------------------
xtn3       axi_xtn   -     @1213     
  AWID     integral  4     'd0       
  AWADDR   integral  32    'h0       
  AWLEN    integral  4     'd0       
  AWSIZE   integral  3     'd0       
  AWBURST  integral  2     'd0       
  WID      integral  4     'd0       
  BID      integral  4     'd0       
  BRESP    integral  2     'd0       
  ARID     integral  4     'd0       
  ARADDR   integral  32    'hfac01a39
  ARLEN    integral  8     'd7       
  ARSIZE   integral  3     'd0       
  ARBURST  integral  2     'd0       
  RID      integral  4     'd0       
-------------------------------------

UVM_INFO ../slave_agent_top/slave_monitor.sv(184) @ 125: uvm_test_top.env_h.slv_agt_top.slv_agt_h[0].slv_mon_h [slv_monitor] printing from slave monitor collect_raddr 
 -------------------------------------
Name       Type      Size  Value     
-------------------------------------
xtn3       axi_xtn   -     @1221     
  AWID     integral  4     'd0       
  AWADDR   integral  32    'h0       
  AWLEN    integral  4     'd0       
  AWSIZE   integral  3     'd0       
  AWBURST  integral  2     'd0       
  WID      integral  4     'd0       
  BID      integral  4     'd0       
  BRESP    integral  2     'd0       
  ARID     integral  4     'd0       
  ARADDR   integral  32    'hfac01a39
  ARLEN    integral  8     'd7       
  ARSIZE   integral  3     'd0       
  ARBURST  integral  2     'd0       
  RID      integral  4     'd0       
-------------------------------------

end of drive_raddr
-----------------------------------------------------------------------------------------------------------
Name                           Type      Size  Value                                                       
-----------------------------------------------------------------------------------------------------------
req                            axi_xtn   -     @1230                                                       
  begin_time                   time      64    85                                                          
  depth                        int       32    'd2                                                         
  parent sequence (name)       string    5     m_seq                                                       
  parent sequence (full name)  string    60    uvm_test_top.env_h.mst_agt_top.mst_agt_h[0].mst_seqr_h.m_seq
  sequencer                    string    54    uvm_test_top.env_h.mst_agt_top.mst_agt_h[0].mst_seqr_h      
  AWID                         integral  4     'd5                                                         
  AWADDR                       integral  32    'h4176b6a                                                   
  AWLEN                        integral  4     11                                                          
  AWSIZE                       integral  3     'd1                                                         
  AWBURST                      integral  2     'd0                                                         
  WID                          integral  4     'd5                                                         
  WDATA                        integral  32    'hc4627418                                                  
  WSTRB                        integral  4     'b1100                                                      
  WLAST                        integral  1     'dX                                                         
  WDATA                        integral  32    'h20517d30                                                  
  WSTRB                        integral  4     'b1100                                                      
  WLAST                        integral  1     'dX                                                         
  WDATA                        integral  32    'hd3d806b5                                                  
  WSTRB                        integral  4     'b1100                                                      
  WLAST                        integral  1     'dX                                                         
  WDATA                        integral  32    'h300fdbbb                                                  
  WSTRB                        integral  4     'b1100                                                      
  WLAST                        integral  1     'dX                                                         
  WDATA                        integral  32    'hfd8e33f0                                                  
  WSTRB                        integral  4     'b1100                                                      
  WLAST                        integral  1     'dX                                                         
  WDATA                        integral  32    'he013d488                                                  
  WSTRB                        integral  4     'b1100                                                      
  WLAST                        integral  1     'dX                                                         
  WDATA                        integral  32    'hacc7204b                                                  
  WSTRB                        integral  4     'b1100                                                      
  WLAST                        integral  1     'dX                                                         
  WDATA                        integral  32    'h448bf831                                                  
  WSTRB                        integral  4     'b1100                                                      
  WLAST                        integral  1     'dX                                                         
  WDATA                        integral  32    'h6f84acab                                                  
  WSTRB                        integral  4     'b1100                                                      
  WLAST                        integral  1     'dX                                                         
  WDATA                        integral  32    'h75609c47                                                  
  WSTRB                        integral  4     'b1100                                                      
  WLAST                        integral  1     'dX                                                         
  WDATA                        integral  32    'h21211aca                                                  
  WSTRB                        integral  4     'b1100                                                      
  WLAST                        integral  1     'dX                                                         
  WDATA                        integral  32    'ha47889a0                                                  
  WSTRB                        integral  4     'b1100                                                      
  WLAST                        integral  1     'dX                                                         
  BID                          integral  4     'd5                                                         
  BRESP                        integral  2     'd0                                                         
  ARID                         integral  4     'd0                                                         
  ARADDR                       integral  32    'hfac01a39                                                  
  ARLEN                        integral  8     'd7                                                         
  ARSIZE                       integral  3     'd0                                                         
  ARBURST                      integral  2     'd0                                                         
  RID                          integral  4     'd0                                                         
  RDATA                        integral  32    'h6820184a                                                  
  RRESP                        integral  2     'd0                                                         
  RDATA                        integral  32    'h18df1f4c                                                  
  RRESP                        integral  2     'd0                                                         
  RDATA                        integral  32    'hf6655fe3                                                  
  RRESP                        integral  2     'd0                                                         
  RDATA                        integral  32    'h772f4acf                                                  
  RRESP                        integral  2     'd0                                                         
  RDATA                        integral  32    'h7c9125b5                                                  
  RRESP                        integral  2     'd0                                                         
  RDATA                        integral  32    'hfee3a13d                                                  
  RRESP                        integral  2     'd0                                                         
  RDATA                        integral  32    'h1f02d6b8                                                  
  RRESP                        integral  2     'd0                                                         
  RDATA                        integral  32    'h74459869                                                  
  RRESP                        integral  2     'd0                                                         
-----------------------------------------------------------------------------------------------------------
start of drive_raddr
slave driver start of awvalid
WSTRB in slave driver is:1
value inside mem is: 00000099
end of slave_raddr
start of slave_raddr
inside drive_raddr before wait ARREADY
end of read_awaddr
start of read_awaddr
end of drive_awaddr
slave driver start of awvalid
WSTRB in slave driver is:1
value inside mem is: 000000c9
start of drive_awaddr
UVM_INFO ../master_agent_top/master_monitor.sv(111) @ 195: uvm_test_top.env_h.mst_agt_top.mst_agt_h[0].mst_mon_h [MST_MONITOR] printing from master monitor collect_awaddr 
 -------------------------------------
Name       Type      Size  Value     
-------------------------------------
xtn        axi_xtn   -     @1246     
  AWID     integral  4     'd3       
  AWADDR   integral  32    'h347c5a30
  AWLEN    integral  4     'd0       
  AWSIZE   integral  3     'd2       
  AWBURST  integral  2     'd0       
  WID      integral  4     'd0       
  BID      integral  4     'd0       
  BRESP    integral  2     'd0       
  ARID     integral  4     'd0       
  ARADDR   integral  32    'h0       
  ARLEN    integral  8     'd0       
  ARSIZE   integral  3     'd0       
  ARBURST  integral  2     'd0       
  RID      integral  4     'd0       
-------------------------------------

UVM_INFO ../slave_agent_top/slave_monitor.sv(110) @ 195: uvm_test_top.env_h.slv_agt_top.slv_agt_h[0].slv_mon_h [slv_monitor] printing from slave monitor collect_awaddr 
 -------------------------------------
Name       Type      Size  Value     
-------------------------------------
xtn        axi_xtn   -     @1250     
  AWID     integral  4     'd3       
  AWADDR   integral  32    'h347c5a30
  AWLEN    integral  4     'd0       
  AWSIZE   integral  3     'd2       
  AWBURST  integral  2     'd0       
  WID      integral  4     'd0       
  BID      integral  4     'd0       
  BRESP    integral  2     'd0       
  ARID     integral  4     'd0       
  ARADDR   integral  32    'h0       
  ARLEN    integral  8     'd0       
  ARSIZE   integral  3     'd0       
  ARBURST  integral  2     'd0       
  RID      integral  4     'd0       
-------------------------------------

end of drive_awaddr
-----------------------------------------------------------------------------------------------------------
Name                           Type      Size  Value                                                       
-----------------------------------------------------------------------------------------------------------
req                            axi_xtn   -     @1242                                                       
  begin_time                   time      64    135                                                         
  depth                        int       32    'd2                                                         
  parent sequence (name)       string    5     m_seq                                                       
  parent sequence (full name)  string    60    uvm_test_top.env_h.mst_agt_top.mst_agt_h[0].mst_seqr_h.m_seq
  sequencer                    string    54    uvm_test_top.env_h.mst_agt_top.mst_agt_h[0].mst_seqr_h      
  AWID                         integral  4     'd3                                                         
  AWADDR                       integral  32    'h347c5a30                                                  
  AWLEN                        integral  4     'd0                                                         
  AWSIZE                       integral  3     'd2                                                         
  AWBURST                      integral  2     'd0                                                         
  WID                          integral  4     'd3                                                         
  WDATA                        integral  32    'h997ebecb                                                  
  WSTRB                        integral  4     'b1111                                                      
  WLAST                        integral  1     'dX                                                         
  WDATA                        integral  32    'h2c5724d2                                                  
  WSTRB                        integral  4     'b1111                                                      
  WLAST                        integral  1     'dX                                                         
  WDATA                        integral  32    'h48be574                                                   
  WSTRB                        integral  4     'b1111                                                      
  WLAST                        integral  1     'dX                                                         
  WDATA                        integral  32    'hf313c83b                                                  
  WSTRB                        integral  4     'b1111                                                      
  WLAST                        integral  1     'dX                                                         
  WDATA                        integral  32    'h2d60e2e5                                                  
  WSTRB                        integral  4     'b1111                                                      
  WLAST                        integral  1     'dX                                                         
  WDATA                        integral  32    'h1432123c                                                  
  WSTRB                        integral  4     'b1111                                                      
  WLAST                        integral  1     'dX                                                         
  WDATA                        integral  32    'h9cc6492a                                                  
  WSTRB                        integral  4     'b1111                                                      
  WLAST                        integral  1     'dX                                                         
  WDATA                        integral  32    'hf2bd878b                                                  
  WSTRB                        integral  4     'b1111                                                      
  WLAST                        integral  1     'dX                                                         
  WDATA                        integral  32    'he0a783c6                                                  
  WSTRB                        integral  4     'b1111                                                      
  WLAST                        integral  1     'dX                                                         
  WDATA                        integral  32    'h5af96ef9                                                  
  WSTRB                        integral  4     'b1111                                                      
  WLAST                        integral  1     'dX                                                         
  WDATA                        integral  32    'h7da69445                                                  
  WSTRB                        integral  4     'b1111                                                      
  WLAST                        integral  1     'dX                                                         
  WDATA                        integral  32    'h411ca83f                                                  
  WSTRB                        integral  4     'b1111                                                      
  WLAST                        integral  1     'dX                                                         
  WDATA                        integral  32    'hb45f02ae                                                  
  WSTRB                        integral  4     'b1111                                                      
  WLAST                        integral  1     'dX                                                         
  WDATA                        integral  32    'h95e060cb                                                  
  WSTRB                        integral  4     'b1111                                                      
  WLAST                        integral  1     'dX                                                         
  WDATA                        integral  32    'h822134db                                                  
  WSTRB                        integral  4     'b1111                                                      
  WLAST                        integral  1     'dX                                                         
  WDATA                        integral  32    'h3bd88ec3                                                  
  WSTRB                        integral  4     'b1111                                                      
  WLAST                        integral  1     'dX                                                         
  WDATA                        integral  32    'hf649a0a4                                                  
  WSTRB                        integral  4     'b1111                                                      
  WLAST                        integral  1     'dX                                                         
  BID                          integral  4     'd3                                                         
  BRESP                        integral  2     'd0                                                         
  ARID                         integral  4     10                                                          
  ARADDR                       integral  32    'h870f4684                                                  
  ARLEN                        integral  8     'd12                                                        
  ARSIZE                       integral  3     'd2                                                         
  ARBURST                      integral  2     'd0                                                         
  RID                          integral  4     10                                                          
  RDATA                        integral  32    'hed56631                                                   
  RRESP                        integral  2     'd0                                                         
  RDATA                        integral  32    'h8cb75756                                                  
  RRESP                        integral  2     'd0                                                         
  RDATA                        integral  32    'h9201a3e4                                                  
  RRESP                        integral  2     'd0                                                         
  RDATA                        integral  32    'h180980ea                                                  
  RRESP                        integral  2     'd0                                                         
  RDATA                        integral  32    'hf10de769                                                  
  RRESP                        integral  2     'd0                                                         
  RDATA                        integral  32    'h167866b3                                                  
  RRESP                        integral  2     'd0                                                         
  RDATA                        integral  32    'hcdbd606f                                                  
  RRESP                        integral  2     'd0                                                         
  RDATA                        integral  32    'hf5574a91                                                  
  RRESP                        integral  2     'd0                                                         
  RDATA                        integral  32    'hf199d4a3                                                  
  RRESP                        integral  2     'd0                                                         
  RDATA                        integral  32    'hb64f441a                                                  
  RRESP                        integral  2     'd0                                                         
  RDATA                        integral  32    'h876713a8                                                  
  RRESP                        integral  2     'd0                                                         
  RDATA                        integral  32    'hc56ceb0b                                                  
  RRESP                        integral  2     'd0                                                         
  RDATA                        integral  32    'h3ff3a24                                                   
  RRESP                        integral  2     'd0                                                         
-----------------------------------------------------------------------------------------------------------
start of drive_awaddr
UVM_INFO ../master_agent_top/master_monitor.sv(111) @ 215: uvm_test_top.env_h.mst_agt_top.mst_agt_h[0].mst_mon_h [MST_MONITOR] printing from master monitor collect_awaddr 
 -------------------------------------
Name       Type      Size  Value     
-------------------------------------
xtn        axi_xtn   -     @1262     
  AWID     integral  4     'd4       
  AWADDR   integral  32    'h9c43c190
  AWLEN    integral  4     'd0       
  AWSIZE   integral  3     'd2       
  AWBURST  integral  2     'd0       
  WID      integral  4     'd0       
  BID      integral  4     'd0       
  BRESP    integral  2     'd0       
  ARID     integral  4     'd0       
  ARADDR   integral  32    'h0       
  ARLEN    integral  8     'd0       
  ARSIZE   integral  3     'd0       
  ARBURST  integral  2     'd0       
  RID      integral  4     'd0       
-------------------------------------

UVM_INFO ../slave_agent_top/slave_monitor.sv(110) @ 215: uvm_test_top.env_h.slv_agt_top.slv_agt_h[0].slv_mon_h [slv_monitor] printing from slave monitor collect_awaddr 
 -------------------------------------
Name       Type      Size  Value     
-------------------------------------
xtn        axi_xtn   -     @1266     
  AWID     integral  4     'd4       
  AWADDR   integral  32    'h9c43c190
  AWLEN    integral  4     'd0       
  AWSIZE   integral  3     'd2       
  AWBURST  integral  2     'd0       
  WID      integral  4     'd0       
  BID      integral  4     'd0       
  BRESP    integral  2     'd0       
  ARID     integral  4     'd0       
  ARADDR   integral  32    'h0       
  ARLEN    integral  8     'd0       
  ARSIZE   integral  3     'd0       
  ARBURST  integral  2     'd0       
  RID      integral  4     'd0       
-------------------------------------

end of drive_raddr
UVM_INFO ../master_agent_top/master_monitor.sv(188) @ 225: uvm_test_top.env_h.mst_agt_top.mst_agt_h[0].mst_mon_h [MST_MONITOR] printing from master monitor collect_raddr 
 -------------------------------------
Name       Type      Size  Value     
-------------------------------------
xtn3       axi_xtn   -     @1234     
  AWID     integral  4     'd0       
  AWADDR   integral  32    'h0       
  AWLEN    integral  4     'd0       
  AWSIZE   integral  3     'd0       
  AWBURST  integral  2     'd0       
  WID      integral  4     'd0       
  BID      integral  4     'd0       
  BRESP    integral  2     'd0       
  ARID     integral  4     10        
  ARADDR   integral  32    'h870f4684
  ARLEN    integral  8     'd12      
  ARSIZE   integral  3     'd2       
  ARBURST  integral  2     'd0       
  RID      integral  4     'd0       
-------------------------------------

UVM_INFO ../slave_agent_top/slave_monitor.sv(184) @ 225: uvm_test_top.env_h.slv_agt_top.slv_agt_h[0].slv_mon_h [slv_monitor] printing from slave monitor collect_raddr 
 -------------------------------------
Name       Type      Size  Value     
-------------------------------------
xtn3       axi_xtn   -     @1238     
  AWID     integral  4     'd0       
  AWADDR   integral  32    'h0       
  AWLEN    integral  4     'd0       
  AWSIZE   integral  3     'd0       
  AWBURST  integral  2     'd0       
  WID      integral  4     'd0       
  BID      integral  4     'd0       
  BRESP    integral  2     'd0       
  ARID     integral  4     10        
  ARADDR   integral  32    'h870f4684
  ARLEN    integral  8     'd12      
  ARSIZE   integral  3     'd2       
  ARBURST  integral  2     'd0       
  RID      integral  4     'd0       
-------------------------------------

start of drive_raddr
end of read_awaddr
start of read_awaddr
slave driver start of awvalid
WSTRB in slave driver is:1
value inside mem is: 0000004f
end of slave_raddr
start of slave_raddr
end of drive_awaddr
-----------------------------------------------------------------------------------------------------------
Name                           Type      Size  Value                                                       
-----------------------------------------------------------------------------------------------------------
req                            axi_xtn   -     @1270                                                       
  begin_time                   time      64    205                                                         
  depth                        int       32    'd2                                                         
  parent sequence (name)       string    5     m_seq                                                       
  parent sequence (full name)  string    60    uvm_test_top.env_h.mst_agt_top.mst_agt_h[0].mst_seqr_h.m_seq
  sequencer                    string    54    uvm_test_top.env_h.mst_agt_top.mst_agt_h[0].mst_seqr_h      
  AWID                         integral  4     'd4                                                         
  AWADDR                       integral  32    'h9c43c190                                                  
  AWLEN                        integral  4     'd0                                                         
  AWSIZE                       integral  3     'd2                                                         
  AWBURST                      integral  2     'd0                                                         
  WID                          integral  4     'd4                                                         
  WDATA                        integral  32    'h49efddd3                                                  
  WSTRB                        integral  4     'b1111                                                      
  WLAST                        integral  1     'dX                                                         
  WDATA                        integral  32    'hd0f907ef                                                  
  WSTRB                        integral  4     'b1111                                                      
  WLAST                        integral  1     'dX                                                         
  WDATA                        integral  32    'hf1317054                                                  
  WSTRB                        integral  4     'b1111                                                      
  WLAST                        integral  1     'dX                                                         
  WDATA                        integral  32    'h137733f6                                                  
  WSTRB                        integral  4     'b1111                                                      
  WLAST                        integral  1     'dX                                                         
  WDATA                        integral  32    'he0e10c29                                                  
  WSTRB                        integral  4     'b1111                                                      
  WLAST                        integral  1     'dX                                                         
  WDATA                        integral  32    'h1caca2d2                                                  
  WSTRB                        integral  4     'b1111                                                      
  WLAST                        integral  1     'dX                                                         
  WDATA                        integral  32    'h91facc68                                                  
  WSTRB                        integral  4     'b1111                                                      
  WLAST                        integral  1     'dX                                                         
  WDATA                        integral  32    'h1f8d29aa                                                  
  WSTRB                        integral  4     'b1111                                                      
  WLAST                        integral  1     'dX                                                         
  WDATA                        integral  32    'h436dc1e0                                                  
  WSTRB                        integral  4     'b1111                                                      
  WLAST                        integral  1     'dX                                                         
  WDATA                        integral  32    'h374ff156                                                  
  WSTRB                        integral  4     'b1111                                                      
  WLAST                        integral  1     'dX                                                         
  WDATA                        integral  32    'hcd332180                                                  
  WSTRB                        integral  4     'b1111                                                      
  WLAST                        integral  1     'dX                                                         
  WDATA                        integral  32    'hbb5c8d8c                                                  
  WSTRB                        integral  4     'b1111                                                      
  WLAST                        integral  1     'dX                                                         
  WDATA                        integral  32    'h7ce4de47                                                  
  WSTRB                        integral  4     'b1111                                                      
  WLAST                        integral  1     'dX                                                         
  WDATA                        integral  32    'h2d7ad75a                                                  
  WSTRB                        integral  4     'b1111                                                      
  WLAST                        integral  1     'dX                                                         
  WDATA                        integral  32    'h9e456e80                                                  
  WSTRB                        integral  4     'b1111                                                      
  WLAST                        integral  1     'dX                                                         
  WDATA                        integral  32    'hb092907c                                                  
  WSTRB                        integral  4     'b1111                                                      
  WLAST                        integral  1     'dX                                                         
  WDATA                        integral  32    'hcc0c585f                                                  
  WSTRB                        integral  4     'b1111                                                      
  WLAST                        integral  1     'dX                                                         
  BID                          integral  4     'd4                                                         
  BRESP                        integral  2     'd0                                                         
  ARID                         integral  4     'd7                                                         
  ARADDR                       integral  32    'h225e2d14                                                  
  ARLEN                        integral  8     'd15                                                        
  ARSIZE                       integral  3     'd0                                                         
  ARBURST                      integral  2     'd0                                                         
  RID                          integral  4     'd7                                                         
  RDATA                        integral  32    'hd31f38cc                                                  
  RRESP                        integral  2     'd0                                                         
  RDATA                        integral  32    'h7678c898                                                  
  RRESP                        integral  2     'd0                                                         
  RDATA                        integral  32    'h9e561f3b                                                  
  RRESP                        integral  2     'd0                                                         
  RDATA                        integral  32    'h53fc8301                                                  
  RRESP                        integral  2     'd0                                                         
  RDATA                        integral  32    'h2b5780f1                                                  
  RRESP                        integral  2     'd0                                                         
  RDATA                        integral  32    'hed16da6                                                   
  RRESP                        integral  2     'd0                                                         
  RDATA                        integral  32    'h7d278398                                                  
  RRESP                        integral  2     'd0                                                         
  RDATA                        integral  32    'h6ed536d5                                                  
  RRESP                        integral  2     'd0                                                         
  RDATA                        integral  32    'h3c6aef49                                                  
  RRESP                        integral  2     'd0                                                         
  RDATA                        integral  32    'h8a2c368a                                                  
  RRESP                        integral  2     'd0                                                         
  RDATA                        integral  32    'h1f495616                                                  
  RRESP                        integral  2     'd0                                                         
  RDATA                        integral  32    'h21ec553                                                   
  RRESP                        integral  2     'd0                                                         
  RDATA                        integral  32    'ha21d7b8b                                                  
  RRESP                        integral  2     'd0                                                         
  RDATA                        integral  32    'h25e3eb3a                                                  
  RRESP                        integral  2     'd0                                                         
  RDATA                        integral  32    'hbe5f2ca5                                                  
  RRESP                        integral  2     'd0                                                         
  RDATA                        integral  32    'h7cd60270                                                  
  RRESP                        integral  2     'd0                                                         
-----------------------------------------------------------------------------------------------------------
start of drive_awaddr
UVM_INFO ../master_agent_top/master_monitor.sv(111) @ 265: uvm_test_top.env_h.mst_agt_top.mst_agt_h[0].mst_mon_h [MST_MONITOR] printing from master monitor collect_awaddr 
 -------------------------------------
Name       Type      Size  Value     
-------------------------------------
xtn        axi_xtn   -     @1274     
  AWID     integral  4     'd3       
  AWADDR   integral  32    'h92da77e8
  AWLEN    integral  4     'd3       
  AWSIZE   integral  3     'd2       
  AWBURST  integral  2     'd0       
  WID      integral  4     'd0       
  BID      integral  4     'd0       
  BRESP    integral  2     'd0       
  ARID     integral  4     'd0       
  ARADDR   integral  32    'h0       
  ARLEN    integral  8     'd0       
  ARSIZE   integral  3     'd0       
  ARBURST  integral  2     'd0       
  RID      integral  4     'd0       
-------------------------------------

UVM_INFO ../slave_agent_top/slave_monitor.sv(110) @ 265: uvm_test_top.env_h.slv_agt_top.slv_agt_h[0].slv_mon_h [slv_monitor] printing from slave monitor collect_awaddr 
 -------------------------------------
Name       Type      Size  Value     
-------------------------------------
xtn        axi_xtn   -     @1278     
  AWID     integral  4     'd3       
  AWADDR   integral  32    'h92da77e8
  AWLEN    integral  4     'd3       
  AWSIZE   integral  3     'd2       
  AWBURST  integral  2     'd0       
  WID      integral  4     'd0       
  BID      integral  4     'd0       
  BRESP    integral  2     'd0       
  ARID     integral  4     'd0       
  ARADDR   integral  32    'h0       
  ARLEN    integral  8     'd0       
  ARSIZE   integral  3     'd0       
  ARBURST  integral  2     'd0       
  RID      integral  4     'd0       
-------------------------------------

end of drive_awaddr
-----------------------------------------------------------------------------------------------------------
Name                           Type      Size  Value                                                       
-----------------------------------------------------------------------------------------------------------
req                            axi_xtn   -     @1298                                                       
  begin_time                   time      64    245                                                         
  depth                        int       32    'd2                                                         
  parent sequence (name)       string    5     m_seq                                                       
  parent sequence (full name)  string    60    uvm_test_top.env_h.mst_agt_top.mst_agt_h[0].mst_seqr_h.m_seq
  sequencer                    string    54    uvm_test_top.env_h.mst_agt_top.mst_agt_h[0].mst_seqr_h      
  AWID                         integral  4     'd3                                                         
  AWADDR                       integral  32    'h92da77e8                                                  
  AWLEN                        integral  4     'd3                                                         
  AWSIZE                       integral  3     'd2                                                         
  AWBURST                      integral  2     'd0                                                         
  WID                          integral  4     'd3                                                         
  WDATA                        integral  32    'hac972faa                                                  
  WSTRB                        integral  4     'b1111                                                      
  WLAST                        integral  1     'dX                                                         
  WDATA                        integral  32    'h830623bf                                                  
  WSTRB                        integral  4     'b1111                                                      
  WLAST                        integral  1     'dX                                                         
  WDATA                        integral  32    'hba95221                                                   
  WSTRB                        integral  4     'b1111                                                      
  WLAST                        integral  1     'dX                                                         
  WDATA                        integral  32    'hf4fd99ef                                                  
  WSTRB                        integral  4     'b1111                                                      
  WLAST                        integral  1     'dX                                                         
  BID                          integral  4     'd3                                                         
  BRESP                        integral  2     'd0                                                         
  ARID                         integral  4     'd4                                                         
  ARADDR                       integral  32    'h417d9aa4                                                  
  ARLEN                        integral  8     'd15                                                        
  ARSIZE                       integral  3     'd2                                                         
  ARBURST                      integral  2     'd0                                                         
  RID                          integral  4     'd4                                                         
  RDATA                        integral  32    'h5fed9e46                                                  
  RRESP                        integral  2     'd0                                                         
  RDATA                        integral  32    'h4ef7ed3e                                                  
  RRESP                        integral  2     'd0                                                         
  RDATA                        integral  32    'h9e8e980b                                                  
  RRESP                        integral  2     'd0                                                         
  RDATA                        integral  32    'he0d3a08e                                                  
  RRESP                        integral  2     'd0                                                         
  RDATA                        integral  32    'h9ae932d0                                                  
  RRESP                        integral  2     'd0                                                         
  RDATA                        integral  32    'ha2f98182                                                  
  RRESP                        integral  2     'd0                                                         
  RDATA                        integral  32    'h3ffd10fe                                                  
  RRESP                        integral  2     'd0                                                         
  RDATA                        integral  32    'h3dc45f0                                                   
  RRESP                        integral  2     'd0                                                         
  RDATA                        integral  32    'hbdab2612                                                  
  RRESP                        integral  2     'd0                                                         
  RDATA                        integral  32    'h642d3d16                                                  
  RRESP                        integral  2     'd0                                                         
  RDATA                        integral  32    'hdeaa3959                                                  
  RRESP                        integral  2     'd0                                                         
  RDATA                        integral  32    'h9f5c0584                                                  
  RRESP                        integral  2     'd0                                                         
  RDATA                        integral  32    'hdac470d9                                                  
  RRESP                        integral  2     'd0                                                         
  RDATA                        integral  32    'h547c3353                                                  
  RRESP                        integral  2     'd0                                                         
  RDATA                        integral  32    'he4c25cf                                                   
  RRESP                        integral  2     'd0                                                         
  RDATA                        integral  32    'he75d0649                                                  
  RRESP                        integral  2     'd0                                                         
-----------------------------------------------------------------------------------------------------------
start of drive_awaddr
UVM_INFO ../master_agent_top/master_monitor.sv(111) @ 285: uvm_test_top.env_h.mst_agt_top.mst_agt_h[0].mst_mon_h [MST_MONITOR] printing from master monitor collect_awaddr 
 -------------------------------------
Name       Type      Size  Value     
-------------------------------------
xtn        axi_xtn   -     @1302     
  AWID     integral  4     12        
  AWADDR   integral  32    'ha4831593
  AWLEN    integral  4     'd1       
  AWSIZE   integral  3     'd0       
  AWBURST  integral  2     'd0       
  WID      integral  4     'd0       
  BID      integral  4     'd0       
  BRESP    integral  2     'd0       
  ARID     integral  4     'd0       
  ARADDR   integral  32    'h0       
  ARLEN    integral  8     'd0       
  ARSIZE   integral  3     'd0       
  ARBURST  integral  2     'd0       
  RID      integral  4     'd0       
-------------------------------------

UVM_INFO ../slave_agent_top/slave_monitor.sv(110) @ 285: uvm_test_top.env_h.slv_agt_top.slv_agt_h[0].slv_mon_h [slv_monitor] printing from slave monitor collect_awaddr 
 -------------------------------------
Name       Type      Size  Value     
-------------------------------------
xtn        axi_xtn   -     @1306     
  AWID     integral  4     12        
  AWADDR   integral  32    'ha4831593
  AWLEN    integral  4     'd1       
  AWSIZE   integral  3     'd0       
  AWBURST  integral  2     'd0       
  WID      integral  4     'd0       
  BID      integral  4     'd0       
  BRESP    integral  2     'd0       
  ARID     integral  4     'd0       
  ARADDR   integral  32    'h0       
  ARLEN    integral  8     'd0       
  ARSIZE   integral  3     'd0       
  ARBURST  integral  2     'd0       
  RID      integral  4     'd0       
-------------------------------------

inside drive_raddr before wait ARREADY
UVM_INFO ../master_agent_top/master_monitor.sv(188) @ 295: uvm_test_top.env_h.mst_agt_top.mst_agt_h[0].mst_mon_h [MST_MONITOR] printing from master monitor collect_raddr 
 -------------------------------------
Name       Type      Size  Value     
-------------------------------------
xtn3       axi_xtn   -     @1282     
  AWID     integral  4     'd0       
  AWADDR   integral  32    'h0       
  AWLEN    integral  4     'd0       
  AWSIZE   integral  3     'd0       
  AWBURST  integral  2     'd0       
  WID      integral  4     'd0       
  BID      integral  4     'd0       
  BRESP    integral  2     'd0       
  ARID     integral  4     'd7       
  ARADDR   integral  32    'h225e2d14
  ARLEN    integral  8     'd15      
  ARSIZE   integral  3     'd0       
  ARBURST  integral  2     'd0       
  RID      integral  4     'd0       
-------------------------------------

end of read_awaddr
start of read_awaddr
slave driver start of awvalid
WSTRB in slave driver is:1
value inside mem is: 0000003c
end of slave_raddr
UVM_INFO ../slave_agent_top/slave_monitor.sv(184) @ 295: uvm_test_top.env_h.slv_agt_top.slv_agt_h[0].slv_mon_h [slv_monitor] printing from slave monitor collect_raddr 
 -------------------------------------
Name       Type      Size  Value     
-------------------------------------
xtn3       axi_xtn   -     @1286     
  AWID     integral  4     'd0       
  AWADDR   integral  32    'h0       
  AWLEN    integral  4     'd0       
  AWSIZE   integral  3     'd0       
  AWBURST  integral  2     'd0       
  WID      integral  4     'd0       
  BID      integral  4     'd0       
  BRESP    integral  2     'd0       
  ARID     integral  4     'd7       
  ARADDR   integral  32    'h225e2d14
  ARLEN    integral  8     'd15      
  ARSIZE   integral  3     'd0       
  ARBURST  integral  2     'd0       
  RID      integral  4     'd0       
-------------------------------------

start of slave_raddr
end of drive_awaddr
-----------------------------------------------------------------------------------------------------------
Name                           Type      Size  Value                                                       
-----------------------------------------------------------------------------------------------------------
req                            axi_xtn   -     @1310                                                       
  begin_time                   time      64    275                                                         
  depth                        int       32    'd2                                                         
  parent sequence (name)       string    5     m_seq                                                       
  parent sequence (full name)  string    60    uvm_test_top.env_h.mst_agt_top.mst_agt_h[0].mst_seqr_h.m_seq
  sequencer                    string    54    uvm_test_top.env_h.mst_agt_top.mst_agt_h[0].mst_seqr_h      
  AWID                         integral  4     12                                                          
  AWADDR                       integral  32    'ha4831593                                                  
  AWLEN                        integral  4     'd1                                                         
  AWSIZE                       integral  3     'd0                                                         
  AWBURST                      integral  2     'd0                                                         
  WID                          integral  4     12                                                          
  WDATA                        integral  32    'hf9779fb1                                                  
  WSTRB                        integral  4     'b0                                                         
  WLAST                        integral  1     'dX                                                         
  WDATA                        integral  32    'h533e2005                                                  
  WSTRB                        integral  4     'b1000                                                      
  WLAST                        integral  1     'dX                                                         
  WDATA                        integral  32    'hf369c36e                                                  
  WSTRB                        integral  4     'b1000                                                      
  WLAST                        integral  1     'dX                                                         
  WDATA                        integral  32    'h5e5da1c2                                                  
  WSTRB                        integral  4     'b1000                                                      
  WLAST                        integral  1     'dX                                                         
  WDATA                        integral  32    'h2bce3eb1                                                  
  WSTRB                        integral  4     'b1000                                                      
  WLAST                        integral  1     'dX                                                         
  WDATA                        integral  32    'hd4625d27                                                  
  WSTRB                        integral  4     'b1000                                                      
  WLAST                        integral  1     'dX                                                         
  WDATA                        integral  32    'h9af8353c                                                  
  WSTRB                        integral  4     'b1000                                                      
  WLAST                        integral  1     'dX                                                         
  WDATA                        integral  32    'haeb3efa0                                                  
  WSTRB                        integral  4     'b1000                                                      
  WLAST                        integral  1     'dX                                                         
  WDATA                        integral  32    'h22fc688                                                   
  WSTRB                        integral  4     'b1000                                                      
  WLAST                        integral  1     'dX                                                         
  WDATA                        integral  32    'h2a38fda                                                   
  WSTRB                        integral  4     'b1000                                                      
  WLAST                        integral  1     'dX                                                         
  WDATA                        integral  32    'he1a05ed6                                                  
  WSTRB                        integral  4     'b1000                                                      
  WLAST                        integral  1     'dX                                                         
  WDATA                        integral  32    'h2dae802b                                                  
  WSTRB                        integral  4     'b1000                                                      
  WLAST                        integral  1     'dX                                                         
  WDATA                        integral  32    'h682e3cb0                                                  
  WSTRB                        integral  4     'b1000                                                      
  WLAST                        integral  1     'dX                                                         
  WDATA                        integral  32    'he8a4f832                                                  
  WSTRB                        integral  4     'b1000                                                      
  WLAST                        integral  1     'dX                                                         
  WDATA                        integral  32    'h2e9d1dd3                                                  
  WSTRB                        integral  4     'b1000                                                      
  WLAST                        integral  1     'dX                                                         
  WDATA                        integral  32    'hf146ba08                                                  
  WSTRB                        integral  4     'b1000                                                      
  WLAST                        integral  1     'dX                                                         
  WDATA                        integral  32    'h6fd9b507                                                  
  WSTRB                        integral  4     'b1000                                                      
  WLAST                        integral  1     'dX                                                         
  WDATA                        integral  32    'ha9e2e71a                                                  
  WSTRB                        integral  4     'b1000                                                      
  WLAST                        integral  1     'dX                                                         
  BID                          integral  4     12                                                          
  BRESP                        integral  2     'd0                                                         
  ARID                         integral  4     10                                                          
  ARADDR                       integral  32    'h154a3035                                                  
  ARLEN                        integral  8     'd7                                                         
  ARSIZE                       integral  3     'd0                                                         
  ARBURST                      integral  2     'd0                                                         
  RID                          integral  4     10                                                          
  RDATA                        integral  32    'hadeae2f6                                                  
  RRESP                        integral  2     'd0                                                         
  RDATA                        integral  32    'h85353797                                                  
  RRESP                        integral  2     'd0                                                         
  RDATA                        integral  32    'h8eec8ac6                                                  
  RRESP                        integral  2     'd0                                                         
  RDATA                        integral  32    'h2991202d                                                  
  RRESP                        integral  2     'd0                                                         
  RDATA                        integral  32    'hebcbdfd                                                   
  RRESP                        integral  2     'd0                                                         
  RDATA                        integral  32    'hecbf5cf5                                                  
  RRESP                        integral  2     'd0                                                         
  RDATA                        integral  32    'h5f2f8f6e                                                  
  RRESP                        integral  2     'd0                                                         
  RDATA                        integral  32    'h84964df6                                                  
  RRESP                        integral  2     'd0                                                         
-----------------------------------------------------------------------------------------------------------
start of drive_awaddr
UVM_INFO ../master_agent_top/master_monitor.sv(111) @ 315: uvm_test_top.env_h.mst_agt_top.mst_agt_h[0].mst_mon_h [MST_MONITOR] printing from master monitor collect_awaddr 
 -------------------------------------
Name       Type      Size  Value     
-------------------------------------
xtn        axi_xtn   -     @1314     
  AWID     integral  4     12        
  AWADDR   integral  32    'h1ed27bf3
  AWLEN    integral  4     'd0       
  AWSIZE   integral  3     'd0       
  AWBURST  integral  2     'd0       
  WID      integral  4     'd0       
  BID      integral  4     'd0       
  BRESP    integral  2     'd0       
  ARID     integral  4     'd0       
  ARADDR   integral  32    'h0       
  ARLEN    integral  8     'd0       
  ARSIZE   integral  3     'd0       
  ARBURST  integral  2     'd0       
  RID      integral  4     'd0       
-------------------------------------

UVM_INFO ../slave_agent_top/slave_monitor.sv(110) @ 315: uvm_test_top.env_h.slv_agt_top.slv_agt_h[0].slv_mon_h [slv_monitor] printing from slave monitor collect_awaddr 
 -------------------------------------
Name       Type      Size  Value     
-------------------------------------
xtn        axi_xtn   -     @1322     
  AWID     integral  4     12        
  AWADDR   integral  32    'h1ed27bf3
  AWLEN    integral  4     'd0       
  AWSIZE   integral  3     'd0       
  AWBURST  integral  2     'd0       
  WID      integral  4     'd0       
  BID      integral  4     'd0       
  BRESP    integral  2     'd0       
  ARID     integral  4     'd0       
  ARADDR   integral  32    'h0       
  ARLEN    integral  8     'd0       
  ARSIZE   integral  3     'd0       
  ARBURST  integral  2     'd0       
  RID      integral  4     'd0       
-------------------------------------

end of drive_raddr
start of drive_raddr
slave driver start of awvalid
WSTRB in slave driver is:1
value inside mem is: 00000046
end of drive_awaddr
-----------------------------------------------------------------------------------------------------------
Name                           Type      Size  Value                                                       
-----------------------------------------------------------------------------------------------------------
req                            axi_xtn   -     @1338                                                       
  begin_time                   time      64    305                                                         
  depth                        int       32    'd2                                                         
  parent sequence (name)       string    5     m_seq                                                       
  parent sequence (full name)  string    60    uvm_test_top.env_h.mst_agt_top.mst_agt_h[0].mst_seqr_h.m_seq
  sequencer                    string    54    uvm_test_top.env_h.mst_agt_top.mst_agt_h[0].mst_seqr_h      
  AWID                         integral  4     12                                                          
  AWADDR                       integral  32    'h1ed27bf3                                                  
  AWLEN                        integral  4     'd0                                                         
  AWSIZE                       integral  3     'd0                                                         
  AWBURST                      integral  2     'd0                                                         
  WID                          integral  4     12                                                          
  WDATA                        integral  32    'h165154af                                                  
  WSTRB                        integral  4     'b1000                                                      
  WLAST                        integral  1     'dX                                                         
  WDATA                        integral  32    'h8b22dc93                                                  
  WSTRB                        integral  4     'b1000                                                      
  WLAST                        integral  1     'dX                                                         
  WDATA                        integral  32    'hacf2ccb8                                                  
  WSTRB                        integral  4     'b1000                                                      
  WLAST                        integral  1     'dX                                                         
  WDATA                        integral  32    'h643dcfc1                                                  
  WSTRB                        integral  4     'b1000                                                      
  WLAST                        integral  1     'dX                                                         
  WDATA                        integral  32    'h4a68cb8e                                                  
  WSTRB                        integral  4     'b1000                                                      
  WLAST                        integral  1     'dX                                                         
  WDATA                        integral  32    'hd7a8e207                                                  
  WSTRB                        integral  4     'b1000                                                      
  WLAST                        integral  1     'dX                                                         
  WDATA                        integral  32    'haee98ab1                                                  
  WSTRB                        integral  4     'b1000                                                      
  WLAST                        integral  1     'dX                                                         
  WDATA                        integral  32    'h4367048                                                   
  WSTRB                        integral  4     'b1000                                                      
  WLAST                        integral  1     'dX                                                         
  WDATA                        integral  32    'h4482c560                                                  
  WSTRB                        integral  4     'b1000                                                      
  WLAST                        integral  1     'dX                                                         
  WDATA                        integral  32    'hc7542ce9                                                  
  WSTRB                        integral  4     'b1000                                                      
  WLAST                        integral  1     'dX                                                         
  WDATA                        integral  32    'hcfdb8926                                                  
  WSTRB                        integral  4     'b1000                                                      
  WLAST                        integral  1     'dX                                                         
  WDATA                        integral  32    'h7cf26ed1                                                  
  WSTRB                        integral  4     'b1000                                                      
  WLAST                        integral  1     'dX                                                         
  WDATA                        integral  32    'h74ef29db                                                  
  WSTRB                        integral  4     'b1000                                                      
  WLAST                        integral  1     'dX                                                         
  WDATA                        integral  32    'hd984dddb                                                  
  WSTRB                        integral  4     'b1000                                                      
  WLAST                        integral  1     'dX                                                         
  WDATA                        integral  32    'hbf676cc6                                                  
  WSTRB                        integral  4     'b1000                                                      
  WLAST                        integral  1     'dX                                                         
  WDATA                        integral  32    'h70989673                                                  
  WSTRB                        integral  4     'b1000                                                      
  WLAST                        integral  1     'dX                                                         
  WDATA                        integral  32    'hd7f9e5ee                                                  
  WSTRB                        integral  4     'b1000                                                      
  WLAST                        integral  1     'dX                                                         
  BID                          integral  4     12                                                          
  BRESP                        integral  2     'd0                                                         
  ARID                         integral  4     11                                                          
  ARADDR                       integral  32    'h80387ed4                                                  
  ARLEN                        integral  8     'd2                                                         
  ARSIZE                       integral  3     'd2                                                         
  ARBURST                      integral  2     'd0                                                         
  RID                          integral  4     11                                                          
  RDATA                        integral  32    'h97cc7bdb                                                  
  RRESP                        integral  2     'd0                                                         
  RDATA                        integral  32    'h9e5b4c36                                                  
  RRESP                        integral  2     'd0                                                         
  RDATA                        integral  32    'hceaaa2b4                                                  
  RRESP                        integral  2     'd0                                                         
-----------------------------------------------------------------------------------------------------------
end of read_awaddr
start of read_awaddr
start of drive_awaddr
slave driver start of awvalid
WSTRB in slave driver is:1
value inside mem is: 000000fc
UVM_INFO ../master_agent_top/master_monitor.sv(111) @ 385: uvm_test_top.env_h.mst_agt_top.mst_agt_h[0].mst_mon_h [MST_MONITOR] printing from master monitor collect_awaddr 
 -------------------------------------
Name       Type      Size  Value     
-------------------------------------
xtn        axi_xtn   -     @1342     
  AWID     integral  4     11        
  AWADDR   integral  32    'h78f57028
  AWLEN    integral  4     15        
  AWSIZE   integral  3     'd2       
  AWBURST  integral  2     'd0       
  WID      integral  4     'd0       
  BID      integral  4     'd0       
  BRESP    integral  2     'd0       
  ARID     integral  4     'd0       
  ARADDR   integral  32    'h0       
  ARLEN    integral  8     'd0       
  ARSIZE   integral  3     'd0       
  ARBURST  integral  2     'd0       
  RID      integral  4     'd0       
-------------------------------------

UVM_INFO ../slave_agent_top/slave_monitor.sv(110) @ 385: uvm_test_top.env_h.slv_agt_top.slv_agt_h[0].slv_mon_h [slv_monitor] printing from slave monitor collect_awaddr 
 -------------------------------------
Name       Type      Size  Value     
-------------------------------------
xtn        axi_xtn   -     @1346     
  AWID     integral  4     11        
  AWADDR   integral  32    'h78f57028
  AWLEN    integral  4     15        
  AWSIZE   integral  3     'd2       
  AWBURST  integral  2     'd0       
  WID      integral  4     'd0       
  BID      integral  4     'd0       
  BRESP    integral  2     'd0       
  ARID     integral  4     'd0       
  ARADDR   integral  32    'h0       
  ARLEN    integral  8     'd0       
  ARSIZE   integral  3     'd0       
  ARBURST  integral  2     'd0       
  RID      integral  4     'd0       
-------------------------------------

inside drive_raddr before wait ARREADY
UVM_INFO ../master_agent_top/master_monitor.sv(188) @ 395: uvm_test_top.env_h.mst_agt_top.mst_agt_h[0].mst_mon_h [MST_MONITOR] printing from master monitor collect_raddr 
 -------------------------------------
Name       Type      Size  Value     
-------------------------------------
xtn3       axi_xtn   -     @1326     
  AWID     integral  4     'd0       
  AWADDR   integral  32    'h0       
  AWLEN    integral  4     'd0       
  AWSIZE   integral  3     'd0       
  AWBURST  integral  2     'd0       
  WID      integral  4     'd0       
  BID      integral  4     'd0       
  BRESP    integral  2     'd0       
  ARID     integral  4     'd4       
  ARADDR   integral  32    'h417d9aa4
  ARLEN    integral  8     'd15      
  ARSIZE   integral  3     'd2       
  ARBURST  integral  2     'd0       
  RID      integral  4     'd0       
-------------------------------------

end of read_awaddr
start of read_awaddr
end of slave_raddr
UVM_INFO ../slave_agent_top/slave_monitor.sv(184) @ 395: uvm_test_top.env_h.slv_agt_top.slv_agt_h[0].slv_mon_h [slv_monitor] printing from slave monitor collect_raddr 
 -------------------------------------
Name       Type      Size  Value     
-------------------------------------
xtn3       axi_xtn   -     @1334     
  AWID     integral  4     'd0       
  AWADDR   integral  32    'h0       
  AWLEN    integral  4     'd0       
  AWSIZE   integral  3     'd0       
  AWBURST  integral  2     'd0       
  WID      integral  4     'd0       
  BID      integral  4     'd0       
  BRESP    integral  2     'd0       
  ARID     integral  4     'd4       
  ARADDR   integral  32    'h417d9aa4
  ARLEN    integral  8     'd15      
  ARSIZE   integral  3     'd2       
  ARBURST  integral  2     'd0       
  RID      integral  4     'd0       
-------------------------------------

start of slave_raddr
slave driver start of awvalid
WSTRB in slave driver is:1
value inside mem is: 00000054
end of drive_raddr
end of drive_awaddr
-----------------------------------------------------------------------------------------------------------
Name                           Type      Size  Value                                                       
-----------------------------------------------------------------------------------------------------------
req                            axi_xtn   -     @1354                                                       
  begin_time                   time      64    355                                                         
  depth                        int       32    'd2                                                         
  parent sequence (name)       string    5     m_seq                                                       
  parent sequence (full name)  string    60    uvm_test_top.env_h.mst_agt_top.mst_agt_h[0].mst_seqr_h.m_seq
  sequencer                    string    54    uvm_test_top.env_h.mst_agt_top.mst_agt_h[0].mst_seqr_h      
  AWID                         integral  4     11                                                          
  AWADDR                       integral  32    'h78f57028                                                  
  AWLEN                        integral  4     15                                                          
  AWSIZE                       integral  3     'd2                                                         
  AWBURST                      integral  2     'd0                                                         
  WID                          integral  4     11                                                          
  WDATA                        integral  32    'h43162284                                                  
  WSTRB                        integral  4     'b1111                                                      
  WLAST                        integral  1     'dX                                                         
  WDATA                        integral  32    'h8caf187                                                   
  WSTRB                        integral  4     'b1111                                                      
  WLAST                        integral  1     'dX                                                         
  WDATA                        integral  32    'h919be1cc                                                  
  WSTRB                        integral  4     'b1111                                                      
  WLAST                        integral  1     'dX                                                         
  WDATA                        integral  32    'h1d4d4567                                                  
  WSTRB                        integral  4     'b1111                                                      
  WLAST                        integral  1     'dX                                                         
  WDATA                        integral  32    'ha86b5ca9                                                  
  WSTRB                        integral  4     'b1111                                                      
  WLAST                        integral  1     'dX                                                         
  WDATA                        integral  32    'h5d18985e                                                  
  WSTRB                        integral  4     'b1111                                                      
  WLAST                        integral  1     'dX                                                         
  WDATA                        integral  32    'he6cc9d77                                                  
  WSTRB                        integral  4     'b1111                                                      
  WLAST                        integral  1     'dX                                                         
  WDATA                        integral  32    'hb9aa52ac                                                  
  WSTRB                        integral  4     'b1111                                                      
  WLAST                        integral  1     'dX                                                         
  WDATA                        integral  32    'h4b099c98                                                  
  WSTRB                        integral  4     'b1111                                                      
  WLAST                        integral  1     'dX                                                         
  WDATA                        integral  32    'hafb38fca                                                  
  WSTRB                        integral  4     'b1111                                                      
  WLAST                        integral  1     'dX                                                         
  WDATA                        integral  32    'h36dde4ca                                                  
  WSTRB                        integral  4     'b1111                                                      
  WLAST                        integral  1     'dX                                                         
  WDATA                        integral  32    'h5444e95e                                                  
  WSTRB                        integral  4     'b1111                                                      
  WLAST                        integral  1     'dX                                                         
  WDATA                        integral  32    'haec38d4d                                                  
  WSTRB                        integral  4     'b1111                                                      
  WLAST                        integral  1     'dX                                                         
  WDATA                        integral  32    'ha34b5251                                                  
  WSTRB                        integral  4     'b1111                                                      
  WLAST                        integral  1     'dX                                                         
  WDATA                        integral  32    'hb37cc420                                                  
  WSTRB                        integral  4     'b1111                                                      
  WLAST                        integral  1     'dX                                                         
  WDATA                        integral  32    'h23aa02f6                                                  
