vsim -vopt -voptargs="+acc" -coverage -sva -c -do " log -r /* ;coverage save -onexit mem_cov2;run -all; exit" -wlf wave_file2.wlf -l test2.log -sv_seed random work.top "+UVM_OBJECTION_TRACE" "+UVM_TESTNAME=incr_seq_test" 
Start time: 23:32:32 on Jan 06,2024
** Note: (vsim-8009) Loading existing optimized design _opt1
//  Questa Sim-64
//  Version 2019.2 linux_x86_64 Apr 16 2019
//
//  Copyright 1991-2019 Mentor Graphics Corporation
//  All Rights Reserved.
//
//  QuestaSim and its associated documentation contain trade
//  secrets and commercial or financial information that are the property of
//  Mentor Graphics Corporation and are privileged, confidential,
//  and exempt from disclosure under the Freedom of Information Act,
//  5 U.S.C. Section 552. Furthermore, this information
//  is prohibited from disclosure under the Trade Secrets Act,
//  18 U.S.C. Section 1905.
//
Loading sv_std.std
Loading work.axi_if(fast)
Loading mtiUvm.uvm_pkg
Loading work.axi_test_pkg(fast)
Loading mtiUvm.questa_uvm_pkg(fast)
Loading work.top(fast)
Loading work.axi_if(fast)
# Loading /home/cad/eda/Questa_2019/questasim/uvm-1.1d/linux_x86_64/uvm_dpi.so
** Warning: (vsim-8634) Code was not compiled with coverage options.
Sv_Seed = 288479840
 log -r /* 
coverage save -onexit mem_cov2
run -all
----------------------------------------------------------------
UVM-1.1d
(C) 2007-2013 Mentor Graphics Corporation
(C) 2007-2013 Cadence Design Systems, Inc.
(C) 2006-2013 Synopsys, Inc.
(C) 2011-2013 Cypress Semiconductor Corp.
----------------------------------------------------------------

  ***********       IMPORTANT RELEASE NOTES         ************

  You are using a version of the UVM library that has been compiled
  with `UVM_NO_DEPRECATED undefined.
  See http://www.eda.org/svdb/view.php?id=3313 for more details.

  You are using a version of the UVM library that has been compiled
  with `UVM_OBJECT_MUST_HAVE_CONSTRUCTOR undefined.
  See http://www.eda.org/svdb/view.php?id=3770 for more details.

      (Specify +UVM_NO_RELNOTES to turn off this notice)

UVM_INFO verilog_src/questa_uvm_pkg-1.2/src/questa_uvm_pkg.sv(277) @ 0: reporter [Questa UVM] QUESTA_UVM-1.2.3
UVM_INFO verilog_src/questa_uvm_pkg-1.2/src/questa_uvm_pkg.sv(278) @ 0: reporter [Questa UVM]  questa_uvm::init(+struct)
UVM_INFO @ 0: reporter [RNTST] Running test incr_seq_test...
UVM_INFO @ 0: run [OBJTN_TRC] Object uvm_test_top raised 1 objection(s): count=1  total=1
UVM_INFO @ 0: run [OBJTN_TRC] Object uvm_top added 1 objection(s) to its total (raised from source object uvm_test_top): count=0  total=1
start of read_awaddr
start of slave_raddr
start of drive_awaddr
start of drive_raddr
UVM_INFO ../master_agent_top/master_monitor.sv(111) @ 15: uvm_test_top.env_h.mst_agt_top.mst_agt_h[0].mst_mon_h [MST_MONITOR] printing from master monitor collect_awaddr 
 -------------------------------------
Name       Type      Size  Value     
-------------------------------------
xtn        axi_xtn   -     @1099     
  AWID     integral  4     10        
  AWADDR   integral  32    'hcda65091
  AWLEN    integral  4     13        
  AWSIZE   integral  3     'd0       
  AWBURST  integral  2     'd1       
  WID      integral  4     'd0       
  BID      integral  4     'd0       
  BRESP    integral  2     'd0       
  ARID     integral  4     'd0       
  ARADDR   integral  32    'h0       
  ARLEN    integral  8     'd0       
  ARSIZE   integral  3     'd0       
  ARBURST  integral  2     'd0       
  RID      integral  4     'd0       
-------------------------------------

UVM_INFO ../slave_agent_top/slave_monitor.sv(110) @ 15: uvm_test_top.env_h.slv_agt_top.slv_agt_h[0].slv_mon_h [slv_monitor] printing from slave monitor collect_awaddr 
 -------------------------------------
Name       Type      Size  Value     
-------------------------------------
xtn        axi_xtn   -     @1081     
  AWID     integral  4     10        
  AWADDR   integral  32    'hcda65091
  AWLEN    integral  4     13        
  AWSIZE   integral  3     'd0       
  AWBURST  integral  2     'd1       
  WID      integral  4     'd0       
  BID      integral  4     'd0       
  BRESP    integral  2     'd0       
  ARID     integral  4     'd0       
  ARADDR   integral  32    'h0       
  ARLEN    integral  8     'd0       
  ARSIZE   integral  3     'd0       
  ARBURST  integral  2     'd0       
  RID      integral  4     'd0       
-------------------------------------

end of read_awaddr
start of read_awaddr
start of read_data
aligned:cda65091
addresses calculated in slave side are '{cda65091, cda65092, cda65093, cda65094, cda65095, cda65096, cda65097, cda65098, cda65099, cda6509a, cda6509b, cda6509c, cda6509d, cda6509e}
inside drive_raddr before wait ARREADY
end of drive_awaddr
-----------------------------------------------------------------------------------------------------------
Name                           Type      Size  Value                                                       
-----------------------------------------------------------------------------------------------------------
req                            axi_xtn   -     @1113                                                       
  begin_time                   time      64    0                                                           
  depth                        int       32    'd2                                                         
  parent sequence (name)       string    5     m_seq                                                       
  parent sequence (full name)  string    60    uvm_test_top.env_h.mst_agt_top.mst_agt_h[0].mst_seqr_h.m_seq
  sequencer                    string    54    uvm_test_top.env_h.mst_agt_top.mst_agt_h[0].mst_seqr_h      
  AWID                         integral  4     10                                                          
  AWADDR                       integral  32    'hcda65091                                                  
  AWLEN                        integral  4     13                                                          
  AWSIZE                       integral  3     'd0                                                         
  AWBURST                      integral  2     'd1                                                         
  WID                          integral  4     10                                                          
  WDATA                        integral  32    'h37942079                                                  
  WSTRB                        integral  4     'b0                                                         
  WLAST                        integral  1     'dX                                                         
  WDATA                        integral  32    'h5b00ab8a                                                  
  WSTRB                        integral  4     'b100                                                       
  WLAST                        integral  1     'dX                                                         
  WDATA                        integral  32    'h4590131                                                   
  WSTRB                        integral  4     'b1000                                                      
  WLAST                        integral  1     'dX                                                         
  WDATA                        integral  32    'hda5f3786                                                  
  WSTRB                        integral  4     'b1                                                         
  WLAST                        integral  1     'dX                                                         
  WDATA                        integral  32    'h45929860                                                  
  WSTRB                        integral  4     'b10                                                        
  WLAST                        integral  1     'dX                                                         
  WDATA                        integral  32    'h6ae6ea0                                                   
  WSTRB                        integral  4     'b100                                                       
  WLAST                        integral  1     'dX                                                         
  WDATA                        integral  32    'h8da677d7                                                  
  WSTRB                        integral  4     'b1000                                                      
  WLAST                        integral  1     'dX                                                         
  WDATA                        integral  32    'h8110de12                                                  
  WSTRB                        integral  4     'b1                                                         
  WLAST                        integral  1     'dX                                                         
  WDATA                        integral  32    'h8faf6f7d                                                  
  WSTRB                        integral  4     'b10                                                        
  WLAST                        integral  1     'dX                                                         
  WDATA                        integral  32    'hfa5948d5                                                  
  WSTRB                        integral  4     'b100                                                       
  WLAST                        integral  1     'dX                                                         
  WDATA                        integral  32    'hfee4d77d                                                  
  WSTRB                        integral  4     'b1000                                                      
  WLAST                        integral  1     'dX                                                         
  WDATA                        integral  32    'h69f02a0                                                   
  WSTRB                        integral  4     'b1                                                         
  WLAST                        integral  1     'dX                                                         
  WDATA                        integral  32    'h53bd95d5                                                  
  WSTRB                        integral  4     'b10                                                        
  WLAST                        integral  1     'dX                                                         
  WDATA                        integral  32    'hcc78a8eb                                                  
  WSTRB                        integral  4     'b100                                                       
  WLAST                        integral  1     'dX                                                         
  BID                          integral  4     10                                                          
  BRESP                        integral  2     'd0                                                         
  ARID                         integral  4     12                                                          
  ARADDR                       integral  32    'hdc96938d                                                  
  ARLEN                        integral  8     'd15                                                        
  ARSIZE                       integral  3     'd0                                                         
  ARBURST                      integral  2     'd1                                                         
  RID                          integral  4     12                                                          
  RDATA                        integral  32    'h6a6cf7f9                                                  
  RRESP                        integral  2     'd0                                                         
  RDATA                        integral  32    'h809f6739                                                  
  RRESP                        integral  2     'd0                                                         
  RDATA                        integral  32    'h13a6cacc                                                  
  RRESP                        integral  2     'd0                                                         
  RDATA                        integral  32    'hb9d6d1a2                                                  
  RRESP                        integral  2     'd0                                                         
  RDATA                        integral  32    'h1ee9249e                                                  
  RRESP                        integral  2     'd0                                                         
  RDATA                        integral  32    'hf9fe3145                                                  
  RRESP                        integral  2     'd0                                                         
  RDATA                        integral  32    'hf8362033                                                  
  RRESP                        integral  2     'd0                                                         
  RDATA                        integral  32    'h7b84f019                                                  
  RRESP                        integral  2     'd0                                                         
  RDATA                        integral  32    'he9248a3b                                                  
  RRESP                        integral  2     'd0                                                         
  RDATA                        integral  32    'hc6d5795c                                                  
  RRESP                        integral  2     'd0                                                         
  RDATA                        integral  32    'h94035719                                                  
  RRESP                        integral  2     'd0                                                         
  RDATA                        integral  32    'hf141693d                                                  
  RRESP                        integral  2     'd0                                                         
  RDATA                        integral  32    'hc7e6102                                                   
  RRESP                        integral  2     'd0                                                         
  RDATA                        integral  32    'ha1e6480c                                                  
  RRESP                        integral  2     'd0                                                         
  RDATA                        integral  32    'ha3a925fc                                                  
  RRESP                        integral  2     'd0                                                         
  RDATA                        integral  32    'h118378b3                                                  
  RRESP                        integral  2     'd0                                                         
-----------------------------------------------------------------------------------------------------------
end of slave_raddr
start of drive_wdata
start of slave_raddr
start of slave_rdata
start of drive_awaddr
UVM_INFO ../master_agent_top/master_monitor.sv(111) @ 65: uvm_test_top.env_h.mst_agt_top.mst_agt_h[0].mst_mon_h [MST_MONITOR] printing from master monitor collect_awaddr 
 -------------------------------------
Name       Type      Size  Value     
-------------------------------------
xtn        axi_xtn   -     @1189     
  AWID     integral  4     'd2       
  AWADDR   integral  32    'h419d1b05
  AWLEN    integral  4     'd3       
  AWSIZE   integral  3     'd2       
  AWBURST  integral  2     'd1       
  WID      integral  4     'd0       
  BID      integral  4     'd0       
  BRESP    integral  2     'd0       
  ARID     integral  4     'd0       
  ARADDR   integral  32    'h0       
  ARLEN    integral  8     'd0       
  ARSIZE   integral  3     'd0       
  ARBURST  integral  2     'd0       
  RID      integral  4     'd0       
-------------------------------------

UVM_INFO ../slave_agent_top/slave_monitor.sv(110) @ 65: uvm_test_top.env_h.slv_agt_top.slv_agt_h[0].slv_mon_h [slv_monitor] printing from slave monitor collect_awaddr 
 -------------------------------------
Name       Type      Size  Value     
-------------------------------------
xtn        axi_xtn   -     @1197     
  AWID     integral  4     'd2       
  AWADDR   integral  32    'h419d1b05
  AWLEN    integral  4     'd3       
  AWSIZE   integral  3     'd2       
  AWBURST  integral  2     'd1       
  WID      integral  4     'd0       
  BID      integral  4     'd0       
  BRESP    integral  2     'd0       
  ARID     integral  4     'd0       
  ARADDR   integral  32    'h0       
  ARLEN    integral  8     'd0       
  ARSIZE   integral  3     'd0       
  ARBURST  integral  2     'd0       
  RID      integral  4     'd0       
-------------------------------------

slave driver start of awvalid
WSTRB in slave driver is:0
** Warning: (vsim-3829) Non-existent associative array entry. Returning default value.
   Time: 65 ns  Iteration: 2  Process: /axi_test_pkg::slave_driver::drive/#FORK#72_7fefec43675 File: ../slave_agent_top/slave_driver.sv Line: 177
value inside mem is: 00000000
UVM_INFO ../master_agent_top/master_monitor.sv(188) @ 65: uvm_test_top.env_h.mst_agt_top.mst_agt_h[0].mst_mon_h [MST_MONITOR] printing from master monitor collect_raddr 
 -------------------------------------
Name       Type      Size  Value     
-------------------------------------
xtn3       axi_xtn   -     @1103     
  AWID     integral  4     'd0       
  AWADDR   integral  32    'h0       
  AWLEN    integral  4     'd0       
  AWSIZE   integral  3     'd0       
  AWBURST  integral  2     'd0       
  WID      integral  4     'd0       
  BID      integral  4     'd0       
  BRESP    integral  2     'd0       
  ARID     integral  4     12        
  ARADDR   integral  32    'hdc96938d
  ARLEN    integral  8     'd15      
  ARSIZE   integral  3     'd0       
  ARBURST  integral  2     'd1       
  RID      integral  4     'd0       
-------------------------------------

UVM_INFO ../slave_agent_top/slave_monitor.sv(184) @ 65: uvm_test_top.env_h.slv_agt_top.slv_agt_h[0].slv_mon_h [slv_monitor] printing from slave monitor collect_raddr 
 -------------------------------------
Name       Type      Size  Value     
-------------------------------------
xtn3       axi_xtn   -     @1085     
  AWID     integral  4     'd0       
  AWADDR   integral  32    'h0       
  AWLEN    integral  4     'd0       
  AWSIZE   integral  3     'd0       
  AWBURST  integral  2     'd0       
  WID      integral  4     'd0       
  BID      integral  4     'd0       
  BRESP    integral  2     'd0       
  ARID     integral  4     12        
  ARADDR   integral  32    'hdc96938d
  ARLEN    integral  8     'd15      
  ARSIZE   integral  3     'd0       
  ARBURST  integral  2     'd1       
  RID      integral  4     'd0       
-------------------------------------

end of drive_raddr
end of drive_awaddr
-----------------------------------------------------------------------------------------------------------
Name                           Type      Size  Value                                                       
-----------------------------------------------------------------------------------------------------------
req                            axi_xtn   -     @1210                                                       
  begin_time                   time      64    55                                                          
  depth                        int       32    'd2                                                         
  parent sequence (name)       string    5     m_seq                                                       
  parent sequence (full name)  string    60    uvm_test_top.env_h.mst_agt_top.mst_agt_h[0].mst_seqr_h.m_seq
  sequencer                    string    54    uvm_test_top.env_h.mst_agt_top.mst_agt_h[0].mst_seqr_h      
  AWID                         integral  4     'd2                                                         
  AWADDR                       integral  32    'h419d1b05                                                  
  AWLEN                        integral  4     'd3                                                         
  AWSIZE                       integral  3     'd2                                                         
  AWBURST                      integral  2     'd1                                                         
  WID                          integral  4     'd2                                                         
  WDATA                        integral  32    'h3f98eef                                                   
  WSTRB                        integral  4     'b1110                                                      
  WLAST                        integral  1     'dX                                                         
  WDATA                        integral  32    'ha6d4da3a                                                  
  WSTRB                        integral  4     'b1111                                                      
  WLAST                        integral  1     'dX                                                         
  WDATA                        integral  32    'hf27008f                                                   
  WSTRB                        integral  4     'b1111                                                      
  WLAST                        integral  1     'dX                                                         
  WDATA                        integral  32    'h6666574b                                                  
  WSTRB                        integral  4     'b1111                                                      
  WLAST                        integral  1     'dX                                                         
  BID                          integral  4     'd2                                                         
  BRESP                        integral  2     'd0                                                         
  ARID                         integral  4     'd7                                                         
  ARADDR                       integral  32    'hce16333c                                                  
  ARLEN                        integral  8     'd14                                                        
  ARSIZE                       integral  3     'd1                                                         
  ARBURST                      integral  2     'd1                                                         
  RID                          integral  4     'd7                                                         
  RDATA                        integral  32    'h5b4ca925                                                  
  RRESP                        integral  2     'd0                                                         
  RDATA                        integral  32    'hdd229efe                                                  
  RRESP                        integral  2     'd0                                                         
  RDATA                        integral  32    'h4d08ffb                                                   
  RRESP                        integral  2     'd0                                                         
  RDATA                        integral  32    'hbd46d64c                                                  
  RRESP                        integral  2     'd0                                                         
  RDATA                        integral  32    'hd1f700c9                                                  
  RRESP                        integral  2     'd0                                                         
  RDATA                        integral  32    'h3b73d4ab                                                  
  RRESP                        integral  2     'd0                                                         
  RDATA                        integral  32    'h35b1d7cd                                                  
  RRESP                        integral  2     'd0                                                         
  RDATA                        integral  32    'ha328834e                                                  
  RRESP                        integral  2     'd0                                                         
  RDATA                        integral  32    'h1aa997cc                                                  
  RRESP                        integral  2     'd0                                                         
  RDATA                        integral  32    'heb57e474                                                  
  RRESP                        integral  2     'd0                                                         
  RDATA                        integral  32    'h95d56189                                                  
  RRESP                        integral  2     'd0                                                         
  RDATA                        integral  32    'hc9e49ef8                                                  
  RRESP                        integral  2     'd0                                                         
  RDATA                        integral  32    'h3de28263                                                  
  RRESP                        integral  2     'd0                                                         
  RDATA                        integral  32    'h183848f1                                                  
  RRESP                        integral  2     'd0                                                         
  RDATA                        integral  32    'hb5b55759                                                  
  RRESP                        integral  2     'd0                                                         
-----------------------------------------------------------------------------------------------------------
start of drive_raddr
start of drive_rdata
start of drive_awaddr
UVM_INFO ../master_agent_top/master_monitor.sv(111) @ 85: uvm_test_top.env_h.mst_agt_top.mst_agt_h[0].mst_mon_h [MST_MONITOR] printing from master monitor collect_awaddr 
 -------------------------------------
Name       Type      Size  Value     
-------------------------------------
xtn        axi_xtn   -     @1234     
  AWID     integral  4     10        
  AWADDR   integral  32    'h8b96fa86
  AWLEN    integral  4     'd5       
  AWSIZE   integral  3     'd1       
  AWBURST  integral  2     'd1       
  WID      integral  4     'd0       
  BID      integral  4     'd0       
  BRESP    integral  2     'd0       
  ARID     integral  4     'd0       
  ARADDR   integral  32    'h0       
  ARLEN    integral  8     'd0       
  ARSIZE   integral  3     'd0       
  ARBURST  integral  2     'd0       
  RID      integral  4     'd0       
-------------------------------------

UVM_INFO ../slave_agent_top/slave_monitor.sv(110) @ 85: uvm_test_top.env_h.slv_agt_top.slv_agt_h[0].slv_mon_h [slv_monitor] printing from slave monitor collect_awaddr 
 -------------------------------------
Name       Type      Size  Value     
-------------------------------------
xtn        axi_xtn   -     @1238     
  AWID     integral  4     10        
  AWADDR   integral  32    'h8b96fa86
  AWLEN    integral  4     'd5       
  AWSIZE   integral  3     'd1       
  AWBURST  integral  2     'd1       
  WID      integral  4     'd0       
  BID      integral  4     'd0       
  BRESP    integral  2     'd0       
  ARID     integral  4     'd0       
  ARADDR   integral  32    'h0       
  ARLEN    integral  8     'd0       
  ARSIZE   integral  3     'd0       
  ARBURST  integral  2     'd0       
  RID      integral  4     'd0       
-------------------------------------

end of drive_awaddr
-----------------------------------------------------------------------------------------------------------
Name                           Type      Size  Value                                                       
-----------------------------------------------------------------------------------------------------------
req                            axi_xtn   -     @1242                                                       
  begin_time                   time      64    75                                                          
  depth                        int       32    'd2                                                         
  parent sequence (name)       string    5     m_seq                                                       
  parent sequence (full name)  string    60    uvm_test_top.env_h.mst_agt_top.mst_agt_h[0].mst_seqr_h.m_seq
  sequencer                    string    54    uvm_test_top.env_h.mst_agt_top.mst_agt_h[0].mst_seqr_h      
  AWID                         integral  4     10                                                          
  AWADDR                       integral  32    'h8b96fa86                                                  
  AWLEN                        integral  4     'd5                                                         
  AWSIZE                       integral  3     'd1                                                         
  AWBURST                      integral  2     'd1                                                         
  WID                          integral  4     10                                                          
  WDATA                        integral  32    'h30152ab9                                                  
  WSTRB                        integral  4     'b0                                                         
  WLAST                        integral  1     'dX                                                         
  WDATA                        integral  32    'hb9986e95                                                  
  WSTRB                        integral  4     'b11                                                        
  WLAST                        integral  1     'dX                                                         
  WDATA                        integral  32    'hef74045a                                                  
  WSTRB                        integral  4     'b1100                                                      
  WLAST                        integral  1     'dX                                                         
  WDATA                        integral  32    'h214df21f                                                  
  WSTRB                        integral  4     'b11                                                        
  WLAST                        integral  1     'dX                                                         
  WDATA                        integral  32    'h6a0aecd7                                                  
  WSTRB                        integral  4     'b1100                                                      
  WLAST                        integral  1     'dX                                                         
  WDATA                        integral  32    'h767e134b                                                  
  WSTRB                        integral  4     'b11                                                        
  WLAST                        integral  1     'dX                                                         
  BID                          integral  4     10                                                          
  BRESP                        integral  2     'd0                                                         
  ARID                         integral  4     'd4                                                         
  ARADDR                       integral  32    'h2211da2                                                   
  ARLEN                        integral  8     'd6                                                         
  ARSIZE                       integral  3     'd0                                                         
  ARBURST                      integral  2     'd1                                                         
  RID                          integral  4     'd4                                                         
  RDATA                        integral  32    'h8db2af96                                                  
  RRESP                        integral  2     'd0                                                         
  RDATA                        integral  32    'h8eddb520                                                  
  RRESP                        integral  2     'd0                                                         
  RDATA                        integral  32    'hf20021ea                                                  
  RRESP                        integral  2     'd0                                                         
  RDATA                        integral  32    'he5f5de5f                                                  
  RRESP                        integral  2     'd0                                                         
  RDATA                        integral  32    'hfbcf2397                                                  
  RRESP                        integral  2     'd0                                                         
  RDATA                        integral  32    'h3f2292a0                                                  
  RRESP                        integral  2     'd0                                                         
  RDATA                        integral  32    'hdbac1493                                                  
  RRESP                        integral  2     'd0                                                         
-----------------------------------------------------------------------------------------------------------
slave driver start of awvalid
WSTRB in slave driver is:4
value inside mem is: 00000000
start of drive_awaddr
UVM_INFO ../master_agent_top/master_monitor.sv(111) @ 105: uvm_test_top.env_h.mst_agt_top.mst_agt_h[0].mst_mon_h [MST_MONITOR] printing from master monitor collect_awaddr 
 -------------------------------------
Name       Type      Size  Value     
-------------------------------------
xtn        axi_xtn   -     @1246     
  AWID     integral  4     12        
  AWADDR   integral  32    'h3d3e1f6a
  AWLEN    integral  4     'd2       
  AWSIZE   integral  3     'd0       
  AWBURST  integral  2     'd1       
  WID      integral  4     'd0       
  BID      integral  4     'd0       
  BRESP    integral  2     'd0       
  ARID     integral  4     'd0       
  ARADDR   integral  32    'h0       
  ARLEN    integral  8     'd0       
  ARSIZE   integral  3     'd0       
  ARBURST  integral  2     'd0       
  RID      integral  4     'd0       
-------------------------------------

UVM_INFO ../slave_agent_top/slave_monitor.sv(110) @ 105: uvm_test_top.env_h.slv_agt_top.slv_agt_h[0].slv_mon_h [slv_monitor] printing from slave monitor collect_awaddr 
 -------------------------------------
Name       Type      Size  Value     
-------------------------------------
xtn        axi_xtn   -     @1250     
  AWID     integral  4     12        
  AWADDR   integral  32    'h3d3e1f6a
  AWLEN    integral  4     'd2       
  AWSIZE   integral  3     'd0       
  AWBURST  integral  2     'd1       
  WID      integral  4     'd0       
  BID      integral  4     'd0       
  BRESP    integral  2     'd0       
  ARID     integral  4     'd0       
  ARADDR   integral  32    'h0       
  ARLEN    integral  8     'd0       
  ARSIZE   integral  3     'd0       
  ARBURST  integral  2     'd0       
  RID      integral  4     'd0       
-------------------------------------

end of read_awaddr
start of read_awaddr
inside drive_raddr before wait ARREADY
slave driver start of awvalid
WSTRB in slave driver is:8
value inside mem is: 00000004
UVM_INFO ../master_agent_top/master_monitor.sv(188) @ 135: uvm_test_top.env_h.mst_agt_top.mst_agt_h[0].mst_mon_h [MST_MONITOR] printing from master monitor collect_raddr 
 -------------------------------------
Name       Type      Size  Value     
-------------------------------------
xtn3       axi_xtn   -     @1218     
  AWID     integral  4     'd0       
  AWADDR   integral  32    'h0       
  AWLEN    integral  4     'd0       
  AWSIZE   integral  3     'd0       
  AWBURST  integral  2     'd0       
  WID      integral  4     'd0       
  BID      integral  4     'd0       
  BRESP    integral  2     'd0       
  ARID     integral  4     'd7       
  ARADDR   integral  32    'hce16333c
  ARLEN    integral  8     'd14      
  ARSIZE   integral  3     'd1       
  ARBURST  integral  2     'd1       
  RID      integral  4     'd0       
-------------------------------------

UVM_INFO ../slave_agent_top/slave_monitor.sv(184) @ 135: uvm_test_top.env_h.slv_agt_top.slv_agt_h[0].slv_mon_h [slv_monitor] printing from slave monitor collect_raddr 
 -------------------------------------
Name       Type      Size  Value     
-------------------------------------
xtn3       axi_xtn   -     @1226     
  AWID     integral  4     'd0       
  AWADDR   integral  32    'h0       
  AWLEN    integral  4     'd0       
  AWSIZE   integral  3     'd0       
  AWBURST  integral  2     'd0       
  WID      integral  4     'd0       
  BID      integral  4     'd0       
  BRESP    integral  2     'd0       
  ARID     integral  4     'd7       
  ARADDR   integral  32    'hce16333c
  ARLEN    integral  8     'd14      
  ARSIZE   integral  3     'd1       
  ARBURST  integral  2     'd1       
  RID      integral  4     'd0       
-------------------------------------

end of slave_raddr
start of slave_raddr
end of drive_awaddr
-----------------------------------------------------------------------------------------------------------
Name                           Type      Size  Value                                                       
-----------------------------------------------------------------------------------------------------------
req                            axi_xtn   -     @1254                                                       
  begin_time                   time      64    95                                                          
  depth                        int       32    'd2                                                         
  parent sequence (name)       string    5     m_seq                                                       
  parent sequence (full name)  string    60    uvm_test_top.env_h.mst_agt_top.mst_agt_h[0].mst_seqr_h.m_seq
  sequencer                    string    54    uvm_test_top.env_h.mst_agt_top.mst_agt_h[0].mst_seqr_h      
  AWID                         integral  4     12                                                          
  AWADDR                       integral  32    'h3d3e1f6a                                                  
  AWLEN                        integral  4     'd2                                                         
  AWSIZE                       integral  3     'd0                                                         
  AWBURST                      integral  2     'd1                                                         
  WID                          integral  4     12                                                          
  WDATA                        integral  32    'ha99d3b29                                                  
  WSTRB                        integral  4     'b100                                                       
  WLAST                        integral  1     'dX                                                         
  WDATA                        integral  32    'h8d21fb29                                                  
  WSTRB                        integral  4     'b1000                                                      
  WLAST                        integral  1     'dX                                                         
  WDATA                        integral  32    'h86fb168e                                                  
  WSTRB                        integral  4     'b1                                                         
  WLAST                        integral  1     'dX                                                         
  BID                          integral  4     12                                                          
  BRESP                        integral  2     'd0                                                         
  ARID                         integral  4     12                                                          
  ARADDR                       integral  32    'h5e10bc21                                                  
  ARLEN                        integral  8     'd6                                                         
  ARSIZE                       integral  3     'd2                                                         
  ARBURST                      integral  2     'd1                                                         
  RID                          integral  4     12                                                          
  RDATA                        integral  32    'h43e7cc9f                                                  
  RRESP                        integral  2     'd0                                                         
  RDATA                        integral  32    'h87beeee5                                                  
  RRESP                        integral  2     'd0                                                         
  RDATA                        integral  32    'hbee5bf14                                                  
  RRESP                        integral  2     'd0                                                         
  RDATA                        integral  32    'h8f98ef55                                                  
  RRESP                        integral  2     'd0                                                         
  RDATA                        integral  32    'h1a1704db                                                  
  RRESP                        integral  2     'd0                                                         
  RDATA                        integral  32    'hb3207526                                                  
  RRESP                        integral  2     'd0                                                         
  RDATA                        integral  32    'hfc2e38b                                                   
  RRESP                        integral  2     'd0                                                         
-----------------------------------------------------------------------------------------------------------
start of drive_awaddr
UVM_INFO ../master_agent_top/master_monitor.sv(111) @ 165: uvm_test_top.env_h.mst_agt_top.mst_agt_h[0].mst_mon_h [MST_MONITOR] printing from master monitor collect_awaddr 
 -------------------------------------
Name       Type      Size  Value     
-------------------------------------
xtn        axi_xtn   -     @1262     
  AWID     integral  4     'd1       
  AWADDR   integral  32    'h3041d34e
  AWLEN    integral  4     8         
  AWSIZE   integral  3     'd0       
  AWBURST  integral  2     'd1       
  WID      integral  4     'd0       
  BID      integral  4     'd0       
  BRESP    integral  2     'd0       
  ARID     integral  4     'd0       
  ARADDR   integral  32    'h0       
  ARLEN    integral  8     'd0       
  ARSIZE   integral  3     'd0       
  ARBURST  integral  2     'd0       
  RID      integral  4     'd0       
-------------------------------------

UVM_INFO ../slave_agent_top/slave_monitor.sv(110) @ 165: uvm_test_top.env_h.slv_agt_top.slv_agt_h[0].slv_mon_h [slv_monitor] printing from slave monitor collect_awaddr 
 -------------------------------------
Name       Type      Size  Value     
-------------------------------------
xtn        axi_xtn   -     @1266     
  AWID     integral  4     'd1       
  AWADDR   integral  32    'h3041d34e
  AWLEN    integral  4     8         
  AWSIZE   integral  3     'd0       
  AWBURST  integral  2     'd1       
  WID      integral  4     'd0       
  BID      integral  4     'd0       
  BRESP    integral  2     'd0       
  ARID     integral  4     'd0       
  ARADDR   integral  32    'h0       
  ARLEN    integral  8     'd0       
  ARSIZE   integral  3     'd0       
  ARBURST  integral  2     'd0       
  RID      integral  4     'd0       
-------------------------------------

slave driver start of awvalid
WSTRB in slave driver is:1
value inside mem is: 00000086
end of drive_raddr
end of drive_awaddr
-----------------------------------------------------------------------------------------------------------
Name                           Type      Size  Value                                                       
-----------------------------------------------------------------------------------------------------------
req                            axi_xtn   -     @1282                                                       
  begin_time                   time      64    155                                                         
  depth                        int       32    'd2                                                         
  parent sequence (name)       string    5     m_seq                                                       
  parent sequence (full name)  string    60    uvm_test_top.env_h.mst_agt_top.mst_agt_h[0].mst_seqr_h.m_seq
  sequencer                    string    54    uvm_test_top.env_h.mst_agt_top.mst_agt_h[0].mst_seqr_h      
  AWID                         integral  4     'd1                                                         
  AWADDR                       integral  32    'h3041d34e                                                  
  AWLEN                        integral  4     8                                                           
  AWSIZE                       integral  3     'd0                                                         
  AWBURST                      integral  2     'd1                                                         
  WID                          integral  4     'd1                                                         
  WDATA                        integral  32    'hb97a0249                                                  
  WSTRB                        integral  4     'b100                                                       
  WLAST                        integral  1     'dX                                                         
  WDATA                        integral  32    'h8ff24715                                                  
  WSTRB                        integral  4     'b1000                                                      
  WLAST                        integral  1     'dX                                                         
  WDATA                        integral  32    'h4add3741                                                  
  WSTRB                        integral  4     'b1                                                         
  WLAST                        integral  1     'dX                                                         
  WDATA                        integral  32    'hac516b0c                                                  
  WSTRB                        integral  4     'b10                                                        
  WLAST                        integral  1     'dX                                                         
  WDATA                        integral  32    'ha2f49226                                                  
  WSTRB                        integral  4     'b100                                                       
  WLAST                        integral  1     'dX                                                         
  WDATA                        integral  32    'h870e89b2                                                  
  WSTRB                        integral  4     'b1000                                                      
  WLAST                        integral  1     'dX                                                         
  WDATA                        integral  32    'hd32b717a                                                  
  WSTRB                        integral  4     'b1                                                         
  WLAST                        integral  1     'dX                                                         
  WDATA                        integral  32    'h5d868a1d                                                  
  WSTRB                        integral  4     'b10                                                        
  WLAST                        integral  1     'dX                                                         
  WDATA                        integral  32    'h4322f51d                                                  
  WSTRB                        integral  4     'b100                                                       
  WLAST                        integral  1     'dX                                                         
  BID                          integral  4     'd1                                                         
  BRESP                        integral  2     'd0                                                         
  ARID                         integral  4     14                                                          
  ARADDR                       integral  32    'hbdc6d557                                                  
  ARLEN                        integral  8     'd1                                                         
  ARSIZE                       integral  3     'd2                                                         
  ARBURST                      integral  2     'd1                                                         
  RID                          integral  4     14                                                          
  RDATA                        integral  32    'hfffa195e                                                  
  RRESP                        integral  2     'd0                                                         
  RDATA                        integral  32    'h708f8fde                                                  
  RRESP                        integral  2     'd0                                                         
-----------------------------------------------------------------------------------------------------------
start of drive_raddr
start of drive_awaddr
UVM_INFO ../master_agent_top/master_monitor.sv(111) @ 185: uvm_test_top.env_h.mst_agt_top.mst_agt_h[0].mst_mon_h [MST_MONITOR] printing from master monitor collect_awaddr 
 -------------------------------------
Name       Type      Size  Value     
-------------------------------------
xtn        axi_xtn   -     @1286     
  AWID     integral  4     'd4       
  AWADDR   integral  32    'hda3829bd
  AWLEN    integral  4     14        
  AWSIZE   integral  3     'd1       
  AWBURST  integral  2     'd1       
  WID      integral  4     'd0       
  BID      integral  4     'd0       
  BRESP    integral  2     'd0       
  ARID     integral  4     'd0       
  ARADDR   integral  32    'h0       
  ARLEN    integral  8     'd0       
  ARSIZE   integral  3     'd0       
  ARBURST  integral  2     'd0       
  RID      integral  4     'd0       
-------------------------------------

UVM_INFO ../slave_agent_top/slave_monitor.sv(110) @ 185: uvm_test_top.env_h.slv_agt_top.slv_agt_h[0].slv_mon_h [slv_monitor] printing from slave monitor collect_awaddr 
 -------------------------------------
Name       Type      Size  Value     
-------------------------------------
xtn        axi_xtn   -     @1290     
  AWID     integral  4     'd4       
  AWADDR   integral  32    'hda3829bd
  AWLEN    integral  4     14        
  AWSIZE   integral  3     'd1       
  AWBURST  integral  2     'd1       
  WID      integral  4     'd0       
  BID      integral  4     'd0       
  BRESP    integral  2     'd0       
  ARID     integral  4     'd0       
  ARADDR   integral  32    'h0       
  ARLEN    integral  8     'd0       
  ARSIZE   integral  3     'd0       
  ARBURST  integral  2     'd0       
  RID      integral  4     'd0       
-------------------------------------

inside drive_raddr before wait ARREADY
slave driver start of awvalid
WSTRB in slave driver is:2
value inside mem is: 00000098
end of read_awaddr
start of read_awaddr
end of drive_awaddr
-----------------------------------------------------------------------------------------------------------
Name                           Type      Size  Value                                                       
-----------------------------------------------------------------------------------------------------------
req                            axi_xtn   -     @1294                                                       
  begin_time                   time      64    175                                                         
  depth                        int       32    'd2                                                         
  parent sequence (name)       string    5     m_seq                                                       
  parent sequence (full name)  string    60    uvm_test_top.env_h.mst_agt_top.mst_agt_h[0].mst_seqr_h.m_seq
  sequencer                    string    54    uvm_test_top.env_h.mst_agt_top.mst_agt_h[0].mst_seqr_h      
  AWID                         integral  4     'd4                                                         
  AWADDR                       integral  32    'hda3829bd                                                  
  AWLEN                        integral  4     14                                                          
  AWSIZE                       integral  3     'd1                                                         
  AWBURST                      integral  2     'd1                                                         
  WID                          integral  4     'd4                                                         
  WDATA                        integral  32    'h47db07dd                                                  
  WSTRB                        integral  4     'b0                                                         
  WLAST                        integral  1     'dX                                                         
  WDATA                        integral  32    'h8f1f0f5                                                   
  WSTRB                        integral  4     'b1100                                                      
  WLAST                        integral  1     'dX                                                         
  WDATA                        integral  32    'h8653feff                                                  
  WSTRB                        integral  4     'b11                                                        
  WLAST                        integral  1     'dX                                                         
  WDATA                        integral  32    'h44d55c50                                                  
  WSTRB                        integral  4     'b1100                                                      
  WLAST                        integral  1     'dX                                                         
  WDATA                        integral  32    'hf7543544                                                  
  WSTRB                        integral  4     'b11                                                        
  WLAST                        integral  1     'dX                                                         
  WDATA                        integral  32    'ha627419c                                                  
  WSTRB                        integral  4     'b1100                                                      
  WLAST                        integral  1     'dX                                                         
  WDATA                        integral  32    'h2037b85f                                                  
  WSTRB                        integral  4     'b11                                                        
  WLAST                        integral  1     'dX                                                         
  WDATA                        integral  32    'h5602520b                                                  
  WSTRB                        integral  4     'b1100                                                      
  WLAST                        integral  1     'dX                                                         
  WDATA                        integral  32    'hf267a057                                                  
  WSTRB                        integral  4     'b11                                                        
  WLAST                        integral  1     'dX                                                         
  WDATA                        integral  32    'he509f398                                                  
  WSTRB                        integral  4     'b1100                                                      
  WLAST                        integral  1     'dX                                                         
  WDATA                        integral  32    'h836701e6                                                  
  WSTRB                        integral  4     'b11                                                        
  WLAST                        integral  1     'dX                                                         
  WDATA                        integral  32    'h3a474fcc                                                  
  WSTRB                        integral  4     'b1100                                                      
  WLAST                        integral  1     'dX                                                         
  WDATA                        integral  32    'hb2de9bf4                                                  
  WSTRB                        integral  4     'b11                                                        
  WLAST                        integral  1     'dX                                                         
  WDATA                        integral  32    'h17e5e440                                                  
  WSTRB                        integral  4     'b1100                                                      
  WLAST                        integral  1     'dX                                                         
  WDATA                        integral  32    'h142862de                                                  
  WSTRB                        integral  4     'b11                                                        
  WLAST                        integral  1     'dX                                                         
  BID                          integral  4     'd4                                                         
  BRESP                        integral  2     'd0                                                         
  ARID                         integral  4     'd0                                                         
  ARADDR                       integral  32    'hec517ce4                                                  
  ARLEN                        integral  8     'd13                                                        
  ARSIZE                       integral  3     'd2                                                         
  ARBURST                      integral  2     'd1                                                         
  RID                          integral  4     'd0                                                         
  RDATA                        integral  32    'h7188545f                                                  
  RRESP                        integral  2     'd0                                                         
  RDATA                        integral  32    'hfb2cf3e3                                                  
  RRESP                        integral  2     'd0                                                         
  RDATA                        integral  32    'hdaf6d89b                                                  
  RRESP                        integral  2     'd0                                                         
  RDATA                        integral  32    'hbc731a7c                                                  
  RRESP                        integral  2     'd0                                                         
  RDATA                        integral  32    'h31f56eb                                                   
  RRESP                        integral  2     'd0                                                         
  RDATA                        integral  32    'h96db8d4a                                                  
  RRESP                        integral  2     'd0                                                         
  RDATA                        integral  32    'h73518373                                                  
  RRESP                        integral  2     'd0                                                         
  RDATA                        integral  32    'hed1ff7ac                                                  
  RRESP                        integral  2     'd0                                                         
  RDATA                        integral  32    'hbf59f4ab                                                  
  RRESP                        integral  2     'd0                                                         
  RDATA                        integral  32    'h4858773b                                                  
  RRESP                        integral  2     'd0                                                         
  RDATA                        integral  32    'hdca49813                                                  
  RRESP                        integral  2     'd0                                                         
  RDATA                        integral  32    'h878c4246                                                  
  RRESP                        integral  2     'd0                                                         
  RDATA                        integral  32    'h702cd53b                                                  
  RRESP                        integral  2     'd0                                                         
  RDATA                        integral  32    'hdfe30091                                                  
  RRESP                        integral  2     'd0                                                         
-----------------------------------------------------------------------------------------------------------
end of drive_raddr
UVM_INFO ../master_agent_top/master_monitor.sv(188) @ 225: uvm_test_top.env_h.mst_agt_top.mst_agt_h[0].mst_mon_h [MST_MONITOR] printing from master monitor collect_raddr 
 ------------------------------------
Name       Type      Size  Value    
------------------------------------
xtn3       axi_xtn   -     @1270    
  AWID     integral  4     'd0      
  AWADDR   integral  32    'h0      
  AWLEN    integral  4     'd0      
  AWSIZE   integral  3     'd0      
  AWBURST  integral  2     'd0      
  WID      integral  4     'd0      
  BID      integral  4     'd0      
  BRESP    integral  2     'd0      
  ARID     integral  4     'd4      
  ARADDR   integral  32    'h2211da2
  ARLEN    integral  8     'd6      
  ARSIZE   integral  3     'd0      
  ARBURST  integral  2     'd1      
  RID      integral  4     'd0      
------------------------------------

end of slave_raddr
UVM_INFO ../slave_agent_top/slave_monitor.sv(184) @ 225: uvm_test_top.env_h.slv_agt_top.slv_agt_h[0].slv_mon_h [slv_monitor] printing from slave monitor collect_raddr 
 ------------------------------------
Name       Type      Size  Value    
------------------------------------
xtn3       axi_xtn   -     @1274    
  AWID     integral  4     'd0      
  AWADDR   integral  32    'h0      
  AWLEN    integral  4     'd0      
  AWSIZE   integral  3     'd0      
  AWBURST  integral  2     'd0      
  WID      integral  4     'd0      
  BID      integral  4     'd0      
  BRESP    integral  2     'd0      
  ARID     integral  4     'd4      
  ARADDR   integral  32    'h2211da2
  ARLEN    integral  8     'd6      
  ARSIZE   integral  3     'd0      
  ARBURST  integral  2     'd1      
  RID      integral  4     'd0      
------------------------------------

start of drive_raddr
start of slave_raddr
start of drive_awaddr
slave driver start of awvalid
WSTRB in slave driver is:4
value inside mem is: 000000ae
UVM_INFO ../master_agent_top/master_monitor.sv(111) @ 275: uvm_test_top.env_h.mst_agt_top.mst_agt_h[0].mst_mon_h [MST_MONITOR] printing from master monitor collect_awaddr 
 -------------------------------------
Name       Type      Size  Value     
-------------------------------------
xtn        axi_xtn   -     @1298     
  AWID     integral  4     'd2       
  AWADDR   integral  32    'h54ecf712
  AWLEN    integral  4     15        
  AWSIZE   integral  3     'd1       
  AWBURST  integral  2     'd1       
  WID      integral  4     'd0       
  BID      integral  4     'd0       
  BRESP    integral  2     'd0       
  ARID     integral  4     'd0       
  ARADDR   integral  32    'h0       
  ARLEN    integral  8     'd0       
  ARSIZE   integral  3     'd0       
  ARBURST  integral  2     'd0       
  RID      integral  4     'd0       
-------------------------------------

UVM_INFO ../slave_agent_top/slave_monitor.sv(110) @ 275: uvm_test_top.env_h.slv_agt_top.slv_agt_h[0].slv_mon_h [slv_monitor] printing from slave monitor collect_awaddr 
 -------------------------------------
Name       Type      Size  Value     
-------------------------------------
xtn        axi_xtn   -     @1302     
  AWID     integral  4     'd2       
  AWADDR   integral  32    'h54ecf712
  AWLEN    integral  4     15        
  AWSIZE   integral  3     'd1       
  AWBURST  integral  2     'd1       
  WID      integral  4     'd0       
  BID      integral  4     'd0       
  BRESP    integral  2     'd0       
  ARID     integral  4     'd0       
  ARADDR   integral  32    'h0       
  ARLEN    integral  8     'd0       
  ARSIZE   integral  3     'd0       
  ARBURST  integral  2     'd0       
  RID      integral  4     'd0       
-------------------------------------

inside drive_raddr before wait ARREADY
slave driver start of awvalid
WSTRB in slave driver is:8
value inside mem is: 0000008d
end of drive_raddr
UVM_INFO ../master_agent_top/master_monitor.sv(188) @ 295: uvm_test_top.env_h.mst_agt_top.mst_agt_h[0].mst_mon_h [MST_MONITOR] printing from master monitor collect_raddr 
 -------------------------------------
Name       Type      Size  Value     
-------------------------------------
xtn3       axi_xtn   -     @1314     
  AWID     integral  4     'd0       
  AWADDR   integral  32    'h0       
  AWLEN    integral  4     'd0       
  AWSIZE   integral  3     'd0       
  AWBURST  integral  2     'd0       
  WID      integral  4     'd0       
  BID      integral  4     'd0       
  BRESP    integral  2     'd0       
  ARID     integral  4     12        
  ARADDR   integral  32    'h5e10bc21
  ARLEN    integral  8     'd6       
  ARSIZE   integral  3     'd2       
  ARBURST  integral  2     'd1       
  RID      integral  4     'd0       
-------------------------------------

UVM_INFO ../slave_agent_top/slave_monitor.sv(184) @ 295: uvm_test_top.env_h.slv_agt_top.slv_agt_h[0].slv_mon_h [slv_monitor] printing from slave monitor collect_raddr 
 -------------------------------------
Name       Type      Size  Value     
-------------------------------------
xtn3       axi_xtn   -     @1322     
  AWID     integral  4     'd0       
  AWADDR   integral  32    'h0       
  AWLEN    integral  4     'd0       
  AWSIZE   integral  3     'd0       
  AWBURST  integral  2     'd0       
  WID      integral  4     'd0       
  BID      integral  4     'd0       
  BRESP    integral  2     'd0       
  ARID     integral  4     12        
  ARADDR   integral  32    'h5e10bc21
  ARLEN    integral  8     'd6       
  ARSIZE   integral  3     'd2       
  ARBURST  integral  2     'd1       
  RID      integral  4     'd0       
-------------------------------------

start of drive_raddr
end of read_awaddr
start of read_awaddr
end of slave_raddr
start of slave_raddr
inside drive_raddr before wait ARREADY
end of drive_awaddr
-----------------------------------------------------------------------------------------------------------
Name                           Type      Size  Value                                                       
-----------------------------------------------------------------------------------------------------------
req                            axi_xtn   -     @1310                                                       
  begin_time                   time      64    225                                                         
  depth                        int       32    'd2                                                         
  parent sequence (name)       string    5     m_seq                                                       
  parent sequence (full name)  string    60    uvm_test_top.env_h.mst_agt_top.mst_agt_h[0].mst_seqr_h.m_seq
  sequencer                    string    54    uvm_test_top.env_h.mst_agt_top.mst_agt_h[0].mst_seqr_h      
  AWID                         integral  4     'd2                                                         
  AWADDR                       integral  32    'h54ecf712                                                  
  AWLEN                        integral  4     15                                                          
  AWSIZE                       integral  3     'd1                                                         
  AWBURST                      integral  2     'd1                                                         
  WID                          integral  4     'd2                                                         
  WDATA                        integral  32    'hc9d65cbc                                                  
  WSTRB                        integral  4     'b1100                                                      
  WLAST                        integral  1     'dX                                                         
  WDATA                        integral  32    'hb01eabc8                                                  
  WSTRB                        integral  4     'b11                                                        
  WLAST                        integral  1     'dX                                                         
  WDATA                        integral  32    'h6e9535e7                                                  
  WSTRB                        integral  4     'b1100                                                      
  WLAST                        integral  1     'dX                                                         
  WDATA                        integral  32    'hf9a595f8                                                  
  WSTRB                        integral  4     'b11                                                        
  WLAST                        integral  1     'dX                                                         
  WDATA                        integral  32    'h45fb3dde                                                  
  WSTRB                        integral  4     'b1100                                                      
  WLAST                        integral  1     'dX                                                         
  WDATA                        integral  32    'h7e9e613                                                   
  WSTRB                        integral  4     'b11                                                        
  WLAST                        integral  1     'dX                                                         
  WDATA                        integral  32    'h662366d                                                   
  WSTRB                        integral  4     'b1100                                                      
  WLAST                        integral  1     'dX                                                         
  WDATA                        integral  32    'h64607a61                                                  
  WSTRB                        integral  4     'b11                                                        
  WLAST                        integral  1     'dX                                                         
  WDATA                        integral  32    'h451747af                                                  
  WSTRB                        integral  4     'b1100                                                      
  WLAST                        integral  1     'dX                                                         
  WDATA                        integral  32    'hf6df1a32                                                  
  WSTRB                        integral  4     'b11                                                        
  WLAST                        integral  1     'dX                                                         
  WDATA                        integral  32    'hdb78c925                                                  
  WSTRB                        integral  4     'b1100                                                      
  WLAST                        integral  1     'dX                                                         
  WDATA                        integral  32    'hb666d180                                                  
  WSTRB                        integral  4     'b11                                                        
  WLAST                        integral  1     'dX                                                         
  WDATA                        integral  32    'h25731ce4                                                  
  WSTRB                        integral  4     'b1100                                                      
  WLAST                        integral  1     'dX                                                         
  WDATA                        integral  32    'h9cfa90d2                                                  
  WSTRB                        integral  4     'b11                                                        
  WLAST                        integral  1     'dX                                                         
  WDATA                        integral  32    'h49377306                                                  
  WSTRB                        integral  4     'b1100                                                      
  WLAST                        integral  1     'dX                                                         
  WDATA                        integral  32    'hab0d9bee                                                  
  WSTRB                        integral  4     'b11                                                        
  WLAST                        integral  1     'dX                                                         
  BID                          integral  4     'd2                                                         
  BRESP                        integral  2     'd0                                                         
  ARID                         integral  4     'd5                                                         
  ARADDR                       integral  32    'h7917c5d7                                                  
  ARLEN                        integral  8     'd3                                                         
  ARSIZE                       integral  3     'd2                                                         
  ARBURST                      integral  2     'd1                                                         
  RID                          integral  4     'd5                                                         
  RDATA                        integral  32    'he28d593c                                                  
  RRESP                        integral  2     'd0                                                         
  RDATA                        integral  32    'h75343bef                                                  
  RRESP                        integral  2     'd0                                                         
  RDATA                        integral  32    'h1119dc04                                                  
  RRESP                        integral  2     'd0                                                         
  RDATA                        integral  32    'h382bfac8                                                  
  RRESP                        integral  2     'd0                                                         
-----------------------------------------------------------------------------------------------------------
start of drive_awaddr
UVM_INFO ../master_agent_top/master_monitor.sv(111) @ 345: uvm_test_top.env_h.mst_agt_top.mst_agt_h[0].mst_mon_h [MST_MONITOR] printing from master monitor collect_awaddr 
 -------------------------------------
Name       Type      Size  Value     
-------------------------------------
xtn        axi_xtn   -     @1326     
  AWID     integral  4     'd3       
  AWADDR   integral  32    'h9d44aec7
  AWLEN    integral  4     'd3       
  AWSIZE   integral  3     'd0       
  AWBURST  integral  2     'd1       
  WID      integral  4     'd0       
  BID      integral  4     'd0       
  BRESP    integral  2     'd0       
  ARID     integral  4     'd0       
  ARADDR   integral  32    'h0       
  ARLEN    integral  8     'd0       
  ARSIZE   integral  3     'd0       
  ARBURST  integral  2     'd0       
  RID      integral  4     'd0       
-------------------------------------

UVM_INFO ../slave_agent_top/slave_monitor.sv(110) @ 345: uvm_test_top.env_h.slv_agt_top.slv_agt_h[0].slv_mon_h [slv_monitor] printing from slave monitor collect_awaddr 
 -------------------------------------
Name       Type      Size  Value     
-------------------------------------
xtn        axi_xtn   -     @1330     
  AWID     integral  4     'd3       
  AWADDR   integral  32    'h9d44aec7
  AWLEN    integral  4     'd3       
  AWSIZE   integral  3     'd0       
  AWBURST  integral  2     'd1       
  WID      integral  4     'd0       
  BID      integral  4     'd0       
  BRESP    integral  2     'd0       
  ARID     integral  4     'd0       
  ARADDR   integral  32    'h0       
  ARLEN    integral  8     'd0       
  ARSIZE   integral  3     'd0       
  ARBURST  integral  2     'd0       
  RID      integral  4     'd0       
-------------------------------------

UVM_INFO ../master_agent_top/master_monitor.sv(188) @ 345: uvm_test_top.env_h.mst_agt_top.mst_agt_h[0].mst_mon_h [MST_MONITOR] printing from master monitor collect_raddr 
 -------------------------------------
Name       Type      Size  Value     
-------------------------------------
xtn3       axi_xtn   -     @1334     
  AWID     integral  4     'd0       
  AWADDR   integral  32    'h0       
  AWLEN    integral  4     'd0       
  AWSIZE   integral  3     'd0       
  AWBURST  integral  2     'd0       
  WID      integral  4     'd0       
  BID      integral  4     'd0       
  BRESP    integral  2     'd0       
  ARID     integral  4     14        
  ARADDR   integral  32    'hbdc6d557
  ARLEN    integral  8     'd1       
  ARSIZE   integral  3     'd2       
  ARBURST  integral  2     'd1       
  RID      integral  4     'd0       
-------------------------------------

slave driver start of awvalid
WSTRB in slave driver is:1
value inside mem is: 00000012
UVM_INFO ../slave_agent_top/slave_monitor.sv(184) @ 345: uvm_test_top.env_h.slv_agt_top.slv_agt_h[0].slv_mon_h [slv_monitor] printing from slave monitor collect_raddr 
 -------------------------------------
Name       Type      Size  Value     
-------------------------------------
xtn3       axi_xtn   -     @1338     
  AWID     integral  4     'd0       
  AWADDR   integral  32    'h0       
  AWLEN    integral  4     'd0       
  AWSIZE   integral  3     'd0       
  AWBURST  integral  2     'd0       
  WID      integral  4     'd0       
  BID      integral  4     'd0       
  BRESP    integral  2     'd0       
  ARID     integral  4     14        
  ARADDR   integral  32    'hbdc6d557
  ARLEN    integral  8     'd1       
  ARSIZE   integral  3     'd2       
  ARBURST  integral  2     'd1       
  RID      integral  4     'd0       
-------------------------------------

end of drive_awaddr
-----------------------------------------------------------------------------------------------------------
Name                           Type      Size  Value                                                       
-----------------------------------------------------------------------------------------------------------
req                            axi_xtn   -     @1350                                                       
  begin_time                   time      64    325                                                         
  depth                        int       32    'd2                                                         
  parent sequence (name)       string    5     m_seq                                                       
  parent sequence (full name)  string    60    uvm_test_top.env_h.mst_agt_top.mst_agt_h[0].mst_seqr_h.m_seq
  sequencer                    string    54    uvm_test_top.env_h.mst_agt_top.mst_agt_h[0].mst_seqr_h      
  AWID                         integral  4     'd3                                                         
  AWADDR                       integral  32    'h9d44aec7                                                  
  AWLEN                        integral  4     'd3                                                         
  AWSIZE                       integral  3     'd0                                                         
  AWBURST                      integral  2     'd1                                                         
  WID                          integral  4     'd3                                                         
  WDATA                        integral  32    'ha2bb6448                                                  
  WSTRB                        integral  4     'b0                                                         
  WLAST                        integral  1     'dX                                                         
  WDATA                        integral  32    'h13fef1d0                                                  
  WSTRB                        integral  4     'b1                                                         
  WLAST                        integral  1     'dX                                                         
  WDATA                        integral  32    'h8c7b4321                                                  
  WSTRB                        integral  4     'b10                                                        
  WLAST                        integral  1     'dX                                                         
  WDATA                        integral  32    'h8db533fb                                                  
  WSTRB                        integral  4     'b100                                                       
  WLAST                        integral  1     'dX                                                         
  BID                          integral  4     'd3                                                         
  BRESP                        integral  2     'd0                                                         
  ARID                         integral  4     14                                                          
  ARADDR                       integral  32    'h9c58518f                                                  
  ARLEN                        integral  8     'd13                                                        
  ARSIZE                       integral  3     'd1                                                         
  ARBURST                      integral  2     'd1                                                         
  RID                          integral  4     14                                                          
  RDATA                        integral  32    'heb47a9b0                                                  
  RRESP                        integral  2     'd0                                                         
  RDATA                        integral  32    'hca36f66f                                                  
  RRESP                        integral  2     'd0                                                         
  RDATA                        integral  32    'h76dc00d1                                                  
  RRESP                        integral  2     'd0                                                         
  RDATA                        integral  32    'h884b7270                                                  
  RRESP                        integral  2     'd0                                                         
  RDATA                        integral  32    'h7ca7c157                                                  
  RRESP                        integral  2     'd0                                                         
  RDATA                        integral  32    'h362ba5fe                                                  
  RRESP                        integral  2     'd0                                                         
  RDATA                        integral  32    'h82be70df                                                  
  RRESP                        integral  2     'd0                                                         
  RDATA                        integral  32    'h9fabb494                                                  
  RRESP                        integral  2     'd0                                                         
  RDATA                        integral  32    'hf21cb548                                                  
  RRESP                        integral  2     'd0                                                         
  RDATA                        integral  32    'h6166130a                                                  
  RRESP                        integral  2     'd0                                                         
  RDATA                        integral  32    'ha0cfa6b9                                                  
  RRESP                        integral  2     'd0                                                         
  RDATA                        integral  32    'h2bd1af3                                                   
  RRESP                        integral  2     'd0                                                         
  RDATA                        integral  32    'ha3139316                                                  
  RRESP                        integral  2     'd0                                                         
  RDATA                        integral  32    'h868de120                                                  
  RRESP                        integral  2     'd0                                                         
-----------------------------------------------------------------------------------------------------------
start of drive_awaddr
UVM_INFO ../master_agent_top/master_monitor.sv(111) @ 375: uvm_test_top.env_h.mst_agt_top.mst_agt_h[0].mst_mon_h [MST_MONITOR] printing from master monitor collect_awaddr 
 -------------------------------------
Name       Type      Size  Value     
-------------------------------------
xtn        axi_xtn   -     @1362     
  AWID     integral  4     'd0       
  AWADDR   integral  32    'hfe457e76
  AWLEN    integral  4     'd6       
  AWSIZE   integral  3     'd0       
  AWBURST  integral  2     'd1       
  WID      integral  4     'd0       
  BID      integral  4     'd0       
  BRESP    integral  2     'd0       
  ARID     integral  4     'd0       
  ARADDR   integral  32    'h0       
  ARLEN    integral  8     'd0       
  ARSIZE   integral  3     'd0       
  ARBURST  integral  2     'd0       
  RID      integral  4     'd0       
-------------------------------------

UVM_INFO ../slave_agent_top/slave_monitor.sv(110) @ 375: uvm_test_top.env_h.slv_agt_top.slv_agt_h[0].slv_mon_h [slv_monitor] printing from slave monitor collect_awaddr 
 -------------------------------------
Name       Type      Size  Value     
-------------------------------------
xtn        axi_xtn   -     @1366     
  AWID     integral  4     'd0       
  AWADDR   integral  32    'hfe457e76
  AWLEN    integral  4     'd6       
  AWSIZE   integral  3     'd0       
  AWBURST  integral  2     'd1       
  WID      integral  4     'd0       
  BID      integral  4     'd0       
  BRESP    integral  2     'd0       
  ARID     integral  4     'd0       
  ARADDR   integral  32    'h0       
  ARLEN    integral  8     'd0       
  ARSIZE   integral  3     'd0       
  ARBURST  integral  2     'd0       
  RID      integral  4     'd0       
-------------------------------------

end of slave_raddr
start of slave_raddr
end of drive_raddr
end of drive_awaddr
-----------------------------------------------------------------------------------------------------------
Name                           Type      Size  Value                                                       
-----------------------------------------------------------------------------------------------------------
req                            axi_xtn   -     @1370                                                       
  begin_time                   time      64    365                                                         
  depth                        int       32    'd2                                                         
  parent sequence (name)       string    5     m_seq                                                       
  parent sequence (full name)  string    60    uvm_test_top.env_h.mst_agt_top.mst_agt_h[0].mst_seqr_h.m_seq
  sequencer                    string    54    uvm_test_top.env_h.mst_agt_top.mst_agt_h[0].mst_seqr_h      
  AWID                         integral  4     'd0                                                         
  AWADDR                       integral  32    'hfe457e76                                                  
  AWLEN                        integral  4     'd6                                                         
  AWSIZE                       integral  3     'd0                                                         
  AWBURST                      integral  2     'd1                                                         
  WID                          integral  4     'd0                                                         
  WDATA                        integral  32    'h38f36046                                                  
  WSTRB                        integral  4     'b0                                                         
  WLAST                        integral  1     'dX                                                         
  WDATA                        integral  32    'h2a977e35                                                  
  WSTRB                        integral  4     'b1000                                                      
  WLAST                        integral  1     'dX                                                         
  WDATA                        integral  32    'h7df3d3c8                                                  
  WSTRB                        integral  4     'b1                                                         
  WLAST                        integral  1     'dX                                                         
  WDATA                        integral  32    'he518ba94                                                  
  WSTRB                        integral  4     'b10                                                        
  WLAST                        integral  1     'dX                                                         
  WDATA                        integral  32    'hcbc63f44                                                  
  WSTRB                        integral  4     'b100                                                       
  WLAST                        integral  1     'dX                                                         
  WDATA                        integral  32    'h2881a489                                                  
  WSTRB                        integral  4     'b1000                                                      
  WLAST                        integral  1     'dX                                                         
  WDATA                        integral  32    'h10e725eb                                                  
  WSTRB                        integral  4     'b1                                                         
  WLAST                        integral  1     'dX                                                         
  BID                          integral  4     'd0                                                         
  BRESP                        integral  2     'd0                                                         
  ARID                         integral  4     14                                                          
  ARADDR                       integral  32    'h795d2ae9                                                  
  ARLEN                        integral  8     'd7                                                         
  ARSIZE                       integral  3     'd0                                                         
  ARBURST                      integral  2     'd1                                                         
  RID                          integral  4     14                                                          
  RDATA                        integral  32    'h50c9456e                                                  
  RRESP                        integral  2     'd0                                                         
  RDATA                        integral  32    'h99a1c3ac                                                  
  RRESP                        integral  2     'd0                                                         
  RDATA                        integral  32    'h3c87057d                                                  
  RRESP                        integral  2     'd0                                                         
  RDATA                        integral  32    'hb4b56e22                                                  
  RRESP                        integral  2     'd0                                                         
  RDATA                        integral  32    'hecae2dbb                                                  
  RRESP                        integral  2     'd0                                                         
  RDATA                        integral  32    'h36c8f4a2                                                  
  RRESP                        integral  2     'd0                                                         
  RDATA                        integral  32    'h2a310243                                                  
  RRESP                        integral  2     'd0                                                         
  RDATA                        integral  32    'h789d5689                                                  
  RRESP                        integral  2     'd0                                                         
-----------------------------------------------------------------------------------------------------------
slave driver start of awvalid
WSTRB in slave driver is:2
value inside mem is: 0000006f
start of drive_raddr
start of drive_awaddr
UVM_INFO ../master_agent_top/master_monitor.sv(111) @ 395: uvm_test_top.env_h.mst_agt_top.mst_agt_h[0].mst_mon_h [MST_MONITOR] printing from master monitor collect_awaddr 
 -------------------------------------
Name       Type      Size  Value     
-------------------------------------
xtn        axi_xtn   -     @1382     
  AWID     integral  4     10        
  AWADDR   integral  32    'hf0a86e72
  AWLEN    integral  4     'd2       
  AWSIZE   integral  3     'd0       
  AWBURST  integral  2     'd1       
  WID      integral  4     'd0       
  BID      integral  4     'd0       
  BRESP    integral  2     'd0       
  ARID     integral  4     'd0       
  ARADDR   integral  32    'h0       
  ARLEN    integral  8     'd0       
  ARSIZE   integral  3     'd0       
  ARBURST  integral  2     'd0       
  RID      integral  4     'd0       
-------------------------------------

UVM_INFO ../slave_agent_top/slave_monitor.sv(110) @ 395: uvm_test_top.env_h.slv_agt_top.slv_agt_h[0].slv_mon_h [slv_monitor] printing from slave monitor collect_awaddr 
 -------------------------------------
Name       Type      Size  Value     
-------------------------------------
xtn        axi_xtn   -     @1386     
  AWID     integral  4     10        
  AWADDR   integral  32    'hf0a86e72
  AWLEN    integral  4     'd2       
  AWSIZE   integral  3     'd0       
  AWBURST  integral  2     'd1       
  WID      integral  4     'd0       
  BID      integral  4     'd0       
  BRESP    integral  2     'd0       
  ARID     integral  4     'd0       
  ARADDR   integral  32    'h0       
  ARLEN    integral  8     'd0       
  ARSIZE   integral  3     'd0       
  ARBURST  integral  2     'd0       
  RID      integral  4     'd0       
-------------------------------------

end of read_awaddr
start of read_awaddr
inside drive_raddr before wait ARREADY
UVM_INFO ../master_agent_top/master_monitor.sv(188) @ 435: uvm_test_top.env_h.mst_agt_top.mst_agt_h[0].mst_mon_h [MST_MONITOR] printing from master monitor collect_raddr 
 -------------------------------------
Name       Type      Size  Value     
-------------------------------------
xtn3       axi_xtn   -     @1354     
  AWID     integral  4     'd0       
  AWADDR   integral  32    'h0       
  AWLEN    integral  4     'd0       
  AWSIZE   integral  3     'd0       
  AWBURST  integral  2     'd0       
  WID      integral  4     'd0       
  BID      integral  4     'd0       
  BRESP    integral  2     'd0       
