vsim -cvgperinstance -vopt -voptargs="+acc" -coverage -sva -c -do " log -r /* ;coverage save -onexit mem_cov4;run -all; exit" -wlf wave_file4.wlf -l test4.log -sv_seed 2879749925 work.top "+UVM_TESTNAME=test3" 
Start time: 12:51:01 on Jun 14,2025
** Note: (vsim-8009) Loading existing optimized design _opt
//  Questa Sim-64
//  Version 2019.2 linux_x86_64 Apr 16 2019
//
//  Copyright 1991-2019 Mentor Graphics Corporation
//  All Rights Reserved.
//
//  QuestaSim and its associated documentation contain trade
//  secrets and commercial or financial information that are the property of
//  Mentor Graphics Corporation and are privileged, confidential,
//  and exempt from disclosure under the Freedom of Information Act,
//  5 U.S.C. Section 552. Furthermore, this information
//  is prohibited from disclosure under the Trade Secrets Act,
//  18 U.S.C. Section 1905.
//
** Warning: License feature 'msimhdlsim' will expire in 6 days.
Loading sv_std.std
Loading work.ahb_rst_if(fast)
Loading work.sl_if(fast)
Loading mtiUvm.uvm_pkg
Loading work.avip_pkg(fast)
Loading work.av_if(fast)
Loading mtiUvm.questa_uvm_pkg(fast)
Loading work.top(fast)
Loading work.ahb_rst_if(fast)
Loading work.av_if(fast)
Loading work.sl_if(fast)
Loading work.decoder(fast)
** Warning: (vsim-8441) Clocking block output vif.sdcb.hrdata is not legal in this
or another expression.
   Time: 0 ns  Iteration: 0  Region: /avip_pkg::s_driver File: ../slave_agent/slave_driver.sv Line: 39
** Warning: (vsim-8441) Clocking block output vif.sdcb.hready_out is not legal in this
or another expression.
   Time: 0 ns  Iteration: 0  Region: /avip_pkg::s_driver File: ../slave_agent/slave_driver.sv Line: 44
** Warning: (vsim-8441) Clocking block output vif.sdcb.hready_out is not legal in this
or another expression.
   Time: 0 ns  Iteration: 0  Region: /avip_pkg::s_driver File: ../slave_agent/slave_driver.sv Line: 44
** Warning: (vsim-8441) Clocking block output vif.sdcb.hrdata is not legal in this
or another expression.
   Time: 0 ns  Iteration: 0  Region: /avip_pkg::s_driver File: ../slave_agent/slave_driver.sv Line: 39
# Loading /home/cad/eda/Questa_2019/questasim/uvm-1.1d/linux_x86_64/uvm_dpi.so
** Warning: License feature 'svverification' will expire in 6 days.
** Warning: License feature 'msimcoverage' will expire in 6 days.
** Warning: (vsim-8634) Code was not compiled with coverage options.
 log -r /* 
coverage save -onexit mem_cov4
run -all
----------------------------------------------------------------
UVM-1.1d
(C) 2007-2013 Mentor Graphics Corporation
(C) 2007-2013 Cadence Design Systems, Inc.
(C) 2006-2013 Synopsys, Inc.
(C) 2011-2013 Cypress Semiconductor Corp.
----------------------------------------------------------------

  ***********       IMPORTANT RELEASE NOTES         ************

  You are using a version of the UVM library that has been compiled
  with `UVM_NO_DEPRECATED undefined.
  See http://www.eda.org/svdb/view.php?id=3313 for more details.

  You are using a version of the UVM library that has been compiled
  with `UVM_OBJECT_MUST_HAVE_CONSTRUCTOR undefined.
  See http://www.eda.org/svdb/view.php?id=3770 for more details.

      (Specify +UVM_NO_RELNOTES to turn off this notice)

UVM_INFO verilog_src/questa_uvm_pkg-1.2/src/questa_uvm_pkg.sv(277) @ 0: reporter [Questa UVM] QUESTA_UVM-1.2.3
UVM_INFO verilog_src/questa_uvm_pkg-1.2/src/questa_uvm_pkg.sv(278) @ 0: reporter [Questa UVM]  questa_uvm::init(+struct)
UVM_INFO @ 0: reporter [RNTST] Running test test3...
UVM_INFO ../rst_agent/ahb_rst_driver.sv(24) @ 0: uvm_test_top.env_h.rst_agt.drvh [ahb_rst_driver] ahb rst driver connect_phase
UVM_INFO @ 0: reporter [UVMTOP] UVM testbench topology:
------------------------------------------------------------------
Name                       Type                        Size  Value
------------------------------------------------------------------
uvm_test_top               test3                       -     @489 
  env_h                    env                         -     @511 
    m_agt[0]               m_agent                     -     @543 
      m_drv                m_driver                    -     @721 
        rsp_port           uvm_analysis_port           -     @736 
        seq_item_port      uvm_seq_item_pull_port      -     @728 
      m_mon                m_monitor                   -     @597 
        monitor_port       uvm_analysis_port           -     @604 
      m_seqr               ma_sequencer                -     @612 
        rsp_export         uvm_analysis_export         -     @619 
        seq_item_export    uvm_seq_item_pull_imp       -     @713 
        arbitration_queue  array                       0     -    
        lock_queue         array                       0     -    
        num_last_reqs      integral                    32    'd1  
        num_last_rsps      integral                    32    'd1  
    rst_agt                ahb_rst_agent               -     @577 
      drvh                 ahb_rst_driver              -     @768 
        rsp_port           uvm_analysis_port           -     @783 
        seq_item_port      uvm_seq_item_pull_port      -     @775 
      monh                 ahb_rst_monitor             -     @753 
        rst_monitor_port   uvm_analysis_port           -     @760 
      seqrh                ahb_rst_sequencer           -     @791 
        rsp_export         uvm_analysis_export         -     @798 
        seq_item_export    uvm_seq_item_pull_imp       -     @892 
        arbitration_queue  array                       0     -    
        lock_queue         array                       0     -    
        num_last_reqs      integral                    32    'd1  
        num_last_rsps      integral                    32    'd1  
    s_agt[0]               s_agent                     -     @554 
      s_drv                s_driver                    -     @1033
        rsp_port           uvm_analysis_port           -     @1048
        seq_item_port      uvm_seq_item_pull_port      -     @1040
      s_mon                s_monitor                   -     @909 
        monitor_port       uvm_analysis_port           -     @916 
      s_seqr               s_sequencer                 -     @924 
        rsp_export         uvm_analysis_export         -     @931 
        seq_item_export    uvm_seq_item_pull_imp       -     @1025
        arbitration_queue  array                       0     -    
        lock_queue         array                       0     -    
        num_last_reqs      integral                    32    'd1  
        num_last_rsps      integral                    32    'd1  
    s_agt[1]               s_agent                     -     @562 
      s_drv                s_driver                    -     @1193
        rsp_port           uvm_analysis_port           -     @1208
        seq_item_port      uvm_seq_item_pull_port      -     @1200
      s_mon                s_monitor                   -     @1069
        monitor_port       uvm_analysis_port           -     @1076
      s_seqr               s_sequencer                 -     @1084
        rsp_export         uvm_analysis_export         -     @1091
        seq_item_export    uvm_seq_item_pull_imp       -     @1185
        arbitration_queue  array                       0     -    
        lock_queue         array                       0     -    
        num_last_reqs      integral                    32    'd1  
        num_last_rsps      integral                    32    'd1  
    s_agt[2]               s_agent                     -     @570 
      s_drv                s_driver                    -     @1353
        rsp_port           uvm_analysis_port           -     @1368
        seq_item_port      uvm_seq_item_pull_port      -     @1360
      s_mon                s_monitor                   -     @1229
        monitor_port       uvm_analysis_port           -     @1236
      s_seqr               s_sequencer                 -     @1244
        rsp_export         uvm_analysis_export         -     @1251
        seq_item_export    uvm_seq_item_pull_imp       -     @1345
        arbitration_queue  array                       0     -    
        lock_queue         array                       0     -    
        num_last_reqs      integral                    32    'd1  
        num_last_rsps      integral                    32    'd1  
    sbh                    scoreboard                  -     @588 
      mst_fifo             uvm_tlm_analysis_fifo #(T)  -     @1388
        analysis_export    uvm_analysis_imp            -     @1427
        get_ap             uvm_analysis_port           -     @1419
        get_peek_export    uvm_get_peek_imp            -     @1403
        put_ap             uvm_analysis_port           -     @1411
        put_export         uvm_put_imp                 -     @1395
      slv_fifo[0]          uvm_tlm_analysis_fifo #(T)  -     @1435
        analysis_export    uvm_analysis_imp            -     @1474
        get_ap             uvm_analysis_port           -     @1466
        get_peek_export    uvm_get_peek_imp            -     @1450
        put_ap             uvm_analysis_port           -     @1458
        put_export         uvm_put_imp                 -     @1442
      slv_fifo[1]          uvm_tlm_analysis_fifo #(T)  -     @1482
        analysis_export    uvm_analysis_imp            -     @1521
        get_ap             uvm_analysis_port           -     @1513
        get_peek_export    uvm_get_peek_imp            -     @1497
        put_ap             uvm_analysis_port           -     @1505
        put_export         uvm_put_imp                 -     @1489
      slv_fifo[2]          uvm_tlm_analysis_fifo #(T)  -     @1529
        analysis_export    uvm_analysis_imp            -     @1568
        get_ap             uvm_analysis_port           -     @1560
        get_peek_export    uvm_get_peek_imp            -     @1544
        put_ap             uvm_analysis_port           -     @1552
        put_export         uvm_put_imp                 -     @1536
------------------------------------------------------------------

UVM_INFO ../slave_agent/slave_driver.sv(40) @ 25: uvm_test_top.env_h.s_agt[2].s_drv [slave driver] slave driver reset  0
UVM_INFO ../slave_agent/slave_driver.sv(46) @ 25: uvm_test_top.env_h.s_agt[2].s_drv [slave driver] slave driver hready 1
UVM_INFO ../master_agent/master_driver.sv(49) @ 45: uvm_test_top.env_h.m_agt[0].m_drv [MASTER DRV] THIS IS AHB DRIVER 
 ------------------------------------------
Name          Type      Size  Value       
------------------------------------------
req           trans     -     @1739       
  HRESETn     integral  1     'd0         
  HBURST      integral  3     'd2         
  HRESP       integral  2     'd0         
  HADDR       integral  32    'h13e98493  
  HTRANS      integral  2     'd1         
  HWDATA      integral  32    'h29faf120  
  HLEN        integral  8     'd4         
  HRDATA      integral  32    'd1756344221
  HSIZE       integral  3     'd0         
  HWRITE      integral  1     'd0         
  HREADY_OUT  integral  1     'd0         
------------------------------------------

UVM_INFO ../master_agent/master_seqs.sv(128) @ 45: uvm_test_top.env_h.m_agt[0].m_seqr@@s1 [WRAP SEQUENCE] DATA FROM THE WRAP SEQUENCE ----------------------------------------
Name          Type      Size  Value     
----------------------------------------
req           trans     -     @1753     
  HRESETn     integral  1     'd0       
  HBURST      integral  3     4         
  HRESP       integral  2     'd0       
  HADDR       integral  32    'hdfe2ccbc
  HTRANS      integral  2     2         
  HWDATA      integral  32    'h16166904
  HLEN        integral  8     'd8       
  HRDATA      integral  32    'd0       
  HSIZE       integral  3     'd2       
  HWRITE      integral  1     1         
  HREADY_OUT  integral  1     'd0       
----------------------------------------

UVM_INFO ../master_agent/master_driver.sv(49) @ 55: uvm_test_top.env_h.m_agt[0].m_drv [MASTER DRV] THIS IS AHB DRIVER 
 ----------------------------------------
Name          Type      Size  Value     
----------------------------------------
req           trans     -     @1753     
  HRESETn     integral  1     'd0       
  HBURST      integral  3     4         
  HRESP       integral  2     'd0       
  HADDR       integral  32    'hdfe2ccbc
  HTRANS      integral  2     2         
  HWDATA      integral  32    'h16166904
  HLEN        integral  8     'd8       
  HRDATA      integral  32    'd0       
  HSIZE       integral  3     'd2       
  HWRITE      integral  1     1         
  HREADY_OUT  integral  1     'd0       
----------------------------------------

                  55MM @@@@@@@@@@@@@@@@@@@@@@@  - z
UVM_INFO ../master_agent/master_monitor.sv(100) @ 55: uvm_test_top.env_h.m_agt[0].m_mon [master monitor] Printing from master monitor 
 ----------------------------------------
Name          Type      Size  Value     
----------------------------------------
txn           trans     -     @1591     
  HRESETn     integral  1     'd0       
  HBURST      integral  3     'd2       
  HRESP       integral  2     'd0       
  HADDR       integral  32    'h13e98493
  HTRANS      integral  2     'd1       
  HWDATA      integral  32    'h0       
  HLEN        integral  8     'd0       
  HRDATA      integral  32    'd0       
  HSIZE       integral  3     'd0       
  HWRITE      integral  1     'd0       
  HREADY_OUT  integral  1     'd0       
----------------------------------------

master monitor read operation mem[334070931]=00000000
                  55slave monitor read operation mem[13e98493]= 00000012
UVM_INFO ../slave_agent/slave_monitor.sv(95) @ 55: uvm_test_top.env_h.s_agt[2].s_mon [slave monitor] Printing from slave monitor 
 ----------------------------------------
Name          Type      Size  Value     
----------------------------------------
txn           trans     -     @1719     
  HRESETn     integral  1     'd0       
  HBURST      integral  3     'd0       
  HRESP       integral  2     'd0       
  HADDR       integral  32    'h13e98493
  HTRANS      integral  2     'd0       
  HWDATA      integral  32    'h0       
  HLEN        integral  8     'd0       
  HRDATA      integral  32    'd0       
  HSIZE       integral  3     'd0       
  HWRITE      integral  1     'd0       
  HREADY_OUT  integral  1     'd0       
----------------------------------------

                  55slave haadr = 13e98493 
 master addr = 13e98493
UVM_INFO ../tb/scoreboard.sv(129) @ 55: uvm_test_top.env_h.sbh [SB] Address compared successfully
UVM_INFO ../tb/scoreboard.sv(153) @ 55: uvm_test_top.env_h.sbh [SB] read data mismatched
UVM_INFO ../master_agent/master_driver.sv(49) @ 65: uvm_test_top.env_h.m_agt[0].m_drv [MASTER DRV] THIS IS AHB DRIVER 
 ----------------------------------------
Name          Type      Size  Value     
----------------------------------------
req           trans     -     @1753     
  HRESETn     integral  1     'd0       
  HBURST      integral  3     4         
  HRESP       integral  2     'd0       
  HADDR       integral  32    'hdfe2cca0
  HTRANS      integral  2     3         
  HWDATA      integral  32    'h7cd7aeec
  HLEN        integral  8     'd8       
  HRDATA      integral  32    'd0       
  HSIZE       integral  3     'd2       
  HWRITE      integral  1     1         
  HREADY_OUT  integral  1     'd0       
----------------------------------------

                  65MM @@@@@@@@@@@@@@@@@@@@@@@  - 370567428
UVM_INFO ../master_agent/master_monitor.sv(100) @ 65: uvm_test_top.env_h.m_agt[0].m_mon [master monitor] Printing from master monitor 
 ----------------------------------------
Name          Type      Size  Value     
----------------------------------------
txn           trans     -     @1757     
  HRESETn     integral  1     'd0       
  HBURST      integral  3     4         
  HRESP       integral  2     'd0       
  HADDR       integral  32    'hdfe2ccbc
  HTRANS      integral  2     2         
  HWDATA      integral  32    'h0       
  HLEN        integral  8     'd0       
  HRDATA      integral  32    'd0       
  HSIZE       integral  3     'd2       
  HWRITE      integral  1     1         
  HREADY_OUT  integral  1     'd0       
----------------------------------------

                  65master monitor write operation mem[dfe2ccbc]=16166904
                  65slave monitor write operation mem[dfe2ccbc]= 16166904
UVM_INFO ../slave_agent/slave_monitor.sv(95) @ 65: uvm_test_top.env_h.s_agt[2].s_mon [slave monitor] Printing from slave monitor 
 ----------------------------------------
Name          Type      Size  Value     
----------------------------------------
txn           trans     -     @1761     
  HRESETn     integral  1     'd0       
  HBURST      integral  3     'd0       
  HRESP       integral  2     'd0       
  HADDR       integral  32    'hdfe2ccbc
  HTRANS      integral  2     'd0       
  HWDATA      integral  32    'h0       
  HLEN        integral  8     'd0       
  HRDATA      integral  32    'd0       
  HSIZE       integral  3     'd2       
  HWRITE      integral  1     1         
  HREADY_OUT  integral  1     'd0       
----------------------------------------

                  65slave haadr = dfe2ccbc 
 master addr = dfe2ccbc
UVM_INFO ../tb/scoreboard.sv(129) @ 65: uvm_test_top.env_h.sbh [SB] Address compared successfully
UVM_INFO ../tb/scoreboard.sv(135) @ 65: uvm_test_top.env_h.sbh [SB] write data matched successfully
UVM_INFO ../master_agent/master_driver.sv(49) @ 75: uvm_test_top.env_h.m_agt[0].m_drv [MASTER DRV] THIS IS AHB DRIVER 
 ----------------------------------------
Name          Type      Size  Value     
----------------------------------------
req           trans     -     @1753     
  HRESETn     integral  1     'd0       
  HBURST      integral  3     4         
  HRESP       integral  2     'd0       
  HADDR       integral  32    'hdfe2cca4
  HTRANS      integral  2     3         
  HWDATA      integral  32    'h71a03972
  HLEN        integral  8     'd8       
  HRDATA      integral  32    'd0       
  HSIZE       integral  3     'd2       
  HWRITE      integral  1     1         
  HREADY_OUT  integral  1     'd0       
----------------------------------------

                  75MM @@@@@@@@@@@@@@@@@@@@@@@  - 2094509804
UVM_INFO ../master_agent/master_monitor.sv(100) @ 75: uvm_test_top.env_h.m_agt[0].m_mon [master monitor] Printing from master monitor 
 ----------------------------------------
Name          Type      Size  Value     
----------------------------------------
txn           trans     -     @1765     
  HRESETn     integral  1     'd0       
  HBURST      integral  3     4         
  HRESP       integral  2     'd0       
  HADDR       integral  32    'hdfe2cca0
  HTRANS      integral  2     3         
  HWDATA      integral  32    'h0       
  HLEN        integral  8     'd0       
  HRDATA      integral  32    'd0       
  HSIZE       integral  3     'd2       
  HWRITE      integral  1     1         
  HREADY_OUT  integral  1     'd0       
----------------------------------------

                  75master monitor write operation mem[dfe2cca0]=7cd7aeec
                  75slave monitor write operation mem[dfe2cca0]= 7cd7aeec
UVM_INFO ../slave_agent/slave_monitor.sv(95) @ 75: uvm_test_top.env_h.s_agt[2].s_mon [slave monitor] Printing from slave monitor 
 ----------------------------------------
Name          Type      Size  Value     
----------------------------------------
txn           trans     -     @1769     
  HRESETn     integral  1     'd0       
  HBURST      integral  3     'd0       
  HRESP       integral  2     'd0       
  HADDR       integral  32    'hdfe2cca0
  HTRANS      integral  2     'd0       
  HWDATA      integral  32    'h0       
  HLEN        integral  8     'd0       
  HRDATA      integral  32    'd0       
  HSIZE       integral  3     'd2       
  HWRITE      integral  1     1         
  HREADY_OUT  integral  1     'd0       
----------------------------------------

                  75slave haadr = dfe2cca0 
 master addr = dfe2cca0
UVM_INFO ../tb/scoreboard.sv(129) @ 75: uvm_test_top.env_h.sbh [SB] Address compared successfully
UVM_INFO ../tb/scoreboard.sv(135) @ 75: uvm_test_top.env_h.sbh [SB] write data matched successfully
UVM_INFO ../master_agent/master_driver.sv(49) @ 85: uvm_test_top.env_h.m_agt[0].m_drv [MASTER DRV] THIS IS AHB DRIVER 
 ----------------------------------------
Name          Type      Size  Value     
----------------------------------------
req           trans     -     @1753     
  HRESETn     integral  1     'd0       
  HBURST      integral  3     4         
  HRESP       integral  2     'd0       
  HADDR       integral  32    'hdfe2cca8
  HTRANS      integral  2     3         
  HWDATA      integral  32    'hed68b042
  HLEN        integral  8     'd8       
  HRDATA      integral  32    'd0       
  HSIZE       integral  3     'd2       
  HWRITE      integral  1     1         
  HREADY_OUT  integral  1     'd0       
----------------------------------------

                  85MM @@@@@@@@@@@@@@@@@@@@@@@  - 1906325874
UVM_INFO ../master_agent/master_monitor.sv(100) @ 85: uvm_test_top.env_h.m_agt[0].m_mon [master monitor] Printing from master monitor 
 ----------------------------------------
Name          Type      Size  Value     
----------------------------------------
txn           trans     -     @1773     
  HRESETn     integral  1     'd0       
  HBURST      integral  3     4         
  HRESP       integral  2     'd0       
  HADDR       integral  32    'hdfe2cca4
  HTRANS      integral  2     3         
  HWDATA      integral  32    'h0       
  HLEN        integral  8     'd0       
  HRDATA      integral  32    'd0       
  HSIZE       integral  3     'd2       
  HWRITE      integral  1     1         
  HREADY_OUT  integral  1     'd0       
----------------------------------------

                  85master monitor write operation mem[dfe2cca4]=71a03972
                  85slave monitor write operation mem[dfe2cca4]= 71a03972
UVM_INFO ../slave_agent/slave_monitor.sv(95) @ 85: uvm_test_top.env_h.s_agt[2].s_mon [slave monitor] Printing from slave monitor 
 ----------------------------------------
Name          Type      Size  Value     
----------------------------------------
txn           trans     -     @1777     
  HRESETn     integral  1     'd0       
  HBURST      integral  3     'd0       
  HRESP       integral  2     'd0       
  HADDR       integral  32    'hdfe2cca4
  HTRANS      integral  2     'd0       
  HWDATA      integral  32    'h0       
  HLEN        integral  8     'd0       
  HRDATA      integral  32    'd0       
  HSIZE       integral  3     'd2       
  HWRITE      integral  1     1         
  HREADY_OUT  integral  1     'd0       
----------------------------------------

                  85slave haadr = dfe2cca4 
 master addr = dfe2cca4
UVM_INFO ../tb/scoreboard.sv(129) @ 85: uvm_test_top.env_h.sbh [SB] Address compared successfully
UVM_INFO ../tb/scoreboard.sv(135) @ 85: uvm_test_top.env_h.sbh [SB] write data matched successfully
UVM_INFO ../master_agent/master_driver.sv(49) @ 95: uvm_test_top.env_h.m_agt[0].m_drv [MASTER DRV] THIS IS AHB DRIVER 
 ----------------------------------------
Name          Type      Size  Value     
----------------------------------------
req           trans     -     @1753     
  HRESETn     integral  1     'd0       
  HBURST      integral  3     4         
  HRESP       integral  2     'd0       
  HADDR       integral  32    'hdfe2ccac
  HTRANS      integral  2     3         
  HWDATA      integral  32    'h40372a75
  HLEN        integral  8     'd8       
  HRDATA      integral  32    'd0       
  HSIZE       integral  3     'd2       
  HWRITE      integral  1     1         
  HREADY_OUT  integral  1     'd0       
----------------------------------------

                  95MM @@@@@@@@@@@@@@@@@@@@@@@  - 3983061058
UVM_INFO ../master_agent/master_monitor.sv(100) @ 95: uvm_test_top.env_h.m_agt[0].m_mon [master monitor] Printing from master monitor 
 ----------------------------------------
Name          Type      Size  Value     
----------------------------------------
txn           trans     -     @1781     
  HRESETn     integral  1     'd0       
  HBURST      integral  3     4         
  HRESP       integral  2     'd0       
  HADDR       integral  32    'hdfe2cca8
  HTRANS      integral  2     3         
  HWDATA      integral  32    'h0       
  HLEN        integral  8     'd0       
  HRDATA      integral  32    'd0       
  HSIZE       integral  3     'd2       
  HWRITE      integral  1     1         
  HREADY_OUT  integral  1     'd0       
----------------------------------------

                  95master monitor write operation mem[dfe2cca8]=ed68b042
                  95slave monitor write operation mem[dfe2cca8]= ed68b042
UVM_INFO ../slave_agent/slave_monitor.sv(95) @ 95: uvm_test_top.env_h.s_agt[2].s_mon [slave monitor] Printing from slave monitor 
 ----------------------------------------
Name          Type      Size  Value     
----------------------------------------
txn           trans     -     @1785     
  HRESETn     integral  1     'd0       
  HBURST      integral  3     'd0       
  HRESP       integral  2     'd0       
  HADDR       integral  32    'hdfe2cca8
  HTRANS      integral  2     'd0       
  HWDATA      integral  32    'h0       
  HLEN        integral  8     'd0       
  HRDATA      integral  32    'd0       
  HSIZE       integral  3     'd2       
  HWRITE      integral  1     1         
  HREADY_OUT  integral  1     'd0       
----------------------------------------

                  95slave haadr = dfe2cca8 
 master addr = dfe2cca8
UVM_INFO ../tb/scoreboard.sv(129) @ 95: uvm_test_top.env_h.sbh [SB] Address compared successfully
UVM_INFO ../tb/scoreboard.sv(135) @ 95: uvm_test_top.env_h.sbh [SB] write data matched successfully
UVM_INFO ../master_agent/master_driver.sv(49) @ 105: uvm_test_top.env_h.m_agt[0].m_drv [MASTER DRV] THIS IS AHB DRIVER 
 ----------------------------------------
Name          Type      Size  Value     
----------------------------------------
req           trans     -     @1753     
  HRESETn     integral  1     'd0       
  HBURST      integral  3     4         
  HRESP       integral  2     'd0       
  HADDR       integral  32    'hdfe2ccb0
  HTRANS      integral  2     3         
  HWDATA      integral  32    'h806d57fc
  HLEN        integral  8     'd8       
  HRDATA      integral  32    'd0       
  HSIZE       integral  3     'd2       
  HWRITE      integral  1     1         
  HREADY_OUT  integral  1     'd0       
----------------------------------------

                 105MM @@@@@@@@@@@@@@@@@@@@@@@  - 1077357173
UVM_INFO ../master_agent/master_monitor.sv(100) @ 105: uvm_test_top.env_h.m_agt[0].m_mon [master monitor] Printing from master monitor 
 ----------------------------------------
Name          Type      Size  Value     
----------------------------------------
txn           trans     -     @1789     
  HRESETn     integral  1     'd0       
  HBURST      integral  3     4         
  HRESP       integral  2     'd0       
  HADDR       integral  32    'hdfe2ccac
  HTRANS      integral  2     3         
  HWDATA      integral  32    'h0       
  HLEN        integral  8     'd0       
  HRDATA      integral  32    'd0       
  HSIZE       integral  3     'd2       
  HWRITE      integral  1     1         
  HREADY_OUT  integral  1     'd0       
----------------------------------------

                 105master monitor write operation mem[dfe2ccac]=40372a75
                 105slave monitor write operation mem[dfe2ccac]= 40372a75
UVM_INFO ../slave_agent/slave_monitor.sv(95) @ 105: uvm_test_top.env_h.s_agt[2].s_mon [slave monitor] Printing from slave monitor 
 ----------------------------------------
Name          Type      Size  Value     
----------------------------------------
txn           trans     -     @1793     
  HRESETn     integral  1     'd0       
  HBURST      integral  3     'd0       
  HRESP       integral  2     'd0       
  HADDR       integral  32    'hdfe2ccac
  HTRANS      integral  2     'd0       
  HWDATA      integral  32    'h0       
  HLEN        integral  8     'd0       
  HRDATA      integral  32    'd0       
  HSIZE       integral  3     'd2       
  HWRITE      integral  1     1         
  HREADY_OUT  integral  1     'd0       
----------------------------------------

                 105slave haadr = dfe2ccac 
 master addr = dfe2ccac
UVM_INFO ../tb/scoreboard.sv(129) @ 105: uvm_test_top.env_h.sbh [SB] Address compared successfully
UVM_INFO ../tb/scoreboard.sv(135) @ 105: uvm_test_top.env_h.sbh [SB] write data matched successfully
UVM_INFO ../master_agent/master_driver.sv(49) @ 115: uvm_test_top.env_h.m_agt[0].m_drv [MASTER DRV] THIS IS AHB DRIVER 
 ----------------------------------------
Name          Type      Size  Value     
----------------------------------------
req           trans     -     @1753     
  HRESETn     integral  1     'd0       
  HBURST      integral  3     4         
  HRESP       integral  2     'd0       
  HADDR       integral  32    'hdfe2ccb4
  HTRANS      integral  2     3         
  HWDATA      integral  32    'hcadc268b
  HLEN        integral  8     'd8       
  HRDATA      integral  32    'd0       
  HSIZE       integral  3     'd2       
  HWRITE      integral  1     1         
  HREADY_OUT  integral  1     'd0       
----------------------------------------

                 115MM @@@@@@@@@@@@@@@@@@@@@@@  - 2154649596
UVM_INFO ../master_agent/master_monitor.sv(100) @ 115: uvm_test_top.env_h.m_agt[0].m_mon [master monitor] Printing from master monitor 
 ----------------------------------------
Name          Type      Size  Value     
----------------------------------------
txn           trans     -     @1797     
  HRESETn     integral  1     'd0       
  HBURST      integral  3     4         
  HRESP       integral  2     'd0       
  HADDR       integral  32    'hdfe2ccb0
  HTRANS      integral  2     3         
  HWDATA      integral  32    'h0       
  HLEN        integral  8     'd0       
  HRDATA      integral  32    'd0       
  HSIZE       integral  3     'd2       
  HWRITE      integral  1     1         
  HREADY_OUT  integral  1     'd0       
----------------------------------------

                 115master monitor write operation mem[dfe2ccb0]=806d57fc
                 115slave monitor write operation mem[dfe2ccb0]= 806d57fc
UVM_INFO ../slave_agent/slave_monitor.sv(95) @ 115: uvm_test_top.env_h.s_agt[2].s_mon [slave monitor] Printing from slave monitor 
 ----------------------------------------
Name          Type      Size  Value     
----------------------------------------
txn           trans     -     @1801     
  HRESETn     integral  1     'd0       
  HBURST      integral  3     'd0       
  HRESP       integral  2     'd0       
  HADDR       integral  32    'hdfe2ccb0
  HTRANS      integral  2     'd0       
  HWDATA      integral  32    'h0       
  HLEN        integral  8     'd0       
  HRDATA      integral  32    'd0       
  HSIZE       integral  3     'd2       
  HWRITE      integral  1     1         
  HREADY_OUT  integral  1     'd0       
----------------------------------------

                 115slave haadr = dfe2ccb0 
 master addr = dfe2ccb0
UVM_INFO ../tb/scoreboard.sv(129) @ 115: uvm_test_top.env_h.sbh [SB] Address compared successfully
UVM_INFO ../tb/scoreboard.sv(135) @ 115: uvm_test_top.env_h.sbh [SB] write data matched successfully
UVM_INFO ../master_agent/master_driver.sv(49) @ 125: uvm_test_top.env_h.m_agt[0].m_drv [MASTER DRV] THIS IS AHB DRIVER 
 ----------------------------------------
Name          Type      Size  Value     
----------------------------------------
req           trans     -     @1753     
  HRESETn     integral  1     'd0       
  HBURST      integral  3     4         
  HRESP       integral  2     'd0       
  HADDR       integral  32    'hdfe2ccb8
  HTRANS      integral  2     3         
  HWDATA      integral  32    'hd2e749a8
  HLEN        integral  8     'd8       
  HRDATA      integral  32    'd0       
  HSIZE       integral  3     'd2       
  HWRITE      integral  1     1         
  HREADY_OUT  integral  1     'd0       
----------------------------------------

                 125MM @@@@@@@@@@@@@@@@@@@@@@@  - 3403425419
UVM_INFO ../master_agent/master_monitor.sv(100) @ 125: uvm_test_top.env_h.m_agt[0].m_mon [master monitor] Printing from master monitor 
 ----------------------------------------
Name          Type      Size  Value     
----------------------------------------
txn           trans     -     @1805     
  HRESETn     integral  1     'd0       
  HBURST      integral  3     4         
  HRESP       integral  2     'd0       
  HADDR       integral  32    'hdfe2ccb4
  HTRANS      integral  2     3         
  HWDATA      integral  32    'h0       
  HLEN        integral  8     'd0       
  HRDATA      integral  32    'd0       
  HSIZE       integral  3     'd2       
  HWRITE      integral  1     1         
  HREADY_OUT  integral  1     'd0       
----------------------------------------

                 125master monitor write operation mem[dfe2ccb4]=cadc268b
                 125slave monitor write operation mem[dfe2ccb4]= cadc268b
UVM_INFO ../slave_agent/slave_monitor.sv(95) @ 125: uvm_test_top.env_h.s_agt[2].s_mon [slave monitor] Printing from slave monitor 
 ----------------------------------------
Name          Type      Size  Value     
----------------------------------------
txn           trans     -     @1809     
  HRESETn     integral  1     'd0       
  HBURST      integral  3     'd0       
  HRESP       integral  2     'd0       
  HADDR       integral  32    'hdfe2ccb4
  HTRANS      integral  2     'd0       
  HWDATA      integral  32    'h0       
  HLEN        integral  8     'd0       
  HRDATA      integral  32    'd0       
  HSIZE       integral  3     'd2       
  HWRITE      integral  1     1         
  HREADY_OUT  integral  1     'd0       
----------------------------------------

                 125slave haadr = dfe2ccb4 
 master addr = dfe2ccb4
UVM_INFO ../tb/scoreboard.sv(129) @ 125: uvm_test_top.env_h.sbh [SB] Address compared successfully
UVM_INFO ../tb/scoreboard.sv(135) @ 125: uvm_test_top.env_h.sbh [SB] write data matched successfully
                 135MM @@@@@@@@@@@@@@@@@@@@@@@  - 3538373032
UVM_INFO ../master_agent/master_monitor.sv(100) @ 135: uvm_test_top.env_h.m_agt[0].m_mon [master monitor] Printing from master monitor 
 ----------------------------------------
Name          Type      Size  Value     
----------------------------------------
txn           trans     -     @1813     
  HRESETn     integral  1     'd0       
  HBURST      integral  3     4         
  HRESP       integral  2     'd0       
  HADDR       integral  32    'hdfe2ccb8
  HTRANS      integral  2     3         
  HWDATA      integral  32    'h0       
  HLEN        integral  8     'd0       
  HRDATA      integral  32    'd0       
  HSIZE       integral  3     'd2       
  HWRITE      integral  1     1         
  HREADY_OUT  integral  1     'd0       
----------------------------------------

                 135master monitor write operation mem[dfe2ccb8]=d2e749a8
                 135slave monitor write operation mem[dfe2ccb8]= d2e749a8
UVM_INFO ../slave_agent/slave_monitor.sv(95) @ 135: uvm_test_top.env_h.s_agt[2].s_mon [slave monitor] Printing from slave monitor 
 ----------------------------------------
Name          Type      Size  Value     
----------------------------------------
txn           trans     -     @1817     
  HRESETn     integral  1     'd0       
  HBURST      integral  3     'd0       
  HRESP       integral  2     'd0       
  HADDR       integral  32    'hdfe2ccb8
  HTRANS      integral  2     'd0       
  HWDATA      integral  32    'h0       
  HLEN        integral  8     'd0       
  HRDATA      integral  32    'd0       
  HSIZE       integral  3     'd2       
  HWRITE      integral  1     1         
  HREADY_OUT  integral  1     'd0       
----------------------------------------

                 135slave haadr = dfe2ccb8 
 master addr = dfe2ccb8
UVM_INFO ../tb/scoreboard.sv(129) @ 135: uvm_test_top.env_h.sbh [SB] Address compared successfully
UVM_INFO ../tb/scoreboard.sv(135) @ 135: uvm_test_top.env_h.sbh [SB] write data matched successfully
                 145MM @@@@@@@@@@@@@@@@@@@@@@@  - 3538373032
UVM_INFO ../master_agent/master_monitor.sv(100) @ 145: uvm_test_top.env_h.m_agt[0].m_mon [master monitor] Printing from master monitor 
 ----------------------------------------
Name          Type      Size  Value     
----------------------------------------
txn           trans     -     @1825     
  HRESETn     integral  1     'd0       
  HBURST      integral  3     4         
  HRESP       integral  2     'd0       
  HADDR       integral  32    'hdfe2ccb8
  HTRANS      integral  2     3         
  HWDATA      integral  32    'h0       
  HLEN        integral  8     'd0       
  HRDATA      integral  32    'd0       
  HSIZE       integral  3     'd2       
  HWRITE      integral  1     1         
  HREADY_OUT  integral  1     'd0       
----------------------------------------

                 145master monitor write operation mem[dfe2ccb8]=d2e749a8
                 145slave monitor write operation mem[dfe2ccb8]= d2e749a8
UVM_INFO ../slave_agent/slave_monitor.sv(95) @ 145: uvm_test_top.env_h.s_agt[2].s_mon [slave monitor] Printing from slave monitor 
 ----------------------------------------
Name          Type      Size  Value     
----------------------------------------
txn           trans     -     @1829     
  HRESETn     integral  1     'd0       
  HBURST      integral  3     'd0       
  HRESP       integral  2     'd0       
  HADDR       integral  32    'hdfe2ccb8
  HTRANS      integral  2     'd0       
  HWDATA      integral  32    'h0       
  HLEN        integral  8     'd0       
  HRDATA      integral  32    'd0       
  HSIZE       integral  3     'd2       
  HWRITE      integral  1     1         
  HREADY_OUT  integral  1     'd0       
----------------------------------------

                 145slave haadr = dfe2ccb8 
 master addr = dfe2ccb8
UVM_INFO ../tb/scoreboard.sv(129) @ 145: uvm_test_top.env_h.sbh [SB] Address compared successfully
UVM_INFO ../tb/scoreboard.sv(135) @ 145: uvm_test_top.env_h.sbh [SB] write data matched successfully
                 155MM @@@@@@@@@@@@@@@@@@@@@@@  - 3538373032
UVM_INFO ../master_agent/master_monitor.sv(100) @ 155: uvm_test_top.env_h.m_agt[0].m_mon [master monitor] Printing from master monitor 
 ----------------------------------------
Name          Type      Size  Value     
----------------------------------------
txn           trans     -     @1833     
  HRESETn     integral  1     'd0       
  HBURST      integral  3     4         
  HRESP       integral  2     'd0       
  HADDR       integral  32    'hdfe2ccb8
  HTRANS      integral  2     3         
  HWDATA      integral  32    'h0       
  HLEN        integral  8     'd0       
  HRDATA      integral  32    'd0       
  HSIZE       integral  3     'd2       
  HWRITE      integral  1     1         
  HREADY_OUT  integral  1     'd0       
----------------------------------------

                 155master monitor write operation mem[dfe2ccb8]=d2e749a8
                 155slave monitor write operation mem[dfe2ccb8]= d2e749a8
UVM_INFO ../slave_agent/slave_monitor.sv(95) @ 155: uvm_test_top.env_h.s_agt[2].s_mon [slave monitor] Printing from slave monitor 
 ----------------------------------------
Name          Type      Size  Value     
----------------------------------------
txn           trans     -     @1837     
  HRESETn     integral  1     'd0       
  HBURST      integral  3     'd0       
  HRESP       integral  2     'd0       
  HADDR       integral  32    'hdfe2ccb8
  HTRANS      integral  2     'd0       
  HWDATA      integral  32    'h0       
  HLEN        integral  8     'd0       
  HRDATA      integral  32    'd0       
  HSIZE       integral  3     'd2       
  HWRITE      integral  1     1         
  HREADY_OUT  integral  1     'd0       
----------------------------------------

                 155slave haadr = dfe2ccb8 
 master addr = dfe2ccb8
UVM_INFO ../tb/scoreboard.sv(129) @ 155: uvm_test_top.env_h.sbh [SB] Address compared successfully
UVM_INFO ../tb/scoreboard.sv(135) @ 155: uvm_test_top.env_h.sbh [SB] write data matched successfully
UVM_INFO ../slave_agent/slave_driver.sv(40) @ 155: uvm_test_top.env_h.s_agt[0].s_drv [slave driver] slave driver reset  0
UVM_INFO ../slave_agent/slave_driver.sv(46) @ 155: uvm_test_top.env_h.s_agt[0].s_drv [slave driver] slave driver hready 1
                 165MM @@@@@@@@@@@@@@@@@@@@@@@  - 3538373032
UVM_INFO ../master_agent/master_monitor.sv(100) @ 165: uvm_test_top.env_h.m_agt[0].m_mon [master monitor] Printing from master monitor 
 ----------------------------------------
Name          Type      Size  Value     
----------------------------------------
txn           trans     -     @1841     
  HRESETn     integral  1     'd0       
  HBURST      integral  3     4         
  HRESP       integral  2     'd0       
  HADDR       integral  32    'hdfe2ccb8
  HTRANS      integral  2     3         
  HWDATA      integral  32    'h0       
  HLEN        integral  8     'd0       
  HRDATA      integral  32    'd0       
  HSIZE       integral  3     'd2       
  HWRITE      integral  1     1         
  HREADY_OUT  integral  1     'd0       
----------------------------------------

                 165master monitor write operation mem[dfe2ccb8]=d2e749a8
                 165slave monitor write operation mem[dfe2ccb8]= d2e749a8
UVM_INFO ../slave_agent/slave_monitor.sv(95) @ 165: uvm_test_top.env_h.s_agt[2].s_mon [slave monitor] Printing from slave monitor 
 ----------------------------------------
Name          Type      Size  Value     
----------------------------------------
txn           trans     -     @1845     
  HRESETn     integral  1     'd0       
  HBURST      integral  3     'd0       
  HRESP       integral  2     'd0       
  HADDR       integral  32    'hdfe2ccb8
  HTRANS      integral  2     'd0       
  HWDATA      integral  32    'h0       
  HLEN        integral  8     'd0       
  HRDATA      integral  32    'd0       
  HSIZE       integral  3     'd2       
  HWRITE      integral  1     1         
  HREADY_OUT  integral  1     'd0       
----------------------------------------

                 165slave haadr = dfe2ccb8 
 master addr = dfe2ccb8
UVM_INFO ../tb/scoreboard.sv(129) @ 165: uvm_test_top.env_h.sbh [SB] Address compared successfully
UVM_INFO ../tb/scoreboard.sv(135) @ 165: uvm_test_top.env_h.sbh [SB] write data matched successfully
UVM_INFO ../master_agent/master_driver.sv(49) @ 175: uvm_test_top.env_h.m_agt[0].m_drv [MASTER DRV] THIS IS AHB DRIVER 
 ----------------------------------------
Name          Type      Size  Value     
----------------------------------------
req           trans     -     @1855     
  HRESETn     integral  1     'd0       
  HBURST      integral  3     6         
  HRESP       integral  2     'd0       
  HADDR       integral  32    'hb807698 
  HTRANS      integral  2     'd1       
  HWDATA      integral  32    'h135734e7
  HLEN        integral  8     'd16      
  HRDATA      integral  32    3620144156
  HSIZE       integral  3     'd1       
  HWRITE      integral  1     'd0       
  HREADY_OUT  integral  1     'd0       
----------------------------------------

                 175MM @@@@@@@@@@@@@@@@@@@@@@@  - 3538373032
UVM_INFO ../master_agent/master_monitor.sv(100) @ 175: uvm_test_top.env_h.m_agt[0].m_mon [master monitor] Printing from master monitor 
 ----------------------------------------
Name          Type      Size  Value     
----------------------------------------
txn           trans     -     @1863     
  HRESETn     integral  1     'd0       
  HBURST      integral  3     4         
  HRESP       integral  2     'd0       
  HADDR       integral  32    'hdfe2ccb8
  HTRANS      integral  2     3         
  HWDATA      integral  32    'h0       
  HLEN        integral  8     'd0       
  HRDATA      integral  32    'd0       
  HSIZE       integral  3     'd2       
  HWRITE      integral  1     1         
  HREADY_OUT  integral  1     'd0       
----------------------------------------

                 175master monitor write operation mem[dfe2ccb8]=d2e749a8
                 175slave monitor write operation mem[dfe2ccb8]= d2e749a8
UVM_INFO ../slave_agent/slave_monitor.sv(95) @ 175: uvm_test_top.env_h.s_agt[2].s_mon [slave monitor] Printing from slave monitor 
 ----------------------------------------
Name          Type      Size  Value     
----------------------------------------
txn           trans     -     @1867     
  HRESETn     integral  1     'd0       
  HBURST      integral  3     'd0       
  HRESP       integral  2     'd0       
  HADDR       integral  32    'hdfe2ccb8
  HTRANS      integral  2     'd0       
  HWDATA      integral  32    'h0       
  HLEN        integral  8     'd0       
  HRDATA      integral  32    'd0       
  HSIZE       integral  3     'd2       
  HWRITE      integral  1     1         
  HREADY_OUT  integral  1     'd0       
----------------------------------------

                 175slave monitor write operation mem[dfe2ccb8]= d2e749a8
UVM_INFO ../slave_agent/slave_monitor.sv(95) @ 175: uvm_test_top.env_h.s_agt[0].s_mon [slave monitor] Printing from slave monitor 
 ----------------------------------------
Name          Type      Size  Value     
----------------------------------------
txn           trans     -     @1727     
  HRESETn     integral  1     'd0       
  HBURST      integral  3     'd0       
  HRESP       integral  2     'd0       
  HADDR       integral  32    'hdfe2ccb8
  HTRANS      integral  2     'd0       
  HWDATA      integral  32    'h0       
  HLEN        integral  8     'd0       
  HRDATA      integral  32    'd0       
  HSIZE       integral  3     'd2       
  HWRITE      integral  1     1         
  HREADY_OUT  integral  1     'd0       
----------------------------------------

                 175slave haadr = dfe2ccb8 
 master addr = dfe2ccb8
UVM_INFO ../tb/scoreboard.sv(129) @ 175: uvm_test_top.env_h.sbh [SB] Address compared successfully
UVM_INFO ../tb/scoreboard.sv(135) @ 175: uvm_test_top.env_h.sbh [SB] write data matched successfully
UVM_INFO ../master_agent/master_seqs.sv(128) @ 175: uvm_test_top.env_h.m_agt[0].m_seqr@@s1 [WRAP SEQUENCE] DATA FROM THE WRAP SEQUENCE ----------------------------------------
Name          Type      Size  Value     
----------------------------------------
req           trans     -     @1888     
  HRESETn     integral  1     'd0       
  HBURST      integral  3     6         
  HRESP       integral  2     'd0       
  HADDR       integral  32    'h608f11aa
  HTRANS      integral  2     2         
  HWDATA      integral  32    'h11608b94
  HLEN        integral  8     'd16      
  HRDATA      integral  32    'd0       
  HSIZE       integral  3     'd1       
  HWRITE      integral  1     1         
  HREADY_OUT  integral  1     'd0       
----------------------------------------

UVM_INFO ../master_agent/master_driver.sv(49) @ 185: uvm_test_top.env_h.m_agt[0].m_drv [MASTER DRV] THIS IS AHB DRIVER 
 ----------------------------------------
Name          Type      Size  Value     
----------------------------------------
req           trans     -     @1888     
  HRESETn     integral  1     'd0       
  HBURST      integral  3     6         
  HRESP       integral  2     'd0       
  HADDR       integral  32    'h608f11aa
  HTRANS      integral  2     2         
  HWDATA      integral  32    'h11608b94
  HLEN        integral  8     'd16      
  HRDATA      integral  32    'd0       
  HSIZE       integral  3     'd1       
  HWRITE      integral  1     1         
  HREADY_OUT  integral  1     'd0       
----------------------------------------

                 185MM @@@@@@@@@@@@@@@@@@@@@@@  - 3538373032
UVM_INFO ../master_agent/master_monitor.sv(100) @ 185: uvm_test_top.env_h.m_agt[0].m_mon [master monitor] Printing from master monitor 
 ---------------------------------------
Name          Type      Size  Value    
---------------------------------------
txn           trans     -     @1876    
  HRESETn     integral  1     'd0      
  HBURST      integral  3     6        
  HRESP       integral  2     'd0      
  HADDR       integral  32    'hb807698
  HTRANS      integral  2     'd1      
  HWDATA      integral  32    'h0      
  HLEN        integral  8     'd0      
  HRDATA      integral  32    'd0      
  HSIZE       integral  3     'd1      
  HWRITE      integral  1     'd0      
  HREADY_OUT  integral  1     'd0      
---------------------------------------

master monitor read operation mem[192968344]=00000001
                 185slave monitor read operation mem[b807698]= 00003524
UVM_INFO ../slave_agent/slave_monitor.sv(95) @ 185: uvm_test_top.env_h.s_agt[2].s_mon [slave monitor] Printing from slave monitor 
 ---------------------------------------
Name          Type      Size  Value    
---------------------------------------
txn           trans     -     @1880    
  HRESETn     integral  1     'd0      
  HBURST      integral  3     'd0      
  HRESP       integral  2     'd0      
  HADDR       integral  32    'hb807698
  HTRANS      integral  2     'd0      
  HWDATA      integral  32    'h0      
  HLEN        integral  8     'd0      
  HRDATA      integral  32    'd0      
  HSIZE       integral  3     'd1      
  HWRITE      integral  1     'd0      
  HREADY_OUT  integral  1     'd0      
---------------------------------------

                 185slave monitor read operation mem[b807698]= 00005e81
UVM_INFO ../slave_agent/slave_monitor.sv(95) @ 185: uvm_test_top.env_h.s_agt[0].s_mon [slave monitor] Printing from slave monitor 
 ---------------------------------------
Name          Type      Size  Value    
---------------------------------------
txn           trans     -     @1884    
  HRESETn     integral  1     'd0      
  HBURST      integral  3     'd0      
  HRESP       integral  2     'd0      
  HADDR       integral  32    'hb807698
  HTRANS      integral  2     'd0      
  HWDATA      integral  32    'h0      
  HLEN        integral  8     'd0      
  HRDATA      integral  32    'd0      
  HSIZE       integral  3     'd1      
  HWRITE      integral  1     'd0      
  HREADY_OUT  integral  1     'd0      
---------------------------------------

                 185slave haadr = 0b807698 
 master addr = 0b807698
UVM_INFO ../tb/scoreboard.sv(129) @ 185: uvm_test_top.env_h.sbh [SB] Address compared successfully
UVM_INFO ../tb/scoreboard.sv(153) @ 185: uvm_test_top.env_h.sbh [SB] read data mismatched
UVM_INFO ../master_agent/master_driver.sv(49) @ 195: uvm_test_top.env_h.m_agt[0].m_drv [MASTER DRV] THIS IS AHB DRIVER 
 ----------------------------------------
Name          Type      Size  Value     
----------------------------------------
req           trans     -     @1888     
  HRESETn     integral  1     'd0       
  HBURST      integral  3     6         
  HRESP       integral  2     'd0       
  HADDR       integral  32    'h608f11ac
  HTRANS      integral  2     3         
  HWDATA      integral  32    'h6bcdc063
  HLEN        integral  8     'd16      
  HRDATA      integral  32    'd0       
  HSIZE       integral  3     'd1       
  HWRITE      integral  1     1         
  HREADY_OUT  integral  1     'd0       
----------------------------------------

                 195MM @@@@@@@@@@@@@@@@@@@@@@@  - 291539860
UVM_INFO ../master_agent/master_monitor.sv(100) @ 195: uvm_test_top.env_h.m_agt[0].m_mon [master monitor] Printing from master monitor 
 ----------------------------------------
Name          Type      Size  Value     
----------------------------------------
txn           trans     -     @1892     
  HRESETn     integral  1     'd0       
  HBURST      integral  3     6         
  HRESP       integral  2     'd0       
  HADDR       integral  32    'h608f11aa
  HTRANS      integral  2     2         
  HWDATA      integral  32    'h0       
  HLEN        integral  8     'd0       
  HRDATA      integral  32    'd0       
  HSIZE       integral  3     'd1       
  HWRITE      integral  1     1         
  HREADY_OUT  integral  1     'd0       
----------------------------------------

                 195master monitor write operation mem[608f11aa]=00001160
                 195slave monitor write operation mem[608f11aa]= 00001160
UVM_INFO ../slave_agent/slave_monitor.sv(95) @ 195: uvm_test_top.env_h.s_agt[2].s_mon [slave monitor] Printing from slave monitor 
 ----------------------------------------
Name          Type      Size  Value     
----------------------------------------
txn           trans     -     @1896     
  HRESETn     integral  1     'd0       
  HBURST      integral  3     'd0       
  HRESP       integral  2     'd0       
  HADDR       integral  32    'h608f11aa
  HTRANS      integral  2     'd0       
  HWDATA      integral  32    'h0       
  HLEN        integral  8     'd0       
  HRDATA      integral  32    'd0       
  HSIZE       integral  3     'd1       
  HWRITE      integral  1     1         
  HREADY_OUT  integral  1     'd0       
----------------------------------------

                 195slave monitor write operation mem[608f11aa]= 00001160
UVM_INFO ../slave_agent/slave_monitor.sv(95) @ 195: uvm_test_top.env_h.s_agt[0].s_mon [slave monitor] Printing from slave monitor 
 ----------------------------------------
Name          Type      Size  Value     
----------------------------------------
txn           trans     -     @1900     
  HRESETn     integral  1     'd0       
  HBURST      integral  3     'd0       
  HRESP       integral  2     'd0       
  HADDR       integral  32    'h608f11aa
  HTRANS      integral  2     'd0       
  HWDATA      integral  32    'h0       
  HLEN        integral  8     'd0       
  HRDATA      integral  32    'd0       
  HSIZE       integral  3     'd1       
  HWRITE      integral  1     1         
  HREADY_OUT  integral  1     'd0       
----------------------------------------

                 195slave haadr = 608f11aa 
 master addr = 608f11aa
UVM_INFO ../tb/scoreboard.sv(129) @ 195: uvm_test_top.env_h.sbh [SB] Address compared successfully
UVM_INFO ../tb/scoreboard.sv(135) @ 195: uvm_test_top.env_h.sbh [SB] write data matched successfully
UVM_INFO ../master_agent/master_driver.sv(49) @ 205: uvm_test_top.env_h.m_agt[0].m_drv [MASTER DRV] THIS IS AHB DRIVER 
 ----------------------------------------
Name          Type      Size  Value     
----------------------------------------
req           trans     -     @1888     
  HRESETn     integral  1     'd0       
  HBURST      integral  3     6         
  HRESP       integral  2     'd0       
  HADDR       integral  32    'h608f11ae
  HTRANS      integral  2     3         
  HWDATA      integral  32    'h92066034
  HLEN        integral  8     'd16      
  HRDATA      integral  32    'd0       
  HSIZE       integral  3     'd1       
  HWRITE      integral  1     1         
  HREADY_OUT  integral  1     'd0       
----------------------------------------

                 205MM @@@@@@@@@@@@@@@@@@@@@@@  - 1808646243
UVM_INFO ../master_agent/master_monitor.sv(100) @ 205: uvm_test_top.env_h.m_agt[0].m_mon [master monitor] Printing from master monitor 
 ----------------------------------------
Name          Type      Size  Value     
----------------------------------------
txn           trans     -     @1904     
  HRESETn     integral  1     'd0       
  HBURST      integral  3     6         
  HRESP       integral  2     'd0       
  HADDR       integral  32    'h608f11ac
  HTRANS      integral  2     3         
  HWDATA      integral  32    'h0       
  HLEN        integral  8     'd0       
  HRDATA      integral  32    'd0       
  HSIZE       integral  3     'd1       
  HWRITE      integral  1     1         
  HREADY_OUT  integral  1     'd0       
----------------------------------------

                 205master monitor write operation mem[608f11ac]=0000c063
                 205slave monitor write operation mem[608f11ac]= 0000c063
UVM_INFO ../slave_agent/slave_monitor.sv(95) @ 205: uvm_test_top.env_h.s_agt[2].s_mon [slave monitor] Printing from slave monitor 
 ----------------------------------------
Name          Type      Size  Value     
----------------------------------------
txn           trans     -     @1908     
  HRESETn     integral  1     'd0       
  HBURST      integral  3     'd0       
  HRESP       integral  2     'd0       
  HADDR       integral  32    'h608f11ac
  HTRANS      integral  2     'd0       
  HWDATA      integral  32    'h0       
  HLEN        integral  8     'd0       
  HRDATA      integral  32    'd0       
  HSIZE       integral  3     'd1       
  HWRITE      integral  1     1         
  HREADY_OUT  integral  1     'd0       
----------------------------------------

                 205slave monitor write operation mem[608f11ac]= 0000c063
UVM_INFO ../slave_agent/slave_monitor.sv(95) @ 205: uvm_test_top.env_h.s_agt[0].s_mon [slave monitor] Printing from slave monitor 
 ----------------------------------------
Name          Type      Size  Value     
----------------------------------------
txn           trans     -     @1912     
  HRESETn     integral  1     'd0       
  HBURST      integral  3     'd0       
  HRESP       integral  2     'd0       
  HADDR       integral  32    'h608f11ac
  HTRANS      integral  2     'd0       
  HWDATA      integral  32    'h0       
  HLEN        integral  8     'd0       
  HRDATA      integral  32    'd0       
  HSIZE       integral  3     'd1       
  HWRITE      integral  1     1         
  HREADY_OUT  integral  1     'd0       
----------------------------------------

                 205slave haadr = 608f11ac 
 master addr = 608f11ac
UVM_INFO ../tb/scoreboard.sv(129) @ 205: uvm_test_top.env_h.sbh [SB] Address compared successfully
UVM_INFO ../tb/scoreboard.sv(135) @ 205: uvm_test_top.env_h.sbh [SB] write data matched successfully
UVM_INFO ../master_agent/master_driver.sv(49) @ 215: uvm_test_top.env_h.m_agt[0].m_drv [MASTER DRV] THIS IS AHB DRIVER 
 ----------------------------------------
Name          Type      Size  Value     
----------------------------------------
req           trans     -     @1888     
  HRESETn     integral  1     'd0       
  HBURST      integral  3     6         
  HRESP       integral  2     'd0       
  HADDR       integral  32    'h608f11b0
  HTRANS      integral  2     3         
  HWDATA      integral  32    'hb90a0ffe
  HLEN        integral  8     'd16      
  HRDATA      integral  32    'd0       
  HSIZE       integral  3     'd1       
  HWRITE      integral  1     1         
  HREADY_OUT  integral  1     'd0       
----------------------------------------

                 215MM @@@@@@@@@@@@@@@@@@@@@@@  - 2449891380
UVM_INFO ../master_agent/master_monitor.sv(100) @ 215: uvm_test_top.env_h.m_agt[0].m_mon [master monitor] Printing from master monitor 
 ----------------------------------------
Name          Type      Size  Value     
----------------------------------------
txn           trans     -     @1916     
  HRESETn     integral  1     'd0       
  HBURST      integral  3     6         
  HRESP       integral  2     'd0       
  HADDR       integral  32    'h608f11ae
  HTRANS      integral  2     3         
  HWDATA      integral  32    'h0       
  HLEN        integral  8     'd0       
  HRDATA      integral  32    'd0       
  HSIZE       integral  3     'd1       
  HWRITE      integral  1     1         
  HREADY_OUT  integral  1     'd0       
----------------------------------------

                 215master monitor write operation mem[608f11ae]=00009206
                 215slave monitor write operation mem[608f11ae]= 00009206
UVM_INFO ../slave_agent/slave_monitor.sv(95) @ 215: uvm_test_top.env_h.s_agt[2].s_mon [slave monitor] Printing from slave monitor 
 ----------------------------------------
Name          Type      Size  Value     
----------------------------------------
txn           trans     -     @1920     
  HRESETn     integral  1     'd0       
  HBURST      integral  3     'd0       
  HRESP       integral  2     'd0       
  HADDR       integral  32    'h608f11ae
  HTRANS      integral  2     'd0       
  HWDATA      integral  32    'h0       
  HLEN        integral  8     'd0       
  HRDATA      integral  32    'd0       
  HSIZE       integral  3     'd1       
  HWRITE      integral  1     1         
  HREADY_OUT  integral  1     'd0       
----------------------------------------

                 215slave monitor write operation mem[608f11ae]= 00009206
UVM_INFO ../slave_agent/slave_monitor.sv(95) @ 215: uvm_test_top.env_h.s_agt[0].s_mon [slave monitor] Printing from slave monitor 
 ----------------------------------------
Name          Type      Size  Value     
----------------------------------------
txn           trans     -     @1924     
  HRESETn     integral  1     'd0       
  HBURST      integral  3     'd0       
  HRESP       integral  2     'd0       
  HADDR       integral  32    'h608f11ae
  HTRANS      integral  2     'd0       
  HWDATA      integral  32    'h0       
  HLEN        integral  8     'd0       
  HRDATA      integral  32    'd0       
  HSIZE       integral  3     'd1       
  HWRITE      integral  1     1         
  HREADY_OUT  integral  1     'd0       
----------------------------------------

                 215slave haadr = 608f11ae 
 master addr = 608f11ae
UVM_INFO ../tb/scoreboard.sv(129) @ 215: uvm_test_top.env_h.sbh [SB] Address compared successfully
UVM_INFO ../tb/scoreboard.sv(135) @ 215: uvm_test_top.env_h.sbh [SB] write data matched successfully
UVM_INFO ../master_agent/master_driver.sv(49) @ 225: uvm_test_top.env_h.m_agt[0].m_drv [MASTER DRV] THIS IS AHB DRIVER 
 ----------------------------------------
Name          Type      Size  Value     
----------------------------------------
req           trans     -     @1888     
  HRESETn     integral  1     'd0       
  HBURST      integral  3     6         
  HRESP       integral  2     'd0       
  HADDR       integral  32    'h608f11b2
  HTRANS      integral  2     3         
  HWDATA      integral  32    'h97595eca
  HLEN        integral  8     'd16      
  HRDATA      integral  32    'd0       
  HSIZE       integral  3     'd1       
  HWRITE      integral  1     1         
  HREADY_OUT  integral  1     'd0       
----------------------------------------

                 225MM @@@@@@@@@@@@@@@@@@@@@@@  - 3104444414
UVM_INFO ../master_agent/master_monitor.sv(100) @ 225: uvm_test_top.env_h.m_agt[0].m_mon [master monitor] Printing from master monitor 
 ----------------------------------------
Name          Type      Size  Value     
----------------------------------------
txn           trans     -     @1928     
  HRESETn     integral  1     'd0       
  HBURST      integral  3     6         
  HRESP       integral  2     'd0       
  HADDR       integral  32    'h608f11b0
  HTRANS      integral  2     3         
  HWDATA      integral  32    'h0       
  HLEN        integral  8     'd0       
  HRDATA      integral  32    'd0       
  HSIZE       integral  3     'd1       
  HWRITE      integral  1     1         
  HREADY_OUT  integral  1     'd0       
----------------------------------------

                 225master monitor write operation mem[608f11b0]=00000ffe
                 225slave monitor write operation mem[608f11b0]= 00000ffe
UVM_INFO ../slave_agent/slave_monitor.sv(95) @ 225: uvm_test_top.env_h.s_agt[2].s_mon [slave monitor] Printing from slave monitor 
 ----------------------------------------
Name          Type      Size  Value     
----------------------------------------
txn           trans     -     @1932     
  HRESETn     integral  1     'd0       
  HBURST      integral  3     'd0       
  HRESP       integral  2     'd0       
  HADDR       integral  32    'h608f11b0
  HTRANS      integral  2     'd0       
  HWDATA      integral  32    'h0       
  HLEN        integral  8     'd0       
  HRDATA      integral  32    'd0       
  HSIZE       integral  3     'd1       
  HWRITE      integral  1     1         
  HREADY_OUT  integral  1     'd0       
----------------------------------------

                 225slave monitor write operation mem[608f11b0]= 00000ffe
UVM_INFO ../slave_agent/slave_monitor.sv(95) @ 225: uvm_test_top.env_h.s_agt[0].s_mon [slave monitor] Printing from slave monitor 
 ----------------------------------------
Name          Type      Size  Value     
----------------------------------------
txn           trans     -     @1936     
  HRESETn     integral  1     'd0       
  HBURST      integral  3     'd0       
  HRESP       integral  2     'd0       
  HADDR       integral  32    'h608f11b0
  HTRANS      integral  2     'd0       
  HWDATA      integral  32    'h0       
  HLEN        integral  8     'd0       
  HRDATA      integral  32    'd0       
  HSIZE       integral  3     'd1       
  HWRITE      integral  1     1         
  HREADY_OUT  integral  1     'd0       
----------------------------------------

                 225slave haadr = 608f11b0 
 master addr = 608f11b0
UVM_INFO ../tb/scoreboard.sv(129) @ 225: uvm_test_top.env_h.sbh [SB] Address compared successfully
UVM_INFO ../tb/scoreboard.sv(135) @ 225: uvm_test_top.env_h.sbh [SB] write data matched successfully
UVM_INFO ../master_agent/master_driver.sv(49) @ 235: uvm_test_top.env_h.m_agt[0].m_drv [MASTER DRV] THIS IS AHB DRIVER 
 ----------------------------------------
Name          Type      Size  Value     
----------------------------------------
req           trans     -     @1888     
  HRESETn     integral  1     'd0       
  HBURST      integral  3     6         
  HRESP       integral  2     'd0       
  HADDR       integral  32    'h608f11b4
  HTRANS      integral  2     3         
  HWDATA      integral  32    'h8a46e354
  HLEN        integral  8     'd16      
  HRDATA      integral  32    'd0       
  HSIZE       integral  3     'd1       
  HWRITE      integral  1     1         
  HREADY_OUT  integral  1     'd0       
----------------------------------------

                 235MM @@@@@@@@@@@@@@@@@@@@@@@  - 2539216586
UVM_INFO ../master_agent/master_monitor.sv(100) @ 235: uvm_test_top.env_h.m_agt[0].m_mon [master monitor] Printing from master monitor 
 ----------------------------------------
Name          Type      Size  Value     
----------------------------------------
txn           trans     -     @1940     
  HRESETn     integral  1     'd0       
  HBURST      integral  3     6         
  HRESP       integral  2     'd0       
  HADDR       integral  32    'h608f11b2
  HTRANS      integral  2     3         
  HWDATA      integral  32    'h0       
  HLEN        integral  8     'd0       
  HRDATA      integral  32    'd0       
  HSIZE       integral  3     'd1       
  HWRITE      integral  1     1         
  HREADY_OUT  integral  1     'd0       
----------------------------------------

                 235master monitor write operation mem[608f11b2]=00009759
                 235slave monitor write operation mem[608f11b2]= 00009759
UVM_INFO ../slave_agent/slave_monitor.sv(95) @ 235: uvm_test_top.env_h.s_agt[2].s_mon [slave monitor] Printing from slave monitor 
 ----------------------------------------
Name          Type      Size  Value     
----------------------------------------
txn           trans     -     @1944     
  HRESETn     integral  1     'd0       
  HBURST      integral  3     'd0       
  HRESP       integral  2     'd0       
  HADDR       integral  32    'h608f11b2
  HTRANS      integral  2     'd0       
  HWDATA      integral  32    'h0       
  HLEN        integral  8     'd0       
  HRDATA      integral  32    'd0       
  HSIZE       integral  3     'd1       
  HWRITE      integral  1     1         
  HREADY_OUT  integral  1     'd0       
----------------------------------------

                 235slave monitor write operation mem[608f11b2]= 00009759
UVM_INFO ../slave_agent/slave_monitor.sv(95) @ 235: uvm_test_top.env_h.s_agt[0].s_mon [slave monitor] Printing from slave monitor 
 ----------------------------------------
Name          Type      Size  Value     
----------------------------------------
txn           trans     -     @1948     
  HRESETn     integral  1     'd0       
  HBURST      integral  3     'd0       
  HRESP       integral  2     'd0       
  HADDR       integral  32    'h608f11b2
  HTRANS      integral  2     'd0       
  HWDATA      integral  32    'h0       
  HLEN        integral  8     'd0       
  HRDATA      integral  32    'd0       
  HSIZE       integral  3     'd1       
  HWRITE      integral  1     1         
  HREADY_OUT  integral  1     'd0       
----------------------------------------

                 235slave haadr = 608f11b2 
 master addr = 608f11b2
UVM_INFO ../tb/scoreboard.sv(129) @ 235: uvm_test_top.env_h.sbh [SB] Address compared successfully
UVM_INFO ../tb/scoreboard.sv(135) @ 235: uvm_test_top.env_h.sbh [SB] write data matched successfully
UVM_INFO ../master_agent/master_driver.sv(49) @ 245: uvm_test_top.env_h.m_agt[0].m_drv [MASTER DRV] THIS IS AHB DRIVER 
 ----------------------------------------
Name          Type      Size  Value     
----------------------------------------
req           trans     -     @1888     
  HRESETn     integral  1     'd0       
  HBURST      integral  3     6         
  HRESP       integral  2     'd0       
  HADDR       integral  32    'h608f11b6
  HTRANS      integral  2     3         
  HWDATA      integral  32    'h210f8c1e
  HLEN        integral  8     'd16      
  HRDATA      integral  32    'd0       
  HSIZE       integral  3     'd1       
  HWRITE      integral  1     1         
  HREADY_OUT  integral  1     'd0       
----------------------------------------

                 245MM @@@@@@@@@@@@@@@@@@@@@@@  - 2319901524
UVM_INFO ../master_agent/master_monitor.sv(100) @ 245: uvm_test_top.env_h.m_agt[0].m_mon [master monitor] Printing from master monitor 
 ----------------------------------------
Name          Type      Size  Value     
----------------------------------------
txn           trans     -     @1952     
  HRESETn     integral  1     'd0       
  HBURST      integral  3     6         
  HRESP       integral  2     'd0       
  HADDR       integral  32    'h608f11b4
  HTRANS      integral  2     3         
  HWDATA      integral  32    'h0       
  HLEN        integral  8     'd0       
  HRDATA      integral  32    'd0       
  HSIZE       integral  3     'd1       
  HWRITE      integral  1     1         
  HREADY_OUT  integral  1     'd0       
----------------------------------------

                 245master monitor write operation mem[608f11b4]=0000e354
                 245slave monitor write operation mem[608f11b4]= 0000e354
UVM_INFO ../slave_agent/slave_monitor.sv(95) @ 245: uvm_test_top.env_h.s_agt[2].s_mon [slave monitor] Printing from slave monitor 
 ----------------------------------------
Name          Type      Size  Value     
----------------------------------------
txn           trans     -     @1956     
  HRESETn     integral  1     'd0       
  HBURST      integral  3     'd0       
  HRESP       integral  2     'd0       
  HADDR       integral  32    'h608f11b4
  HTRANS      integral  2     'd0       
  HWDATA      integral  32    'h0       
  HLEN        integral  8     'd0       
  HRDATA      integral  32    'd0       
  HSIZE       integral  3     'd1       
  HWRITE      integral  1     1         
  HREADY_OUT  integral  1     'd0       
----------------------------------------

                 245slave monitor write operation mem[608f11b4]= 0000e354
UVM_INFO ../slave_agent/slave_monitor.sv(95) @ 245: uvm_test_top.env_h.s_agt[0].s_mon [slave monitor] Printing from slave monitor 
 ----------------------------------------
Name          Type      Size  Value     
----------------------------------------
txn           trans     -     @1960     
  HRESETn     integral  1     'd0       
  HBURST      integral  3     'd0       
  HRESP       integral  2     'd0       
  HADDR       integral  32    'h608f11b4
  HTRANS      integral  2     'd0       
  HWDATA      integral  32    'h0       
  HLEN        integral  8     'd0       
  HRDATA      integral  32    'd0       
  HSIZE       integral  3     'd1       
  HWRITE      integral  1     1         
  HREADY_OUT  integral  1     'd0       
----------------------------------------

                 245slave haadr = 608f11b4 
 master addr = 608f11b4
UVM_INFO ../tb/scoreboard.sv(129) @ 245: uvm_test_top.env_h.sbh [SB] Address compared successfully
UVM_INFO ../tb/scoreboard.sv(135) @ 245: uvm_test_top.env_h.sbh [SB] write data matched successfully
UVM_INFO ../master_agent/master_driver.sv(49) @ 255: uvm_test_top.env_h.m_agt[0].m_drv [MASTER DRV] THIS IS AHB DRIVER 
 ----------------------------------------
Name          Type      Size  Value     
----------------------------------------
req           trans     -     @1888     
  HRESETn     integral  1     'd0       
  HBURST      integral  3     6         
  HRESP       integral  2     'd0       
  HADDR       integral  32    'h608f11b8
  HTRANS      integral  2     3         
  HWDATA      integral  32    'h7d271b1a
  HLEN        integral  8     'd16      
  HRDATA      integral  32    'd0       
  HSIZE       integral  3     'd1       
  HWRITE      integral  1     1         
  HREADY_OUT  integral  1     'd0       
----------------------------------------

                 255MM @@@@@@@@@@@@@@@@@@@@@@@  - 554667038
UVM_INFO ../master_agent/master_monitor.sv(100) @ 255: uvm_test_top.env_h.m_agt[0].m_mon [master monitor] Printing from master monitor 
 ----------------------------------------
Name          Type      Size  Value     
----------------------------------------
txn           trans     -     @1964     
  HRESETn     integral  1     'd0       
  HBURST      integral  3     6         
  HRESP       integral  2     'd0       
  HADDR       integral  32    'h608f11b6
  HTRANS      integral  2     3         
  HWDATA      integral  32    'h0       
  HLEN        integral  8     'd0       
  HRDATA      integral  32    'd0       
  HSIZE       integral  3     'd1       
  HWRITE      integral  1     1         
  HREADY_OUT  integral  1     'd0       
----------------------------------------

                 255master monitor write operation mem[608f11b6]=0000210f
                 255slave monitor write operation mem[608f11b6]= 0000210f
UVM_INFO ../slave_agent/slave_monitor.sv(95) @ 255: uvm_test_top.env_h.s_agt[2].s_mon [slave monitor] Printing from slave monitor 
 ----------------------------------------
Name          Type      Size  Value     
----------------------------------------
txn           trans     -     @1968     
  HRESETn     integral  1     'd0       
  HBURST      integral  3     'd0       
  HRESP       integral  2     'd0       
  HADDR       integral  32    'h608f11b6
  HTRANS      integral  2     'd0       
  HWDATA      integral  32    'h0       
  HLEN        integral  8     'd0       
  HRDATA      integral  32    'd0       
  HSIZE       integral  3     'd1       
  HWRITE      integral  1     1         
  HREADY_OUT  integral  1     'd0       
----------------------------------------

                 255slave monitor write operation mem[608f11b6]= 0000210f
UVM_INFO ../slave_agent/slave_monitor.sv(95) @ 255: uvm_test_top.env_h.s_agt[0].s_mon [slave monitor] Printing from slave monitor 
 ----------------------------------------
Name          Type      Size  Value     
----------------------------------------
txn           trans     -     @1972     
  HRESETn     integral  1     'd0       
  HBURST      integral  3     'd0       
  HRESP       integral  2     'd0       
  HADDR       integral  32    'h608f11b6
  HTRANS      integral  2     'd0       
  HWDATA      integral  32    'h0       
  HLEN        integral  8     'd0       
  HRDATA      integral  32    'd0       
  HSIZE       integral  3     'd1       
  HWRITE      integral  1     1         
  HREADY_OUT  integral  1     'd0       
----------------------------------------

                 255slave haadr = 608f11b6 
 master addr = 608f11b6
UVM_INFO ../tb/scoreboard.sv(129) @ 255: uvm_test_top.env_h.sbh [SB] Address compared successfully
UVM_INFO ../tb/scoreboard.sv(135) @ 255: uvm_test_top.env_h.sbh [SB] write data matched successfully
UVM_INFO ../master_agent/master_driver.sv(49) @ 265: uvm_test_top.env_h.m_agt[0].m_drv [MASTER DRV] THIS IS AHB DRIVER 
 ----------------------------------------
Name          Type      Size  Value     
----------------------------------------
req           trans     -     @1888     
  HRESETn     integral  1     'd0       
  HBURST      integral  3     6         
  HRESP       integral  2     'd0       
  HADDR       integral  32    'h608f11ba
  HTRANS      integral  2     3         
  HWDATA      integral  32    'hc7b04a0a
  HLEN        integral  8     'd16      
  HRDATA      integral  32    'd0       
  HSIZE       integral  3     'd1       
  HWRITE      integral  1     1         
  HREADY_OUT  integral  1     'd0       
----------------------------------------

                 265MM @@@@@@@@@@@@@@@@@@@@@@@  - 2099714842
UVM_INFO ../master_agent/master_monitor.sv(100) @ 265: uvm_test_top.env_h.m_agt[0].m_mon [master monitor] Printing from master monitor 
 ----------------------------------------
Name          Type      Size  Value     
----------------------------------------
txn           trans     -     @1976     
  HRESETn     integral  1     'd0       
  HBURST      integral  3     6         
  HRESP       integral  2     'd0       
  HADDR       integral  32    'h608f11b8
  HTRANS      integral  2     3         
  HWDATA      integral  32    'h0       
  HLEN        integral  8     'd0       
  HRDATA      integral  32    'd0       
  HSIZE       integral  3     'd1       
  HWRITE      integral  1     1         
  HREADY_OUT  integral  1     'd0       
----------------------------------------

                 265master monitor write operation mem[608f11b8]=00001b1a
                 265slave monitor write operation mem[608f11b8]= 00001b1a
UVM_INFO ../slave_agent/slave_monitor.sv(95) @ 265: uvm_test_top.env_h.s_agt[2].s_mon [slave monitor] Printing from slave monitor 
 ----------------------------------------
Name          Type      Size  Value     
----------------------------------------
txn           trans     -     @1980     
  HRESETn     integral  1     'd0       
  HBURST      integral  3     'd0       
  HRESP       integral  2     'd0       
  HADDR       integral  32    'h608f11b8
  HTRANS      integral  2     'd0       
  HWDATA      integral  32    'h0       
  HLEN        integral  8     'd0       
  HRDATA      integral  32    'd0       
  HSIZE       integral  3     'd1       
  HWRITE      integral  1     1         
  HREADY_OUT  integral  1     'd0       
----------------------------------------

                 265slave monitor write operation mem[608f11b8]= 00001b1a
UVM_INFO ../slave_agent/slave_monitor.sv(95) @ 265: uvm_test_top.env_h.s_agt[0].s_mon [slave monitor] Printing from slave monitor 
 ----------------------------------------
Name          Type      Size  Value     
----------------------------------------
txn           trans     -     @1984     
  HRESETn     integral  1     'd0       
  HBURST      integral  3     'd0       
  HRESP       integral  2     'd0       
  HADDR       integral  32    'h608f11b8
  HTRANS      integral  2     'd0       
  HWDATA      integral  32    'h0       
  HLEN        integral  8     'd0       
  HRDATA      integral  32    'd0       
  HSIZE       integral  3     'd1       
  HWRITE      integral  1     1         
  HREADY_OUT  integral  1     'd0       
----------------------------------------

                 265slave haadr = 608f11b8 
 master addr = 608f11b8
UVM_INFO ../tb/scoreboard.sv(129) @ 265: uvm_test_top.env_h.sbh [SB] Address compared successfully
UVM_INFO ../tb/scoreboard.sv(135) @ 265: uvm_test_top.env_h.sbh [SB] write data matched successfully
UVM_INFO ../master_agent/master_driver.sv(49) @ 275: uvm_test_top.env_h.m_agt[0].m_drv [MASTER DRV] THIS IS AHB DRIVER 
 ----------------------------------------
Name          Type      Size  Value     
----------------------------------------
req           trans     -     @1888     
  HRESETn     integral  1     'd0       
  HBURST      integral  3     6         
  HRESP       integral  2     'd0       
  HADDR       integral  32    'h608f11bc
  HTRANS      integral  2     3         
  HWDATA      integral  32    'h81946374
  HLEN        integral  8     'd16      
  HRDATA      integral  32    'd0       
  HSIZE       integral  3     'd1       
  HWRITE      integral  1     1         
  HREADY_OUT  integral  1     'd0       
----------------------------------------

                 275MM @@@@@@@@@@@@@@@@@@@@@@@  - 3350219274
UVM_INFO ../master_agent/master_monitor.sv(100) @ 275: uvm_test_top.env_h.m_agt[0].m_mon [master monitor] Printing from master monitor 
 ----------------------------------------
Name          Type      Size  Value     
----------------------------------------
txn           trans     -     @1988     
  HRESETn     integral  1     'd0       
  HBURST      integral  3     6         
  HRESP       integral  2     'd0       
  HADDR       integral  32    'h608f11ba
  HTRANS      integral  2     3         
  HWDATA      integral  32    'h0       
  HLEN        integral  8     'd0       
  HRDATA      integral  32    'd0       
  HSIZE       integral  3     'd1       
  HWRITE      integral  1     1         
  HREADY_OUT  integral  1     'd0       
----------------------------------------

                 275master monitor write operation mem[608f11ba]=0000c7b0
                 275slave monitor write operation mem[608f11ba]= 0000c7b0
UVM_INFO ../slave_agent/slave_monitor.sv(95) @ 275: uvm_test_top.env_h.s_agt[2].s_mon [slave monitor] Printing from slave monitor 
 ----------------------------------------
Name          Type      Size  Value     
----------------------------------------
txn           trans     -     @1992     
  HRESETn     integral  1     'd0       
  HBURST      integral  3     'd0       
  HRESP       integral  2     'd0       
  HADDR       integral  32    'h608f11ba
  HTRANS      integral  2     'd0       
  HWDATA      integral  32    'h0       
  HLEN        integral  8     'd0       
  HRDATA      integral  32    'd0       
  HSIZE       integral  3     'd1       
  HWRITE      integral  1     1         
  HREADY_OUT  integral  1     'd0       
----------------------------------------

                 275slave monitor write operation mem[608f11ba]= 0000c7b0
UVM_INFO ../slave_agent/slave_monitor.sv(95) @ 275: uvm_test_top.env_h.s_agt[0].s_mon [slave monitor] Printing from slave monitor 
 ----------------------------------------
Name          Type      Size  Value     
----------------------------------------
txn           trans     -     @1996     
  HRESETn     integral  1     'd0       
  HBURST      integral  3     'd0       
  HRESP       integral  2     'd0       
  HADDR       integral  32    'h608f11ba
  HTRANS      integral  2     'd0       
  HWDATA      integral  32    'h0       
  HLEN        integral  8     'd0       
  HRDATA      integral  32    'd0       
  HSIZE       integral  3     'd1       
  HWRITE      integral  1     1         
  HREADY_OUT  integral  1     'd0       
----------------------------------------

                 275slave haadr = 608f11ba 
 master addr = 608f11ba
UVM_INFO ../tb/scoreboard.sv(129) @ 275: uvm_test_top.env_h.sbh [SB] Address compared successfully
UVM_INFO ../tb/scoreboard.sv(135) @ 275: uvm_test_top.env_h.sbh [SB] write data matched successfully
UVM_INFO ../master_agent/master_driver.sv(49) @ 285: uvm_test_top.env_h.m_agt[0].m_drv [MASTER DRV] THIS IS AHB DRIVER 
 ----------------------------------------
Name          Type      Size  Value     
----------------------------------------
req           trans     -     @1888     
  HRESETn     integral  1     'd0       
  HBURST      integral  3     6         
  HRESP       integral  2     'd0       
  HADDR       integral  32    'h608f11be
  HTRANS      integral  2     3         
  HWDATA      integral  32    'h3f91813b
  HLEN        integral  8     'd16      
  HRDATA      integral  32    'd0       
  HSIZE       integral  3     'd1       
  HWRITE      integral  1     1         
  HREADY_OUT  integral  1     'd0       
----------------------------------------

                 285MM @@@@@@@@@@@@@@@@@@@@@@@  - 2173985652
UVM_INFO ../master_agent/master_monitor.sv(100) @ 285: uvm_test_top.env_h.m_agt[0].m_mon [master monitor] Printing from master monitor 
 ----------------------------------------
Name          Type      Size  Value     
----------------------------------------
txn           trans     -     @2000     
  HRESETn     integral  1     'd0       
  HBURST      integral  3     6         
  HRESP       integral  2     'd0       
  HADDR       integral  32    'h608f11bc
  HTRANS      integral  2     3         
  HWDATA      integral  32    'h0       
  HLEN        integral  8     'd0       
  HRDATA      integral  32    'd0       
  HSIZE       integral  3     'd1       
  HWRITE      integral  1     1         
  HREADY_OUT  integral  1     'd0       
----------------------------------------

                 285master monitor write operation mem[608f11bc]=00006374
                 285slave monitor write operation mem[608f11bc]= 00006374
UVM_INFO ../slave_agent/slave_monitor.sv(95) @ 285: uvm_test_top.env_h.s_agt[2].s_mon [slave monitor] Printing from slave monitor 
 ----------------------------------------
Name          Type      Size  Value     
----------------------------------------
txn           trans     -     @2004     
  HRESETn     integral  1     'd0       
  HBURST      integral  3     'd0       
  HRESP       integral  2     'd0       
  HADDR       integral  32    'h608f11bc
  HTRANS      integral  2     'd0       
  HWDATA      integral  32    'h0       
  HLEN        integral  8     'd0       
  HRDATA      integral  32    'd0       
  HSIZE       integral  3     'd1       
  HWRITE      integral  1     1         
  HREADY_OUT  integral  1     'd0       
----------------------------------------

                 285slave monitor write operation mem[608f11bc]= 00006374
UVM_INFO ../slave_agent/slave_monitor.sv(95) @ 285: uvm_test_top.env_h.s_agt[0].s_mon [slave monitor] Printing from slave monitor 
 ----------------------------------------
Name          Type      Size  Value     
----------------------------------------
txn           trans     -     @2008     
  HRESETn     integral  1     'd0       
  HBURST      integral  3     'd0       
  HRESP       integral  2     'd0       
  HADDR       integral  32    'h608f11bc
  HTRANS      integral  2     'd0       
  HWDATA      integral  32    'h0       
  HLEN        integral  8     'd0       
  HRDATA      integral  32    'd0       
  HSIZE       integral  3     'd1       
  HWRITE      integral  1     1         
  HREADY_OUT  integral  1     'd0       
----------------------------------------

                 285slave haadr = 608f11bc 
 master addr = 608f11bc
UVM_INFO ../tb/scoreboard.sv(129) @ 285: uvm_test_top.env_h.sbh [SB] Address compared successfully
UVM_INFO ../tb/scoreboard.sv(135) @ 285: uvm_test_top.env_h.sbh [SB] write data matched successfully
UVM_INFO ../master_agent/master_driver.sv(49) @ 295: uvm_test_top.env_h.m_agt[0].m_drv [MASTER DRV] THIS IS AHB DRIVER 
 ----------------------------------------
Name          Type      Size  Value     
----------------------------------------
req           trans     -     @1888     
  HRESETn     integral  1     'd0       
  HBURST      integral  3     6         
  HRESP       integral  2     'd0       
  HADDR       integral  32    'h608f11a0
  HTRANS      integral  2     3         
  HWDATA      integral  32    'hc2035545
  HLEN        integral  8     'd16      
  HRDATA      integral  32    'd0       
  HSIZE       integral  3     'd1       
  HWRITE      integral  1     1         
  HREADY_OUT  integral  1     'd0       
----------------------------------------

                 295MM @@@@@@@@@@@@@@@@@@@@@@@  - 1066500411
UVM_INFO ../master_agent/master_monitor.sv(100) @ 295: uvm_test_top.env_h.m_agt[0].m_mon [master monitor] Printing from master monitor 
 ----------------------------------------
Name          Type      Size  Value     
----------------------------------------
txn           trans     -     @2012     
  HRESETn     integral  1     'd0       
  HBURST      integral  3     6         
  HRESP       integral  2     'd0       
  HADDR       integral  32    'h608f11be
  HTRANS      integral  2     3         
  HWDATA      integral  32    'h0       
  HLEN        integral  8     'd0       
  HRDATA      integral  32    'd0       
  HSIZE       integral  3     'd1       
  HWRITE      integral  1     1         
  HREADY_OUT  integral  1     'd0       
----------------------------------------

                 295master monitor write operation mem[608f11be]=00003f91
                 295slave monitor write operation mem[608f11be]= 00003f91
UVM_INFO ../slave_agent/slave_monitor.sv(95) @ 295: uvm_test_top.env_h.s_agt[2].s_mon [slave monitor] Printing from slave monitor 
 ----------------------------------------
Name          Type      Size  Value     
----------------------------------------
txn           trans     -     @2016     
  HRESETn     integral  1     'd0       
  HBURST      integral  3     'd0       
  HRESP       integral  2     'd0       
  HADDR       integral  32    'h608f11be
  HTRANS      integral  2     'd0       
  HWDATA      integral  32    'h0       
  HLEN        integral  8     'd0       
  HRDATA      integral  32    'd0       
  HSIZE       integral  3     'd1       
  HWRITE      integral  1     1         
  HREADY_OUT  integral  1     'd0       
----------------------------------------

                 295slave monitor write operation mem[608f11be]= 00003f91
UVM_INFO ../slave_agent/slave_monitor.sv(95) @ 295: uvm_test_top.env_h.s_agt[0].s_mon [slave monitor] Printing from slave monitor 
 ----------------------------------------
Name          Type      Size  Value     
----------------------------------------
txn           trans     -     @2020     
  HRESETn     integral  1     'd0       
  HBURST      integral  3     'd0       
  HRESP       integral  2     'd0       
  HADDR       integral  32    'h608f11be
  HTRANS      integral  2     'd0       
  HWDATA      integral  32    'h0       
  HLEN        integral  8     'd0       
  HRDATA      integral  32    'd0       
  HSIZE       integral  3     'd1       
  HWRITE      integral  1     1         
  HREADY_OUT  integral  1     'd0       
----------------------------------------

                 295slave haadr = 608f11be 
 master addr = 608f11be
UVM_INFO ../tb/scoreboard.sv(129) @ 295: uvm_test_top.env_h.sbh [SB] Address compared successfully
UVM_INFO ../tb/scoreboard.sv(135) @ 295: uvm_test_top.env_h.sbh [SB] write data matched successfully
UVM_INFO ../master_agent/master_driver.sv(49) @ 305: uvm_test_top.env_h.m_agt[0].m_drv [MASTER DRV] THIS IS AHB DRIVER 
 ----------------------------------------
Name          Type      Size  Value     
----------------------------------------
req           trans     -     @1888     
  HRESETn     integral  1     'd0       
  HBURST      integral  3     6         
  HRESP       integral  2     'd0       
  HADDR       integral  32    'h608f11a2
  HTRANS      integral  2     3         
  HWDATA      integral  32    'ha5eedfb7
  HLEN        integral  8     'd16      
  HRDATA      integral  32    'd0       
  HSIZE       integral  3     'd1       
  HWRITE      integral  1     1         
  HREADY_OUT  integral  1     'd0       
----------------------------------------

                 305MM @@@@@@@@@@@@@@@@@@@@@@@  - 3254998341
UVM_INFO ../master_agent/master_monitor.sv(100) @ 305: uvm_test_top.env_h.m_agt[0].m_mon [master monitor] Printing from master monitor 
 ----------------------------------------
Name          Type      Size  Value     
----------------------------------------
txn           trans     -     @2024     
  HRESETn     integral  1     'd0       
  HBURST      integral  3     6         
  HRESP       integral  2     'd0       
  HADDR       integral  32    'h608f11a0
  HTRANS      integral  2     3         
  HWDATA      integral  32    'h0       
  HLEN        integral  8     'd0       
  HRDATA      integral  32    'd0       
  HSIZE       integral  3     'd1       
  HWRITE      integral  1     1         
  HREADY_OUT  integral  1     'd0       
----------------------------------------

                 305master monitor write operation mem[608f11a0]=00005545
                 305slave monitor write operation mem[608f11a0]= 00005545
UVM_INFO ../slave_agent/slave_monitor.sv(95) @ 305: uvm_test_top.env_h.s_agt[2].s_mon [slave monitor] Printing from slave monitor 
 ----------------------------------------
Name          Type      Size  Value     
----------------------------------------
txn           trans     -     @2028     
  HRESETn     integral  1     'd0       
  HBURST      integral  3     'd0       
  HRESP       integral  2     'd0       
  HADDR       integral  32    'h608f11a0
  HTRANS      integral  2     'd0       
  HWDATA      integral  32    'h0       
  HLEN        integral  8     'd0       
  HRDATA      integral  32    'd0       
  HSIZE       integral  3     'd1       
  HWRITE      integral  1     1         
  HREADY_OUT  integral  1     'd0       
----------------------------------------

                 305slave monitor write operation mem[608f11a0]= 00005545
UVM_INFO ../slave_agent/slave_monitor.sv(95) @ 305: uvm_test_top.env_h.s_agt[0].s_mon [slave monitor] Printing from slave monitor 
 ----------------------------------------
Name          Type      Size  Value     
----------------------------------------
txn           trans     -     @2032     
  HRESETn     integral  1     'd0       
  HBURST      integral  3     'd0       
  HRESP       integral  2     'd0       
  HADDR       integral  32    'h608f11a0
  HTRANS      integral  2     'd0       
  HWDATA      integral  32    'h0       
  HLEN        integral  8     'd0       
  HRDATA      integral  32    'd0       
  HSIZE       integral  3     'd1       
  HWRITE      integral  1     1         
  HREADY_OUT  integral  1     'd0       
----------------------------------------

                 305slave haadr = 608f11a0 
 master addr = 608f11a0
UVM_INFO ../tb/scoreboard.sv(129) @ 305: uvm_test_top.env_h.sbh [SB] Address compared successfully
UVM_INFO ../tb/scoreboard.sv(135) @ 305: uvm_test_top.env_h.sbh [SB] write data matched successfully
UVM_INFO ../master_agent/master_driver.sv(49) @ 315: uvm_test_top.env_h.m_agt[0].m_drv [MASTER DRV] THIS IS AHB DRIVER 
 ----------------------------------------
Name          Type      Size  Value     
----------------------------------------
req           trans     -     @1888     
  HRESETn     integral  1     'd0       
  HBURST      integral  3     6         
  HRESP       integral  2     'd0       
  HADDR       integral  32    'h608f11a4
  HTRANS      integral  2     3         
  HWDATA      integral  32    'h35e0fda9
  HLEN        integral  8     'd16      
  HRDATA      integral  32    'd0       
  HSIZE       integral  3     'd1       
  HWRITE      integral  1     1         
  HREADY_OUT  integral  1     'd0       
----------------------------------------

                 315MM @@@@@@@@@@@@@@@@@@@@@@@  - 2783895479
UVM_INFO ../master_agent/master_monitor.sv(100) @ 315: uvm_test_top.env_h.m_agt[0].m_mon [master monitor] Printing from master monitor 
 ----------------------------------------
Name          Type      Size  Value     
----------------------------------------
txn           trans     -     @2036     
  HRESETn     integral  1     'd0       
  HBURST      integral  3     6         
  HRESP       integral  2     'd0       
  HADDR       integral  32    'h608f11a2
  HTRANS      integral  2     3         
  HWDATA      integral  32    'h0       
  HLEN        integral  8     'd0       
  HRDATA      integral  32    'd0       
  HSIZE       integral  3     'd1       
  HWRITE      integral  1     1         
  HREADY_OUT  integral  1     'd0       
----------------------------------------

                 315master monitor write operation mem[608f11a2]=0000a5ee
                 315slave monitor write operation mem[608f11a2]= 0000a5ee
UVM_INFO ../slave_agent/slave_monitor.sv(95) @ 315: uvm_test_top.env_h.s_agt[2].s_mon [slave monitor] Printing from slave monitor 
 ----------------------------------------
Name          Type      Size  Value     
----------------------------------------
txn           trans     -     @2040     
  HRESETn     integral  1     'd0       
  HBURST      integral  3     'd0       
  HRESP       integral  2     'd0       
  HADDR       integral  32    'h608f11a2
  HTRANS      integral  2     'd0       
  HWDATA      integral  32    'h0       
  HLEN        integral  8     'd0       
  HRDATA      integral  32    'd0       
  HSIZE       integral  3     'd1       
  HWRITE      integral  1     1         
  HREADY_OUT  integral  1     'd0       
----------------------------------------

                 315slave monitor write operation mem[608f11a2]= 0000a5ee
UVM_INFO ../slave_agent/slave_monitor.sv(95) @ 315: uvm_test_top.env_h.s_agt[0].s_mon [slave monitor] Printing from slave monitor 
 ----------------------------------------
Name          Type      Size  Value     
----------------------------------------
txn           trans     -     @2044     
  HRESETn     integral  1     'd0       
  HBURST      integral  3     'd0       
  HRESP       integral  2     'd0       
  HADDR       integral  32    'h608f11a2
  HTRANS      integral  2     'd0       
  HWDATA      integral  32    'h0       
  HLEN        integral  8     'd0       
  HRDATA      integral  32    'd0       
  HSIZE       integral  3     'd1       
  HWRITE      integral  1     1         
  HREADY_OUT  integral  1     'd0       
----------------------------------------

                 315slave haadr = 608f11a2 
 master addr = 608f11a2
UVM_INFO ../tb/scoreboard.sv(129) @ 315: uvm_test_top.env_h.sbh [SB] Address compared successfully
UVM_INFO ../tb/scoreboard.sv(135) @ 315: uvm_test_top.env_h.sbh [SB] write data matched successfully
UVM_INFO ../master_agent/master_driver.sv(49) @ 325: uvm_test_top.env_h.m_agt[0].m_drv [MASTER DRV] THIS IS AHB DRIVER 
 ----------------------------------------
Name          Type      Size  Value     
----------------------------------------
req           trans     -     @1888     
  HRESETn     integral  1     'd0       
  HBURST      integral  3     6         
  HRESP       integral  2     'd0       
  HADDR       integral  32    'h608f11a6
  HTRANS      integral  2     3         
  HWDATA      integral  32    'h35ca5bda
  HLEN        integral  8     'd16      
  HRDATA      integral  32    'd0       
  HSIZE       integral  3     'd1       
  HWRITE      integral  1     1         
