vsim -cvgperinstance -vopt -voptargs="+acc" -coverage -sva -c -do " log -r /* ;coverage save -onexit mem_cov3;run -all; exit" -wlf wave_file3.wlf -l test3.log -sv_seed 2120668702 work.top "+UVM_TESTNAME=test2" 
Start time: 12:49:31 on Jun 14,2025
** Note: (vsim-8009) Loading existing optimized design _opt
//  Questa Sim-64
//  Version 2019.2 linux_x86_64 Apr 16 2019
//
//  Copyright 1991-2019 Mentor Graphics Corporation
//  All Rights Reserved.
//
//  QuestaSim and its associated documentation contain trade
//  secrets and commercial or financial information that are the property of
//  Mentor Graphics Corporation and are privileged, confidential,
//  and exempt from disclosure under the Freedom of Information Act,
//  5 U.S.C. Section 552. Furthermore, this information
//  is prohibited from disclosure under the Trade Secrets Act,
//  18 U.S.C. Section 1905.
//
** Warning: License feature 'msimhdlsim' will expire in 6 days.
Loading sv_std.std
Loading work.ahb_rst_if(fast)
Loading work.sl_if(fast)
Loading mtiUvm.uvm_pkg
Loading work.avip_pkg(fast)
Loading work.av_if(fast)
Loading mtiUvm.questa_uvm_pkg(fast)
Loading work.top(fast)
Loading work.ahb_rst_if(fast)
Loading work.av_if(fast)
Loading work.sl_if(fast)
Loading work.decoder(fast)
** Warning: (vsim-8441) Clocking block output vif.sdcb.hrdata is not legal in this
or another expression.
   Time: 0 ns  Iteration: 0  Region: /avip_pkg::s_driver File: ../slave_agent/slave_driver.sv Line: 39
** Warning: (vsim-8441) Clocking block output vif.sdcb.hready_out is not legal in this
or another expression.
   Time: 0 ns  Iteration: 0  Region: /avip_pkg::s_driver File: ../slave_agent/slave_driver.sv Line: 44
** Warning: (vsim-8441) Clocking block output vif.sdcb.hready_out is not legal in this
or another expression.
   Time: 0 ns  Iteration: 0  Region: /avip_pkg::s_driver File: ../slave_agent/slave_driver.sv Line: 44
** Warning: (vsim-8441) Clocking block output vif.sdcb.hrdata is not legal in this
or another expression.
   Time: 0 ns  Iteration: 0  Region: /avip_pkg::s_driver File: ../slave_agent/slave_driver.sv Line: 39
# Loading /home/cad/eda/Questa_2019/questasim/uvm-1.1d/linux_x86_64/uvm_dpi.so
** Warning: License feature 'svverification' will expire in 6 days.
** Warning: License feature 'msimcoverage' will expire in 6 days.
** Warning: (vsim-8634) Code was not compiled with coverage options.
 log -r /* 
coverage save -onexit mem_cov3
run -all
----------------------------------------------------------------
UVM-1.1d
(C) 2007-2013 Mentor Graphics Corporation
(C) 2007-2013 Cadence Design Systems, Inc.
(C) 2006-2013 Synopsys, Inc.
(C) 2011-2013 Cypress Semiconductor Corp.
----------------------------------------------------------------

  ***********       IMPORTANT RELEASE NOTES         ************

  You are using a version of the UVM library that has been compiled
  with `UVM_NO_DEPRECATED undefined.
  See http://www.eda.org/svdb/view.php?id=3313 for more details.

  You are using a version of the UVM library that has been compiled
  with `UVM_OBJECT_MUST_HAVE_CONSTRUCTOR undefined.
  See http://www.eda.org/svdb/view.php?id=3770 for more details.

      (Specify +UVM_NO_RELNOTES to turn off this notice)

UVM_INFO verilog_src/questa_uvm_pkg-1.2/src/questa_uvm_pkg.sv(277) @ 0: reporter [Questa UVM] QUESTA_UVM-1.2.3
UVM_INFO verilog_src/questa_uvm_pkg-1.2/src/questa_uvm_pkg.sv(278) @ 0: reporter [Questa UVM]  questa_uvm::init(+struct)
UVM_INFO @ 0: reporter [RNTST] Running test test2...
UVM_INFO ../rst_agent/ahb_rst_driver.sv(24) @ 0: uvm_test_top.env_h.rst_agt.drvh [ahb_rst_driver] ahb rst driver connect_phase
UVM_INFO @ 0: reporter [UVMTOP] UVM testbench topology:
------------------------------------------------------------------
Name                       Type                        Size  Value
------------------------------------------------------------------
uvm_test_top               test2                       -     @489 
  env_h                    env                         -     @511 
    m_agt[0]               m_agent                     -     @543 
      m_drv                m_driver                    -     @721 
        rsp_port           uvm_analysis_port           -     @736 
        seq_item_port      uvm_seq_item_pull_port      -     @728 
      m_mon                m_monitor                   -     @597 
        monitor_port       uvm_analysis_port           -     @604 
      m_seqr               ma_sequencer                -     @612 
        rsp_export         uvm_analysis_export         -     @619 
        seq_item_export    uvm_seq_item_pull_imp       -     @713 
        arbitration_queue  array                       0     -    
        lock_queue         array                       0     -    
        num_last_reqs      integral                    32    'd1  
        num_last_rsps      integral                    32    'd1  
    rst_agt                ahb_rst_agent               -     @577 
      drvh                 ahb_rst_driver              -     @768 
        rsp_port           uvm_analysis_port           -     @783 
        seq_item_port      uvm_seq_item_pull_port      -     @775 
      monh                 ahb_rst_monitor             -     @753 
        rst_monitor_port   uvm_analysis_port           -     @760 
      seqrh                ahb_rst_sequencer           -     @791 
        rsp_export         uvm_analysis_export         -     @798 
        seq_item_export    uvm_seq_item_pull_imp       -     @892 
        arbitration_queue  array                       0     -    
        lock_queue         array                       0     -    
        num_last_reqs      integral                    32    'd1  
        num_last_rsps      integral                    32    'd1  
    s_agt[0]               s_agent                     -     @554 
      s_drv                s_driver                    -     @1033
        rsp_port           uvm_analysis_port           -     @1048
        seq_item_port      uvm_seq_item_pull_port      -     @1040
      s_mon                s_monitor                   -     @909 
        monitor_port       uvm_analysis_port           -     @916 
      s_seqr               s_sequencer                 -     @924 
        rsp_export         uvm_analysis_export         -     @931 
        seq_item_export    uvm_seq_item_pull_imp       -     @1025
        arbitration_queue  array                       0     -    
        lock_queue         array                       0     -    
        num_last_reqs      integral                    32    'd1  
        num_last_rsps      integral                    32    'd1  
    s_agt[1]               s_agent                     -     @562 
      s_drv                s_driver                    -     @1193
        rsp_port           uvm_analysis_port           -     @1208
        seq_item_port      uvm_seq_item_pull_port      -     @1200
      s_mon                s_monitor                   -     @1069
        monitor_port       uvm_analysis_port           -     @1076
      s_seqr               s_sequencer                 -     @1084
        rsp_export         uvm_analysis_export         -     @1091
        seq_item_export    uvm_seq_item_pull_imp       -     @1185
        arbitration_queue  array                       0     -    
        lock_queue         array                       0     -    
        num_last_reqs      integral                    32    'd1  
        num_last_rsps      integral                    32    'd1  
    s_agt[2]               s_agent                     -     @570 
      s_drv                s_driver                    -     @1353
        rsp_port           uvm_analysis_port           -     @1368
        seq_item_port      uvm_seq_item_pull_port      -     @1360
      s_mon                s_monitor                   -     @1229
        monitor_port       uvm_analysis_port           -     @1236
      s_seqr               s_sequencer                 -     @1244
        rsp_export         uvm_analysis_export         -     @1251
        seq_item_export    uvm_seq_item_pull_imp       -     @1345
        arbitration_queue  array                       0     -    
        lock_queue         array                       0     -    
        num_last_reqs      integral                    32    'd1  
        num_last_rsps      integral                    32    'd1  
    sbh                    scoreboard                  -     @588 
      mst_fifo             uvm_tlm_analysis_fifo #(T)  -     @1388
        analysis_export    uvm_analysis_imp            -     @1427
        get_ap             uvm_analysis_port           -     @1419
        get_peek_export    uvm_get_peek_imp            -     @1403
        put_ap             uvm_analysis_port           -     @1411
        put_export         uvm_put_imp                 -     @1395
      slv_fifo[0]          uvm_tlm_analysis_fifo #(T)  -     @1435
        analysis_export    uvm_analysis_imp            -     @1474
        get_ap             uvm_analysis_port           -     @1466
        get_peek_export    uvm_get_peek_imp            -     @1450
        put_ap             uvm_analysis_port           -     @1458
        put_export         uvm_put_imp                 -     @1442
      slv_fifo[1]          uvm_tlm_analysis_fifo #(T)  -     @1482
        analysis_export    uvm_analysis_imp            -     @1521
        get_ap             uvm_analysis_port           -     @1513
        get_peek_export    uvm_get_peek_imp            -     @1497
        put_ap             uvm_analysis_port           -     @1505
        put_export         uvm_put_imp                 -     @1489
      slv_fifo[2]          uvm_tlm_analysis_fifo #(T)  -     @1529
        analysis_export    uvm_analysis_imp            -     @1568
        get_ap             uvm_analysis_port           -     @1560
        get_peek_export    uvm_get_peek_imp            -     @1544
        put_ap             uvm_analysis_port           -     @1552
        put_export         uvm_put_imp                 -     @1536
------------------------------------------------------------------

UVM_INFO ../slave_agent/slave_driver.sv(40) @ 25: uvm_test_top.env_h.s_agt[2].s_drv [slave driver] slave driver reset  0
UVM_INFO ../slave_agent/slave_driver.sv(46) @ 25: uvm_test_top.env_h.s_agt[2].s_drv [slave driver] slave driver hready 1
UVM_INFO ../master_agent/master_driver.sv(49) @ 45: uvm_test_top.env_h.m_agt[0].m_drv [MASTER DRV] THIS IS AHB DRIVER 
 ----------------------------------------
Name          Type      Size  Value     
----------------------------------------
req           trans     -     @1739     
  HRESETn     integral  1     'd0       
  HBURST      integral  3     5         
  HRESP       integral  2     'd0       
  HADDR       integral  32    'h88000066
  HTRANS      integral  2     2         
  HWDATA      integral  32    'hc008e160
  HLEN        integral  8     'd8       
  HRDATA      integral  32    'd0       
  HSIZE       integral  3     'd0       
  HWRITE      integral  1     1         
  HREADY_OUT  integral  1     'd0       
----------------------------------------

UVM_INFO ../master_agent/master_driver.sv(49) @ 55: uvm_test_top.env_h.m_agt[0].m_drv [MASTER DRV] THIS IS AHB DRIVER 
 ----------------------------------------
Name          Type      Size  Value     
----------------------------------------
req           trans     -     @1739     
  HRESETn     integral  1     'd0       
  HBURST      integral  3     5         
  HRESP       integral  2     'd0       
  HADDR       integral  32    'h88000067
  HTRANS      integral  2     3         
  HWDATA      integral  32    'hbb23543d
  HLEN        integral  8     'd8       
  HRDATA      integral  32    'd0       
  HSIZE       integral  3     'd0       
  HWRITE      integral  1     1         
  HREADY_OUT  integral  1     'd0       
----------------------------------------

                  55MM @@@@@@@@@@@@@@@@@@@@@@@  - 3221807456
UVM_INFO ../master_agent/master_monitor.sv(100) @ 55: uvm_test_top.env_h.m_agt[0].m_mon [master monitor] Printing from master monitor 
 ----------------------------------------
Name          Type      Size  Value     
----------------------------------------
txn           trans     -     @1591     
  HRESETn     integral  1     'd0       
  HBURST      integral  3     5         
  HRESP       integral  2     'd0       
  HADDR       integral  32    'h88000066
  HTRANS      integral  2     2         
  HWDATA      integral  32    'h0       
  HLEN        integral  8     'd0       
  HRDATA      integral  32    'd0       
  HSIZE       integral  3     'd0       
  HWRITE      integral  1     1         
  HREADY_OUT  integral  1     'd0       
----------------------------------------

                  55master monitor write operation mem[88000066]=00000008
                  55slave monitor write operation mem[88000066]= 00000008
UVM_INFO ../slave_agent/slave_monitor.sv(95) @ 55: uvm_test_top.env_h.s_agt[2].s_mon [slave monitor] Printing from slave monitor 
 ----------------------------------------
Name          Type      Size  Value     
----------------------------------------
txn           trans     -     @1719     
  HRESETn     integral  1     'd0       
  HBURST      integral  3     'd0       
  HRESP       integral  2     'd0       
  HADDR       integral  32    'h88000066
  HTRANS      integral  2     'd0       
  HWDATA      integral  32    'h0       
  HLEN        integral  8     'd0       
  HRDATA      integral  32    'd0       
  HSIZE       integral  3     'd0       
  HWRITE      integral  1     1         
  HREADY_OUT  integral  1     'd0       
----------------------------------------

                  55slave haadr = 88000066 
 master addr = 88000066
UVM_INFO ../tb/scoreboard.sv(129) @ 55: uvm_test_top.env_h.sbh [SB] Address compared successfully
UVM_INFO ../tb/scoreboard.sv(135) @ 55: uvm_test_top.env_h.sbh [SB] write data matched successfully
UVM_INFO ../master_agent/master_driver.sv(49) @ 65: uvm_test_top.env_h.m_agt[0].m_drv [MASTER DRV] THIS IS AHB DRIVER 
 ----------------------------------------
Name          Type      Size  Value     
----------------------------------------
req           trans     -     @1739     
  HRESETn     integral  1     'd0       
  HBURST      integral  3     5         
  HRESP       integral  2     'd0       
  HADDR       integral  32    'h88000068
  HTRANS      integral  2     3         
  HWDATA      integral  32    'h8b4baf69
  HLEN        integral  8     'd8       
  HRDATA      integral  32    'd0       
  HSIZE       integral  3     'd0       
  HWRITE      integral  1     1         
  HREADY_OUT  integral  1     'd0       
----------------------------------------

                  65MM @@@@@@@@@@@@@@@@@@@@@@@  - 3139654717
UVM_INFO ../master_agent/master_monitor.sv(100) @ 65: uvm_test_top.env_h.m_agt[0].m_mon [master monitor] Printing from master monitor 
 ----------------------------------------
Name          Type      Size  Value     
----------------------------------------
txn           trans     -     @1753     
  HRESETn     integral  1     'd0       
  HBURST      integral  3     5         
  HRESP       integral  2     'd0       
  HADDR       integral  32    'h88000067
  HTRANS      integral  2     3         
  HWDATA      integral  32    'h0       
  HLEN        integral  8     'd0       
  HRDATA      integral  32    'd0       
  HSIZE       integral  3     'd0       
  HWRITE      integral  1     1         
  HREADY_OUT  integral  1     'd0       
----------------------------------------

                  65master monitor write operation mem[88000067]=000000bb
                  65slave monitor write operation mem[88000067]= 000000bb
UVM_INFO ../slave_agent/slave_monitor.sv(95) @ 65: uvm_test_top.env_h.s_agt[2].s_mon [slave monitor] Printing from slave monitor 
 ----------------------------------------
Name          Type      Size  Value     
----------------------------------------
txn           trans     -     @1757     
  HRESETn     integral  1     'd0       
  HBURST      integral  3     'd0       
  HRESP       integral  2     'd0       
  HADDR       integral  32    'h88000067
  HTRANS      integral  2     'd0       
  HWDATA      integral  32    'h0       
  HLEN        integral  8     'd0       
  HRDATA      integral  32    'd0       
  HSIZE       integral  3     'd0       
  HWRITE      integral  1     1         
  HREADY_OUT  integral  1     'd0       
----------------------------------------

                  65slave haadr = 88000067 
 master addr = 88000067
UVM_INFO ../tb/scoreboard.sv(129) @ 65: uvm_test_top.env_h.sbh [SB] Address compared successfully
UVM_INFO ../tb/scoreboard.sv(135) @ 65: uvm_test_top.env_h.sbh [SB] write data matched successfully
UVM_INFO ../master_agent/master_driver.sv(49) @ 75: uvm_test_top.env_h.m_agt[0].m_drv [MASTER DRV] THIS IS AHB DRIVER 
 ----------------------------------------
Name          Type      Size  Value     
----------------------------------------
req           trans     -     @1739     
  HRESETn     integral  1     'd0       
  HBURST      integral  3     5         
  HRESP       integral  2     'd0       
  HADDR       integral  32    'h88000069
  HTRANS      integral  2     3         
  HWDATA      integral  32    'h8097f85c
  HLEN        integral  8     'd8       
  HRDATA      integral  32    'd0       
  HSIZE       integral  3     'd0       
  HWRITE      integral  1     1         
  HREADY_OUT  integral  1     'd0       
----------------------------------------

                  75MM @@@@@@@@@@@@@@@@@@@@@@@  - 2336993129
UVM_INFO ../master_agent/master_monitor.sv(100) @ 75: uvm_test_top.env_h.m_agt[0].m_mon [master monitor] Printing from master monitor 
 ----------------------------------------
Name          Type      Size  Value     
----------------------------------------
txn           trans     -     @1761     
  HRESETn     integral  1     'd0       
  HBURST      integral  3     5         
  HRESP       integral  2     'd0       
  HADDR       integral  32    'h88000068
  HTRANS      integral  2     3         
  HWDATA      integral  32    'h0       
  HLEN        integral  8     'd0       
  HRDATA      integral  32    'd0       
  HSIZE       integral  3     'd0       
  HWRITE      integral  1     1         
  HREADY_OUT  integral  1     'd0       
----------------------------------------

                  75master monitor write operation mem[88000068]=00000069
                  75slave monitor write operation mem[88000068]= 00000069
UVM_INFO ../slave_agent/slave_monitor.sv(95) @ 75: uvm_test_top.env_h.s_agt[2].s_mon [slave monitor] Printing from slave monitor 
 ----------------------------------------
Name          Type      Size  Value     
----------------------------------------
txn           trans     -     @1765     
  HRESETn     integral  1     'd0       
  HBURST      integral  3     'd0       
  HRESP       integral  2     'd0       
  HADDR       integral  32    'h88000068
  HTRANS      integral  2     'd0       
  HWDATA      integral  32    'h0       
  HLEN        integral  8     'd0       
  HRDATA      integral  32    'd0       
  HSIZE       integral  3     'd0       
  HWRITE      integral  1     1         
  HREADY_OUT  integral  1     'd0       
----------------------------------------

                  75slave haadr = 88000068 
 master addr = 88000068
UVM_INFO ../tb/scoreboard.sv(129) @ 75: uvm_test_top.env_h.sbh [SB] Address compared successfully
UVM_INFO ../tb/scoreboard.sv(135) @ 75: uvm_test_top.env_h.sbh [SB] write data matched successfully
UVM_INFO ../master_agent/master_driver.sv(49) @ 85: uvm_test_top.env_h.m_agt[0].m_drv [MASTER DRV] THIS IS AHB DRIVER 
 ----------------------------------------
Name          Type      Size  Value     
----------------------------------------
req           trans     -     @1739     
  HRESETn     integral  1     'd0       
  HBURST      integral  3     5         
  HRESP       integral  2     'd0       
  HADDR       integral  32    'h8800006a
  HTRANS      integral  2     3         
  HWDATA      integral  32    'he4566fcb
  HLEN        integral  8     'd8       
  HRDATA      integral  32    'd0       
  HSIZE       integral  3     'd0       
  HWRITE      integral  1     1         
  HREADY_OUT  integral  1     'd0       
----------------------------------------

                  85MM @@@@@@@@@@@@@@@@@@@@@@@  - 2157443164
UVM_INFO ../master_agent/master_monitor.sv(100) @ 85: uvm_test_top.env_h.m_agt[0].m_mon [master monitor] Printing from master monitor 
 ----------------------------------------
Name          Type      Size  Value     
----------------------------------------
txn           trans     -     @1769     
  HRESETn     integral  1     'd0       
  HBURST      integral  3     5         
  HRESP       integral  2     'd0       
  HADDR       integral  32    'h88000069
  HTRANS      integral  2     3         
  HWDATA      integral  32    'h0       
  HLEN        integral  8     'd0       
  HRDATA      integral  32    'd0       
  HSIZE       integral  3     'd0       
  HWRITE      integral  1     1         
  HREADY_OUT  integral  1     'd0       
----------------------------------------

                  85master monitor write operation mem[88000069]=000000f8
                  85slave monitor write operation mem[88000069]= 000000f8
UVM_INFO ../slave_agent/slave_monitor.sv(95) @ 85: uvm_test_top.env_h.s_agt[2].s_mon [slave monitor] Printing from slave monitor 
 ----------------------------------------
Name          Type      Size  Value     
----------------------------------------
txn           trans     -     @1773     
  HRESETn     integral  1     'd0       
  HBURST      integral  3     'd0       
  HRESP       integral  2     'd0       
  HADDR       integral  32    'h88000069
  HTRANS      integral  2     'd0       
  HWDATA      integral  32    'h0       
  HLEN        integral  8     'd0       
  HRDATA      integral  32    'd0       
  HSIZE       integral  3     'd0       
  HWRITE      integral  1     1         
  HREADY_OUT  integral  1     'd0       
----------------------------------------

                  85slave haadr = 88000069 
 master addr = 88000069
UVM_INFO ../tb/scoreboard.sv(129) @ 85: uvm_test_top.env_h.sbh [SB] Address compared successfully
UVM_INFO ../tb/scoreboard.sv(135) @ 85: uvm_test_top.env_h.sbh [SB] write data matched successfully
UVM_INFO ../master_agent/master_driver.sv(49) @ 95: uvm_test_top.env_h.m_agt[0].m_drv [MASTER DRV] THIS IS AHB DRIVER 
 ----------------------------------------
Name          Type      Size  Value     
----------------------------------------
req           trans     -     @1739     
  HRESETn     integral  1     'd0       
  HBURST      integral  3     5         
  HRESP       integral  2     'd0       
  HADDR       integral  32    'h8800006b
  HTRANS      integral  2     3         
  HWDATA      integral  32    'h48f47b0b
  HLEN        integral  8     'd8       
  HRDATA      integral  32    'd0       
  HSIZE       integral  3     'd0       
  HWRITE      integral  1     1         
  HREADY_OUT  integral  1     'd0       
----------------------------------------

                  95MM @@@@@@@@@@@@@@@@@@@@@@@  - 3830869963
UVM_INFO ../master_agent/master_monitor.sv(100) @ 95: uvm_test_top.env_h.m_agt[0].m_mon [master monitor] Printing from master monitor 
 ----------------------------------------
Name          Type      Size  Value     
----------------------------------------
txn           trans     -     @1777     
  HRESETn     integral  1     'd0       
  HBURST      integral  3     5         
  HRESP       integral  2     'd0       
  HADDR       integral  32    'h8800006a
  HTRANS      integral  2     3         
  HWDATA      integral  32    'h0       
  HLEN        integral  8     'd0       
  HRDATA      integral  32    'd0       
  HSIZE       integral  3     'd0       
  HWRITE      integral  1     1         
  HREADY_OUT  integral  1     'd0       
----------------------------------------

                  95master monitor write operation mem[8800006a]=00000056
                  95slave monitor write operation mem[8800006a]= 00000056
UVM_INFO ../slave_agent/slave_monitor.sv(95) @ 95: uvm_test_top.env_h.s_agt[2].s_mon [slave monitor] Printing from slave monitor 
 ----------------------------------------
Name          Type      Size  Value     
----------------------------------------
txn           trans     -     @1781     
  HRESETn     integral  1     'd0       
  HBURST      integral  3     'd0       
  HRESP       integral  2     'd0       
  HADDR       integral  32    'h8800006a
  HTRANS      integral  2     'd0       
  HWDATA      integral  32    'h0       
  HLEN        integral  8     'd0       
  HRDATA      integral  32    'd0       
  HSIZE       integral  3     'd0       
  HWRITE      integral  1     1         
  HREADY_OUT  integral  1     'd0       
----------------------------------------

                  95slave haadr = 8800006a 
 master addr = 8800006a
UVM_INFO ../tb/scoreboard.sv(129) @ 95: uvm_test_top.env_h.sbh [SB] Address compared successfully
UVM_INFO ../tb/scoreboard.sv(135) @ 95: uvm_test_top.env_h.sbh [SB] write data matched successfully
UVM_INFO ../master_agent/master_driver.sv(49) @ 105: uvm_test_top.env_h.m_agt[0].m_drv [MASTER DRV] THIS IS AHB DRIVER 
 ----------------------------------------
Name          Type      Size  Value     
----------------------------------------
req           trans     -     @1739     
  HRESETn     integral  1     'd0       
  HBURST      integral  3     5         
  HRESP       integral  2     'd0       
  HADDR       integral  32    'h8800006c
  HTRANS      integral  2     3         
  HWDATA      integral  32    'h29fc3d2e
  HLEN        integral  8     'd8       
  HRDATA      integral  32    'd0       
  HSIZE       integral  3     'd0       
  HWRITE      integral  1     1         
  HREADY_OUT  integral  1     'd0       
----------------------------------------

                 105MM @@@@@@@@@@@@@@@@@@@@@@@  - 1223981835
UVM_INFO ../master_agent/master_monitor.sv(100) @ 105: uvm_test_top.env_h.m_agt[0].m_mon [master monitor] Printing from master monitor 
 ----------------------------------------
Name          Type      Size  Value     
----------------------------------------
txn           trans     -     @1785     
  HRESETn     integral  1     'd0       
  HBURST      integral  3     5         
  HRESP       integral  2     'd0       
  HADDR       integral  32    'h8800006b
  HTRANS      integral  2     3         
  HWDATA      integral  32    'h0       
  HLEN        integral  8     'd0       
  HRDATA      integral  32    'd0       
  HSIZE       integral  3     'd0       
  HWRITE      integral  1     1         
  HREADY_OUT  integral  1     'd0       
----------------------------------------

                 105master monitor write operation mem[8800006b]=00000048
                 105slave monitor write operation mem[8800006b]= 00000048
UVM_INFO ../slave_agent/slave_monitor.sv(95) @ 105: uvm_test_top.env_h.s_agt[2].s_mon [slave monitor] Printing from slave monitor 
 ----------------------------------------
Name          Type      Size  Value     
----------------------------------------
txn           trans     -     @1789     
  HRESETn     integral  1     'd0       
  HBURST      integral  3     'd0       
  HRESP       integral  2     'd0       
  HADDR       integral  32    'h8800006b
  HTRANS      integral  2     'd0       
  HWDATA      integral  32    'h0       
  HLEN        integral  8     'd0       
  HRDATA      integral  32    'd0       
  HSIZE       integral  3     'd0       
  HWRITE      integral  1     1         
  HREADY_OUT  integral  1     'd0       
----------------------------------------

                 105slave haadr = 8800006b 
 master addr = 8800006b
UVM_INFO ../tb/scoreboard.sv(129) @ 105: uvm_test_top.env_h.sbh [SB] Address compared successfully
UVM_INFO ../tb/scoreboard.sv(135) @ 105: uvm_test_top.env_h.sbh [SB] write data matched successfully
UVM_INFO ../master_agent/master_driver.sv(49) @ 115: uvm_test_top.env_h.m_agt[0].m_drv [MASTER DRV] THIS IS AHB DRIVER 
 ----------------------------------------
Name          Type      Size  Value     
----------------------------------------
req           trans     -     @1739     
  HRESETn     integral  1     'd0       
  HBURST      integral  3     5         
  HRESP       integral  2     'd0       
  HADDR       integral  32    'h8800006d
  HTRANS      integral  2     3         
  HWDATA      integral  32    'hc627781 
  HLEN        integral  8     'd8       
  HRDATA      integral  32    'd0       
  HSIZE       integral  3     'd0       
  HWRITE      integral  1     1         
  HREADY_OUT  integral  1     'd0       
----------------------------------------

                 115MM @@@@@@@@@@@@@@@@@@@@@@@  - 704396590
UVM_INFO ../master_agent/master_monitor.sv(100) @ 115: uvm_test_top.env_h.m_agt[0].m_mon [master monitor] Printing from master monitor 
 ----------------------------------------
Name          Type      Size  Value     
----------------------------------------
txn           trans     -     @1793     
  HRESETn     integral  1     'd0       
  HBURST      integral  3     5         
  HRESP       integral  2     'd0       
  HADDR       integral  32    'h8800006c
  HTRANS      integral  2     3         
  HWDATA      integral  32    'h0       
  HLEN        integral  8     'd0       
  HRDATA      integral  32    'd0       
  HSIZE       integral  3     'd0       
  HWRITE      integral  1     1         
  HREADY_OUT  integral  1     'd0       
----------------------------------------

                 115master monitor write operation mem[8800006c]=0000002e
                 115slave monitor write operation mem[8800006c]= 0000002e
UVM_INFO ../slave_agent/slave_monitor.sv(95) @ 115: uvm_test_top.env_h.s_agt[2].s_mon [slave monitor] Printing from slave monitor 
 ----------------------------------------
Name          Type      Size  Value     
----------------------------------------
txn           trans     -     @1797     
  HRESETn     integral  1     'd0       
  HBURST      integral  3     'd0       
  HRESP       integral  2     'd0       
  HADDR       integral  32    'h8800006c
  HTRANS      integral  2     'd0       
  HWDATA      integral  32    'h0       
  HLEN        integral  8     'd0       
  HRDATA      integral  32    'd0       
  HSIZE       integral  3     'd0       
  HWRITE      integral  1     1         
  HREADY_OUT  integral  1     'd0       
----------------------------------------

                 115slave haadr = 8800006c 
 master addr = 8800006c
UVM_INFO ../tb/scoreboard.sv(129) @ 115: uvm_test_top.env_h.sbh [SB] Address compared successfully
UVM_INFO ../tb/scoreboard.sv(135) @ 115: uvm_test_top.env_h.sbh [SB] write data matched successfully
                 125MM @@@@@@@@@@@@@@@@@@@@@@@  - 207779713
UVM_INFO ../master_agent/master_monitor.sv(100) @ 125: uvm_test_top.env_h.m_agt[0].m_mon [master monitor] Printing from master monitor 
 ----------------------------------------
Name          Type      Size  Value     
----------------------------------------
txn           trans     -     @1801     
  HRESETn     integral  1     'd0       
  HBURST      integral  3     5         
  HRESP       integral  2     'd0       
  HADDR       integral  32    'h8800006d
  HTRANS      integral  2     3         
  HWDATA      integral  32    'h0       
  HLEN        integral  8     'd0       
  HRDATA      integral  32    'd0       
  HSIZE       integral  3     'd0       
  HWRITE      integral  1     1         
  HREADY_OUT  integral  1     'd0       
----------------------------------------

                 125master monitor write operation mem[8800006d]=00000077
                 125slave monitor write operation mem[8800006d]= 00000077
UVM_INFO ../slave_agent/slave_monitor.sv(95) @ 125: uvm_test_top.env_h.s_agt[2].s_mon [slave monitor] Printing from slave monitor 
 ----------------------------------------
Name          Type      Size  Value     
----------------------------------------
txn           trans     -     @1805     
  HRESETn     integral  1     'd0       
  HBURST      integral  3     'd0       
  HRESP       integral  2     'd0       
  HADDR       integral  32    'h8800006d
  HTRANS      integral  2     'd0       
  HWDATA      integral  32    'h0       
  HLEN        integral  8     'd0       
  HRDATA      integral  32    'd0       
  HSIZE       integral  3     'd0       
  HWRITE      integral  1     1         
  HREADY_OUT  integral  1     'd0       
----------------------------------------

                 125slave haadr = 8800006d 
 master addr = 8800006d
UVM_INFO ../tb/scoreboard.sv(129) @ 125: uvm_test_top.env_h.sbh [SB] Address compared successfully
UVM_INFO ../tb/scoreboard.sv(135) @ 125: uvm_test_top.env_h.sbh [SB] write data matched successfully
                 135MM @@@@@@@@@@@@@@@@@@@@@@@  - 207779713
UVM_INFO ../master_agent/master_monitor.sv(100) @ 135: uvm_test_top.env_h.m_agt[0].m_mon [master monitor] Printing from master monitor 
 ----------------------------------------
Name          Type      Size  Value     
----------------------------------------
txn           trans     -     @1813     
  HRESETn     integral  1     'd0       
  HBURST      integral  3     5         
  HRESP       integral  2     'd0       
  HADDR       integral  32    'h8800006d
  HTRANS      integral  2     3         
  HWDATA      integral  32    'h0       
  HLEN        integral  8     'd0       
  HRDATA      integral  32    'd0       
  HSIZE       integral  3     'd0       
  HWRITE      integral  1     1         
  HREADY_OUT  integral  1     'd0       
----------------------------------------

                 135master monitor write operation mem[8800006d]=00000077
                 135slave monitor write operation mem[8800006d]= 00000077
UVM_INFO ../slave_agent/slave_monitor.sv(95) @ 135: uvm_test_top.env_h.s_agt[2].s_mon [slave monitor] Printing from slave monitor 
 ----------------------------------------
Name          Type      Size  Value     
----------------------------------------
txn           trans     -     @1817     
  HRESETn     integral  1     'd0       
  HBURST      integral  3     'd0       
  HRESP       integral  2     'd0       
  HADDR       integral  32    'h8800006d
  HTRANS      integral  2     'd0       
  HWDATA      integral  32    'h0       
  HLEN        integral  8     'd0       
  HRDATA      integral  32    'd0       
  HSIZE       integral  3     'd0       
  HWRITE      integral  1     1         
  HREADY_OUT  integral  1     'd0       
----------------------------------------

                 135slave haadr = 8800006d 
 master addr = 8800006d
UVM_INFO ../tb/scoreboard.sv(129) @ 135: uvm_test_top.env_h.sbh [SB] Address compared successfully
UVM_INFO ../tb/scoreboard.sv(135) @ 135: uvm_test_top.env_h.sbh [SB] write data matched successfully
                 145MM @@@@@@@@@@@@@@@@@@@@@@@  - 207779713
UVM_INFO ../master_agent/master_monitor.sv(100) @ 145: uvm_test_top.env_h.m_agt[0].m_mon [master monitor] Printing from master monitor 
 ----------------------------------------
Name          Type      Size  Value     
----------------------------------------
txn           trans     -     @1821     
  HRESETn     integral  1     'd0       
  HBURST      integral  3     5         
  HRESP       integral  2     'd0       
  HADDR       integral  32    'h8800006d
  HTRANS      integral  2     3         
  HWDATA      integral  32    'h0       
  HLEN        integral  8     'd0       
  HRDATA      integral  32    'd0       
  HSIZE       integral  3     'd0       
  HWRITE      integral  1     1         
  HREADY_OUT  integral  1     'd0       
----------------------------------------

                 145master monitor write operation mem[8800006d]=00000077
                 145slave monitor write operation mem[8800006d]= 00000077
UVM_INFO ../slave_agent/slave_monitor.sv(95) @ 145: uvm_test_top.env_h.s_agt[2].s_mon [slave monitor] Printing from slave monitor 
 ----------------------------------------
Name          Type      Size  Value     
----------------------------------------
txn           trans     -     @1825     
  HRESETn     integral  1     'd0       
  HBURST      integral  3     'd0       
  HRESP       integral  2     'd0       
  HADDR       integral  32    'h8800006d
  HTRANS      integral  2     'd0       
  HWDATA      integral  32    'h0       
  HLEN        integral  8     'd0       
  HRDATA      integral  32    'd0       
  HSIZE       integral  3     'd0       
  HWRITE      integral  1     1         
  HREADY_OUT  integral  1     'd0       
----------------------------------------

                 145slave haadr = 8800006d 
 master addr = 8800006d
UVM_INFO ../tb/scoreboard.sv(129) @ 145: uvm_test_top.env_h.sbh [SB] Address compared successfully
UVM_INFO ../tb/scoreboard.sv(135) @ 145: uvm_test_top.env_h.sbh [SB] write data matched successfully
UVM_INFO ../slave_agent/slave_driver.sv(40) @ 145: uvm_test_top.env_h.s_agt[0].s_drv [slave driver] slave driver reset  0
UVM_INFO ../slave_agent/slave_driver.sv(46) @ 145: uvm_test_top.env_h.s_agt[0].s_drv [slave driver] slave driver hready 1
                 155MM @@@@@@@@@@@@@@@@@@@@@@@  - 207779713
UVM_INFO ../master_agent/master_monitor.sv(100) @ 155: uvm_test_top.env_h.m_agt[0].m_mon [master monitor] Printing from master monitor 
 ----------------------------------------
Name          Type      Size  Value     
----------------------------------------
txn           trans     -     @1829     
  HRESETn     integral  1     'd0       
  HBURST      integral  3     5         
  HRESP       integral  2     'd0       
  HADDR       integral  32    'h8800006d
  HTRANS      integral  2     3         
  HWDATA      integral  32    'h0       
  HLEN        integral  8     'd0       
  HRDATA      integral  32    'd0       
  HSIZE       integral  3     'd0       
  HWRITE      integral  1     1         
  HREADY_OUT  integral  1     'd0       
----------------------------------------

                 155master monitor write operation mem[8800006d]=00000077
                 155slave monitor write operation mem[8800006d]= 00000077
UVM_INFO ../slave_agent/slave_monitor.sv(95) @ 155: uvm_test_top.env_h.s_agt[2].s_mon [slave monitor] Printing from slave monitor 
 ----------------------------------------
Name          Type      Size  Value     
----------------------------------------
txn           trans     -     @1833     
  HRESETn     integral  1     'd0       
  HBURST      integral  3     'd0       
  HRESP       integral  2     'd0       
  HADDR       integral  32    'h8800006d
  HTRANS      integral  2     'd0       
  HWDATA      integral  32    'h0       
  HLEN        integral  8     'd0       
  HRDATA      integral  32    'd0       
  HSIZE       integral  3     'd0       
  HWRITE      integral  1     1         
  HREADY_OUT  integral  1     'd0       
----------------------------------------

                 155slave haadr = 8800006d 
 master addr = 8800006d
UVM_INFO ../tb/scoreboard.sv(129) @ 155: uvm_test_top.env_h.sbh [SB] Address compared successfully
UVM_INFO ../tb/scoreboard.sv(135) @ 155: uvm_test_top.env_h.sbh [SB] write data matched successfully
UVM_INFO ../master_agent/master_driver.sv(49) @ 165: uvm_test_top.env_h.m_agt[0].m_drv [MASTER DRV] THIS IS AHB DRIVER 
 ----------------------------------------
Name          Type      Size  Value     
----------------------------------------
req           trans     -     @1843     
  HRESETn     integral  1     'd0       
  HBURST      integral  3     5         
  HRESP       integral  2     'd0       
  HADDR       integral  32    'h800002bd
  HTRANS      integral  2     2         
  HWDATA      integral  32    'h95f749aa
  HLEN        integral  8     'd8       
  HRDATA      integral  32    'd0       
  HSIZE       integral  3     'd0       
  HWRITE      integral  1     1         
  HREADY_OUT  integral  1     'd0       
----------------------------------------

                 165MM @@@@@@@@@@@@@@@@@@@@@@@  - 207779713
UVM_INFO ../master_agent/master_monitor.sv(100) @ 165: uvm_test_top.env_h.m_agt[0].m_mon [master monitor] Printing from master monitor 
 ----------------------------------------
Name          Type      Size  Value     
----------------------------------------
txn           trans     -     @1851     
  HRESETn     integral  1     'd0       
  HBURST      integral  3     5         
  HRESP       integral  2     'd0       
  HADDR       integral  32    'h8800006d
  HTRANS      integral  2     3         
  HWDATA      integral  32    'h0       
  HLEN        integral  8     'd0       
  HRDATA      integral  32    'd0       
  HSIZE       integral  3     'd0       
  HWRITE      integral  1     1         
  HREADY_OUT  integral  1     'd0       
----------------------------------------

                 165master monitor write operation mem[8800006d]=00000077
                 165slave monitor write operation mem[8800006d]= 00000077
UVM_INFO ../slave_agent/slave_monitor.sv(95) @ 165: uvm_test_top.env_h.s_agt[2].s_mon [slave monitor] Printing from slave monitor 
 ----------------------------------------
Name          Type      Size  Value     
----------------------------------------
txn           trans     -     @1855     
  HRESETn     integral  1     'd0       
  HBURST      integral  3     'd0       
  HRESP       integral  2     'd0       
  HADDR       integral  32    'h8800006d
  HTRANS      integral  2     'd0       
  HWDATA      integral  32    'h0       
  HLEN        integral  8     'd0       
  HRDATA      integral  32    'd0       
  HSIZE       integral  3     'd0       
  HWRITE      integral  1     1         
  HREADY_OUT  integral  1     'd0       
----------------------------------------

                 165slave monitor write operation mem[8800006d]= 00000077
UVM_INFO ../slave_agent/slave_monitor.sv(95) @ 165: uvm_test_top.env_h.s_agt[0].s_mon [slave monitor] Printing from slave monitor 
 ----------------------------------------
Name          Type      Size  Value     
----------------------------------------
txn           trans     -     @1727     
  HRESETn     integral  1     'd0       
  HBURST      integral  3     'd0       
  HRESP       integral  2     'd0       
  HADDR       integral  32    'h8800006d
  HTRANS      integral  2     'd0       
  HWDATA      integral  32    'h0       
  HLEN        integral  8     'd0       
  HRDATA      integral  32    'd0       
  HSIZE       integral  3     'd0       
  HWRITE      integral  1     1         
  HREADY_OUT  integral  1     'd0       
----------------------------------------

                 165slave haadr = 8800006d 
 master addr = 8800006d
UVM_INFO ../tb/scoreboard.sv(129) @ 165: uvm_test_top.env_h.sbh [SB] Address compared successfully
UVM_INFO ../tb/scoreboard.sv(135) @ 165: uvm_test_top.env_h.sbh [SB] write data matched successfully
UVM_INFO ../master_agent/master_driver.sv(49) @ 175: uvm_test_top.env_h.m_agt[0].m_drv [MASTER DRV] THIS IS AHB DRIVER 
 ----------------------------------------
Name          Type      Size  Value     
----------------------------------------
req           trans     -     @1843     
  HRESETn     integral  1     'd0       
  HBURST      integral  3     5         
  HRESP       integral  2     'd0       
  HADDR       integral  32    'h800002be
  HTRANS      integral  2     3         
  HWDATA      integral  32    'hcf430355
  HLEN        integral  8     'd8       
  HRDATA      integral  32    'd0       
  HSIZE       integral  3     'd0       
  HWRITE      integral  1     1         
  HREADY_OUT  integral  1     'd0       
----------------------------------------

                 175MM @@@@@@@@@@@@@@@@@@@@@@@  - 2516011434
UVM_INFO ../master_agent/master_monitor.sv(100) @ 175: uvm_test_top.env_h.m_agt[0].m_mon [master monitor] Printing from master monitor 
 ----------------------------------------
Name          Type      Size  Value     
----------------------------------------
txn           trans     -     @1864     
  HRESETn     integral  1     'd0       
  HBURST      integral  3     5         
  HRESP       integral  2     'd0       
  HADDR       integral  32    'h800002bd
  HTRANS      integral  2     2         
  HWDATA      integral  32    'h0       
  HLEN        integral  8     'd0       
  HRDATA      integral  32    'd0       
  HSIZE       integral  3     'd0       
  HWRITE      integral  1     1         
  HREADY_OUT  integral  1     'd0       
----------------------------------------

                 175master monitor write operation mem[800002bd]=00000049
                 175slave monitor write operation mem[800002bd]= 00000049
UVM_INFO ../slave_agent/slave_monitor.sv(95) @ 175: uvm_test_top.env_h.s_agt[2].s_mon [slave monitor] Printing from slave monitor 
 ----------------------------------------
Name          Type      Size  Value     
----------------------------------------
txn           trans     -     @1868     
  HRESETn     integral  1     'd0       
  HBURST      integral  3     'd0       
  HRESP       integral  2     'd0       
  HADDR       integral  32    'h800002bd
  HTRANS      integral  2     'd0       
  HWDATA      integral  32    'h0       
  HLEN        integral  8     'd0       
  HRDATA      integral  32    'd0       
  HSIZE       integral  3     'd0       
  HWRITE      integral  1     1         
  HREADY_OUT  integral  1     'd0       
----------------------------------------

                 175slave monitor write operation mem[800002bd]= 00000049
UVM_INFO ../slave_agent/slave_monitor.sv(95) @ 175: uvm_test_top.env_h.s_agt[0].s_mon [slave monitor] Printing from slave monitor 
 ----------------------------------------
Name          Type      Size  Value     
----------------------------------------
txn           trans     -     @1872     
  HRESETn     integral  1     'd0       
  HBURST      integral  3     'd0       
  HRESP       integral  2     'd0       
  HADDR       integral  32    'h800002bd
  HTRANS      integral  2     'd0       
  HWDATA      integral  32    'h0       
  HLEN        integral  8     'd0       
  HRDATA      integral  32    'd0       
  HSIZE       integral  3     'd0       
  HWRITE      integral  1     1         
  HREADY_OUT  integral  1     'd0       
----------------------------------------

                 175slave haadr = 800002bd 
 master addr = 800002bd
UVM_INFO ../tb/scoreboard.sv(129) @ 175: uvm_test_top.env_h.sbh [SB] Address compared successfully
UVM_INFO ../tb/scoreboard.sv(135) @ 175: uvm_test_top.env_h.sbh [SB] write data matched successfully
UVM_INFO ../master_agent/master_driver.sv(49) @ 185: uvm_test_top.env_h.m_agt[0].m_drv [MASTER DRV] THIS IS AHB DRIVER 
 ----------------------------------------
Name          Type      Size  Value     
----------------------------------------
req           trans     -     @1843     
  HRESETn     integral  1     'd0       
  HBURST      integral  3     5         
  HRESP       integral  2     'd0       
  HADDR       integral  32    'h800002bf
  HTRANS      integral  2     3         
  HWDATA      integral  32    'ha1ee2052
  HLEN        integral  8     'd8       
  HRDATA      integral  32    'd0       
  HSIZE       integral  3     'd0       
  HWRITE      integral  1     1         
  HREADY_OUT  integral  1     'd0       
----------------------------------------

                 185MM @@@@@@@@@@@@@@@@@@@@@@@  - 3477275477
UVM_INFO ../master_agent/master_monitor.sv(100) @ 185: uvm_test_top.env_h.m_agt[0].m_mon [master monitor] Printing from master monitor 
 ----------------------------------------
Name          Type      Size  Value     
----------------------------------------
txn           trans     -     @1876     
  HRESETn     integral  1     'd0       
  HBURST      integral  3     5         
  HRESP       integral  2     'd0       
  HADDR       integral  32    'h800002be
  HTRANS      integral  2     3         
  HWDATA      integral  32    'h0       
  HLEN        integral  8     'd0       
  HRDATA      integral  32    'd0       
  HSIZE       integral  3     'd0       
  HWRITE      integral  1     1         
  HREADY_OUT  integral  1     'd0       
----------------------------------------

                 185master monitor write operation mem[800002be]=00000043
                 185slave monitor write operation mem[800002be]= 00000043
UVM_INFO ../slave_agent/slave_monitor.sv(95) @ 185: uvm_test_top.env_h.s_agt[2].s_mon [slave monitor] Printing from slave monitor 
 ----------------------------------------
Name          Type      Size  Value     
----------------------------------------
txn           trans     -     @1880     
  HRESETn     integral  1     'd0       
  HBURST      integral  3     'd0       
  HRESP       integral  2     'd0       
  HADDR       integral  32    'h800002be
  HTRANS      integral  2     'd0       
  HWDATA      integral  32    'h0       
  HLEN        integral  8     'd0       
  HRDATA      integral  32    'd0       
  HSIZE       integral  3     'd0       
  HWRITE      integral  1     1         
  HREADY_OUT  integral  1     'd0       
----------------------------------------

                 185slave monitor write operation mem[800002be]= 00000043
UVM_INFO ../slave_agent/slave_monitor.sv(95) @ 185: uvm_test_top.env_h.s_agt[0].s_mon [slave monitor] Printing from slave monitor 
 ----------------------------------------
Name          Type      Size  Value     
----------------------------------------
txn           trans     -     @1884     
  HRESETn     integral  1     'd0       
  HBURST      integral  3     'd0       
  HRESP       integral  2     'd0       
  HADDR       integral  32    'h800002be
  HTRANS      integral  2     'd0       
  HWDATA      integral  32    'h0       
  HLEN        integral  8     'd0       
  HRDATA      integral  32    'd0       
  HSIZE       integral  3     'd0       
  HWRITE      integral  1     1         
  HREADY_OUT  integral  1     'd0       
----------------------------------------

                 185slave haadr = 800002be 
 master addr = 800002be
UVM_INFO ../tb/scoreboard.sv(129) @ 185: uvm_test_top.env_h.sbh [SB] Address compared successfully
UVM_INFO ../tb/scoreboard.sv(135) @ 185: uvm_test_top.env_h.sbh [SB] write data matched successfully
UVM_INFO ../master_agent/master_driver.sv(49) @ 195: uvm_test_top.env_h.m_agt[0].m_drv [MASTER DRV] THIS IS AHB DRIVER 
 ----------------------------------------
Name          Type      Size  Value     
----------------------------------------
req           trans     -     @1843     
  HRESETn     integral  1     'd0       
  HBURST      integral  3     5         
  HRESP       integral  2     'd0       
  HADDR       integral  32    'h800002c0
  HTRANS      integral  2     3         
  HWDATA      integral  32    'h36bd18de
  HLEN        integral  8     'd8       
  HRDATA      integral  32    'd0       
  HSIZE       integral  3     'd0       
  HWRITE      integral  1     1         
  HREADY_OUT  integral  1     'd0       
----------------------------------------

                 195MM @@@@@@@@@@@@@@@@@@@@@@@  - 2716737618
UVM_INFO ../master_agent/master_monitor.sv(100) @ 195: uvm_test_top.env_h.m_agt[0].m_mon [master monitor] Printing from master monitor 
 ----------------------------------------
Name          Type      Size  Value     
----------------------------------------
txn           trans     -     @1888     
  HRESETn     integral  1     'd0       
  HBURST      integral  3     5         
  HRESP       integral  2     'd0       
  HADDR       integral  32    'h800002bf
  HTRANS      integral  2     3         
  HWDATA      integral  32    'h0       
  HLEN        integral  8     'd0       
  HRDATA      integral  32    'd0       
  HSIZE       integral  3     'd0       
  HWRITE      integral  1     1         
  HREADY_OUT  integral  1     'd0       
----------------------------------------

                 195master monitor write operation mem[800002bf]=000000a1
                 195slave monitor write operation mem[800002bf]= 000000a1
UVM_INFO ../slave_agent/slave_monitor.sv(95) @ 195: uvm_test_top.env_h.s_agt[2].s_mon [slave monitor] Printing from slave monitor 
 ----------------------------------------
Name          Type      Size  Value     
----------------------------------------
txn           trans     -     @1892     
  HRESETn     integral  1     'd0       
  HBURST      integral  3     'd0       
  HRESP       integral  2     'd0       
  HADDR       integral  32    'h800002bf
  HTRANS      integral  2     'd0       
  HWDATA      integral  32    'h0       
  HLEN        integral  8     'd0       
  HRDATA      integral  32    'd0       
  HSIZE       integral  3     'd0       
  HWRITE      integral  1     1         
  HREADY_OUT  integral  1     'd0       
----------------------------------------

                 195slave monitor write operation mem[800002bf]= 000000a1
UVM_INFO ../slave_agent/slave_monitor.sv(95) @ 195: uvm_test_top.env_h.s_agt[0].s_mon [slave monitor] Printing from slave monitor 
 ----------------------------------------
Name          Type      Size  Value     
----------------------------------------
txn           trans     -     @1896     
  HRESETn     integral  1     'd0       
  HBURST      integral  3     'd0       
  HRESP       integral  2     'd0       
  HADDR       integral  32    'h800002bf
  HTRANS      integral  2     'd0       
  HWDATA      integral  32    'h0       
  HLEN        integral  8     'd0       
  HRDATA      integral  32    'd0       
  HSIZE       integral  3     'd0       
  HWRITE      integral  1     1         
  HREADY_OUT  integral  1     'd0       
----------------------------------------

                 195slave haadr = 800002bf 
 master addr = 800002bf
UVM_INFO ../tb/scoreboard.sv(129) @ 195: uvm_test_top.env_h.sbh [SB] Address compared successfully
UVM_INFO ../tb/scoreboard.sv(135) @ 195: uvm_test_top.env_h.sbh [SB] write data matched successfully
UVM_INFO ../master_agent/master_driver.sv(49) @ 205: uvm_test_top.env_h.m_agt[0].m_drv [MASTER DRV] THIS IS AHB DRIVER 
 ----------------------------------------
Name          Type      Size  Value     
----------------------------------------
req           trans     -     @1843     
  HRESETn     integral  1     'd0       
  HBURST      integral  3     5         
  HRESP       integral  2     'd0       
  HADDR       integral  32    'h800002c1
  HTRANS      integral  2     3         
  HWDATA      integral  32    'hccb2fbaf
  HLEN        integral  8     'd8       
  HRDATA      integral  32    'd0       
  HSIZE       integral  3     'd0       
  HWRITE      integral  1     1         
  HREADY_OUT  integral  1     'd0       
----------------------------------------

                 205MM @@@@@@@@@@@@@@@@@@@@@@@  - 918362334
UVM_INFO ../master_agent/master_monitor.sv(100) @ 205: uvm_test_top.env_h.m_agt[0].m_mon [master monitor] Printing from master monitor 
 ----------------------------------------
Name          Type      Size  Value     
----------------------------------------
txn           trans     -     @1900     
  HRESETn     integral  1     'd0       
  HBURST      integral  3     5         
  HRESP       integral  2     'd0       
  HADDR       integral  32    'h800002c0
  HTRANS      integral  2     3         
  HWDATA      integral  32    'h0       
  HLEN        integral  8     'd0       
  HRDATA      integral  32    'd0       
  HSIZE       integral  3     'd0       
  HWRITE      integral  1     1         
  HREADY_OUT  integral  1     'd0       
----------------------------------------

                 205master monitor write operation mem[800002c0]=000000de
                 205slave monitor write operation mem[800002c0]= 000000de
UVM_INFO ../slave_agent/slave_monitor.sv(95) @ 205: uvm_test_top.env_h.s_agt[2].s_mon [slave monitor] Printing from slave monitor 
 ----------------------------------------
Name          Type      Size  Value     
----------------------------------------
txn           trans     -     @1904     
  HRESETn     integral  1     'd0       
  HBURST      integral  3     'd0       
  HRESP       integral  2     'd0       
  HADDR       integral  32    'h800002c0
  HTRANS      integral  2     'd0       
  HWDATA      integral  32    'h0       
  HLEN        integral  8     'd0       
  HRDATA      integral  32    'd0       
  HSIZE       integral  3     'd0       
  HWRITE      integral  1     1         
  HREADY_OUT  integral  1     'd0       
----------------------------------------

                 205slave monitor write operation mem[800002c0]= 000000de
UVM_INFO ../slave_agent/slave_monitor.sv(95) @ 205: uvm_test_top.env_h.s_agt[0].s_mon [slave monitor] Printing from slave monitor 
 ----------------------------------------
Name          Type      Size  Value     
----------------------------------------
txn           trans     -     @1908     
  HRESETn     integral  1     'd0       
  HBURST      integral  3     'd0       
  HRESP       integral  2     'd0       
  HADDR       integral  32    'h800002c0
  HTRANS      integral  2     'd0       
  HWDATA      integral  32    'h0       
  HLEN        integral  8     'd0       
  HRDATA      integral  32    'd0       
  HSIZE       integral  3     'd0       
  HWRITE      integral  1     1         
  HREADY_OUT  integral  1     'd0       
----------------------------------------

                 205slave haadr = 800002c0 
 master addr = 800002c0
UVM_INFO ../tb/scoreboard.sv(129) @ 205: uvm_test_top.env_h.sbh [SB] Address compared successfully
UVM_INFO ../tb/scoreboard.sv(135) @ 205: uvm_test_top.env_h.sbh [SB] write data matched successfully
UVM_INFO ../master_agent/master_driver.sv(49) @ 215: uvm_test_top.env_h.m_agt[0].m_drv [MASTER DRV] THIS IS AHB DRIVER 
 ----------------------------------------
Name          Type      Size  Value     
----------------------------------------
req           trans     -     @1843     
  HRESETn     integral  1     'd0       
  HBURST      integral  3     5         
  HRESP       integral  2     'd0       
  HADDR       integral  32    'h800002c2
  HTRANS      integral  2     3         
  HWDATA      integral  32    'h7af03d23
  HLEN        integral  8     'd8       
  HRDATA      integral  32    'd0       
  HSIZE       integral  3     'd0       
  HWRITE      integral  1     1         
  HREADY_OUT  integral  1     'd0       
----------------------------------------

                 215MM @@@@@@@@@@@@@@@@@@@@@@@  - 3434281903
UVM_INFO ../master_agent/master_monitor.sv(100) @ 215: uvm_test_top.env_h.m_agt[0].m_mon [master monitor] Printing from master monitor 
 ----------------------------------------
Name          Type      Size  Value     
----------------------------------------
txn           trans     -     @1912     
  HRESETn     integral  1     'd0       
  HBURST      integral  3     5         
  HRESP       integral  2     'd0       
  HADDR       integral  32    'h800002c1
  HTRANS      integral  2     3         
  HWDATA      integral  32    'h0       
  HLEN        integral  8     'd0       
  HRDATA      integral  32    'd0       
  HSIZE       integral  3     'd0       
  HWRITE      integral  1     1         
  HREADY_OUT  integral  1     'd0       
----------------------------------------

                 215master monitor write operation mem[800002c1]=000000fb
                 215slave monitor write operation mem[800002c1]= 000000fb
UVM_INFO ../slave_agent/slave_monitor.sv(95) @ 215: uvm_test_top.env_h.s_agt[2].s_mon [slave monitor] Printing from slave monitor 
 ----------------------------------------
Name          Type      Size  Value     
----------------------------------------
txn           trans     -     @1916     
  HRESETn     integral  1     'd0       
  HBURST      integral  3     'd0       
  HRESP       integral  2     'd0       
  HADDR       integral  32    'h800002c1
  HTRANS      integral  2     'd0       
  HWDATA      integral  32    'h0       
  HLEN        integral  8     'd0       
  HRDATA      integral  32    'd0       
  HSIZE       integral  3     'd0       
  HWRITE      integral  1     1         
  HREADY_OUT  integral  1     'd0       
----------------------------------------

                 215slave monitor write operation mem[800002c1]= 000000fb
UVM_INFO ../slave_agent/slave_monitor.sv(95) @ 215: uvm_test_top.env_h.s_agt[0].s_mon [slave monitor] Printing from slave monitor 
 ----------------------------------------
Name          Type      Size  Value     
----------------------------------------
txn           trans     -     @1920     
  HRESETn     integral  1     'd0       
  HBURST      integral  3     'd0       
  HRESP       integral  2     'd0       
  HADDR       integral  32    'h800002c1
  HTRANS      integral  2     'd0       
  HWDATA      integral  32    'h0       
  HLEN        integral  8     'd0       
  HRDATA      integral  32    'd0       
  HSIZE       integral  3     'd0       
  HWRITE      integral  1     1         
  HREADY_OUT  integral  1     'd0       
----------------------------------------

                 215slave haadr = 800002c1 
 master addr = 800002c1
UVM_INFO ../tb/scoreboard.sv(129) @ 215: uvm_test_top.env_h.sbh [SB] Address compared successfully
UVM_INFO ../tb/scoreboard.sv(135) @ 215: uvm_test_top.env_h.sbh [SB] write data matched successfully
UVM_INFO ../master_agent/master_driver.sv(49) @ 225: uvm_test_top.env_h.m_agt[0].m_drv [MASTER DRV] THIS IS AHB DRIVER 
 ----------------------------------------
Name          Type      Size  Value     
----------------------------------------
req           trans     -     @1843     
  HRESETn     integral  1     'd0       
  HBURST      integral  3     5         
  HRESP       integral  2     'd0       
  HADDR       integral  32    'h800002c3
  HTRANS      integral  2     3         
  HWDATA      integral  32    'hbf4f275f
  HLEN        integral  8     'd8       
  HRDATA      integral  32    'd0       
  HSIZE       integral  3     'd0       
  HWRITE      integral  1     1         
  HREADY_OUT  integral  1     'd0       
----------------------------------------

                 225MM @@@@@@@@@@@@@@@@@@@@@@@  - 2062564643
UVM_INFO ../master_agent/master_monitor.sv(100) @ 225: uvm_test_top.env_h.m_agt[0].m_mon [master monitor] Printing from master monitor 
 ----------------------------------------
Name          Type      Size  Value     
----------------------------------------
txn           trans     -     @1924     
  HRESETn     integral  1     'd0       
  HBURST      integral  3     5         
  HRESP       integral  2     'd0       
  HADDR       integral  32    'h800002c2
  HTRANS      integral  2     3         
  HWDATA      integral  32    'h0       
  HLEN        integral  8     'd0       
  HRDATA      integral  32    'd0       
  HSIZE       integral  3     'd0       
  HWRITE      integral  1     1         
  HREADY_OUT  integral  1     'd0       
----------------------------------------

                 225master monitor write operation mem[800002c2]=000000f0
                 225slave monitor write operation mem[800002c2]= 000000f0
UVM_INFO ../slave_agent/slave_monitor.sv(95) @ 225: uvm_test_top.env_h.s_agt[2].s_mon [slave monitor] Printing from slave monitor 
 ----------------------------------------
Name          Type      Size  Value     
----------------------------------------
txn           trans     -     @1928     
  HRESETn     integral  1     'd0       
  HBURST      integral  3     'd0       
  HRESP       integral  2     'd0       
  HADDR       integral  32    'h800002c2
  HTRANS      integral  2     'd0       
  HWDATA      integral  32    'h0       
  HLEN        integral  8     'd0       
  HRDATA      integral  32    'd0       
  HSIZE       integral  3     'd0       
  HWRITE      integral  1     1         
  HREADY_OUT  integral  1     'd0       
----------------------------------------

                 225slave monitor write operation mem[800002c2]= 000000f0
UVM_INFO ../slave_agent/slave_monitor.sv(95) @ 225: uvm_test_top.env_h.s_agt[0].s_mon [slave monitor] Printing from slave monitor 
 ----------------------------------------
Name          Type      Size  Value     
----------------------------------------
txn           trans     -     @1932     
  HRESETn     integral  1     'd0       
  HBURST      integral  3     'd0       
  HRESP       integral  2     'd0       
  HADDR       integral  32    'h800002c2
  HTRANS      integral  2     'd0       
  HWDATA      integral  32    'h0       
  HLEN        integral  8     'd0       
  HRDATA      integral  32    'd0       
  HSIZE       integral  3     'd0       
  HWRITE      integral  1     1         
  HREADY_OUT  integral  1     'd0       
----------------------------------------

                 225slave haadr = 800002c2 
 master addr = 800002c2
UVM_INFO ../tb/scoreboard.sv(129) @ 225: uvm_test_top.env_h.sbh [SB] Address compared successfully
UVM_INFO ../tb/scoreboard.sv(135) @ 225: uvm_test_top.env_h.sbh [SB] write data matched successfully
UVM_INFO ../master_agent/master_driver.sv(49) @ 235: uvm_test_top.env_h.m_agt[0].m_drv [MASTER DRV] THIS IS AHB DRIVER 
 ----------------------------------------
Name          Type      Size  Value     
----------------------------------------
req           trans     -     @1843     
  HRESETn     integral  1     'd0       
  HBURST      integral  3     5         
  HRESP       integral  2     'd0       
  HADDR       integral  32    'h800002c4
  HTRANS      integral  2     3         
  HWDATA      integral  32    'h540f4415
  HLEN        integral  8     'd8       
  HRDATA      integral  32    'd0       
  HSIZE       integral  3     'd0       
  HWRITE      integral  1     1         
  HREADY_OUT  integral  1     'd0       
----------------------------------------

                 235MM @@@@@@@@@@@@@@@@@@@@@@@  - 3209635679
UVM_INFO ../master_agent/master_monitor.sv(100) @ 235: uvm_test_top.env_h.m_agt[0].m_mon [master monitor] Printing from master monitor 
 ----------------------------------------
Name          Type      Size  Value     
----------------------------------------
txn           trans     -     @1936     
  HRESETn     integral  1     'd0       
  HBURST      integral  3     5         
  HRESP       integral  2     'd0       
  HADDR       integral  32    'h800002c3
  HTRANS      integral  2     3         
  HWDATA      integral  32    'h0       
  HLEN        integral  8     'd0       
  HRDATA      integral  32    'd0       
  HSIZE       integral  3     'd0       
  HWRITE      integral  1     1         
  HREADY_OUT  integral  1     'd0       
----------------------------------------

                 235master monitor write operation mem[800002c3]=000000bf
                 235slave monitor write operation mem[800002c3]= 000000bf
UVM_INFO ../slave_agent/slave_monitor.sv(95) @ 235: uvm_test_top.env_h.s_agt[2].s_mon [slave monitor] Printing from slave monitor 
 ----------------------------------------
Name          Type      Size  Value     
----------------------------------------
txn           trans     -     @1940     
  HRESETn     integral  1     'd0       
  HBURST      integral  3     'd0       
  HRESP       integral  2     'd0       
  HADDR       integral  32    'h800002c3
  HTRANS      integral  2     'd0       
  HWDATA      integral  32    'h0       
  HLEN        integral  8     'd0       
  HRDATA      integral  32    'd0       
  HSIZE       integral  3     'd0       
  HWRITE      integral  1     1         
  HREADY_OUT  integral  1     'd0       
----------------------------------------

                 235slave monitor write operation mem[800002c3]= 000000bf
UVM_INFO ../slave_agent/slave_monitor.sv(95) @ 235: uvm_test_top.env_h.s_agt[0].s_mon [slave monitor] Printing from slave monitor 
 ----------------------------------------
Name          Type      Size  Value     
----------------------------------------
txn           trans     -     @1944     
  HRESETn     integral  1     'd0       
  HBURST      integral  3     'd0       
  HRESP       integral  2     'd0       
  HADDR       integral  32    'h800002c3
  HTRANS      integral  2     'd0       
  HWDATA      integral  32    'h0       
  HLEN        integral  8     'd0       
  HRDATA      integral  32    'd0       
  HSIZE       integral  3     'd0       
  HWRITE      integral  1     1         
  HREADY_OUT  integral  1     'd0       
----------------------------------------

                 235slave haadr = 800002c3 
 master addr = 800002c3
UVM_INFO ../tb/scoreboard.sv(129) @ 235: uvm_test_top.env_h.sbh [SB] Address compared successfully
UVM_INFO ../tb/scoreboard.sv(135) @ 235: uvm_test_top.env_h.sbh [SB] write data matched successfully
                 245MM @@@@@@@@@@@@@@@@@@@@@@@  - 1410286613
UVM_INFO ../master_agent/master_monitor.sv(100) @ 245: uvm_test_top.env_h.m_agt[0].m_mon [master monitor] Printing from master monitor 
 ----------------------------------------
Name          Type      Size  Value     
----------------------------------------
txn           trans     -     @1948     
  HRESETn     integral  1     'd0       
  HBURST      integral  3     5         
  HRESP       integral  2     'd0       
  HADDR       integral  32    'h800002c4
  HTRANS      integral  2     3         
  HWDATA      integral  32    'h0       
  HLEN        integral  8     'd0       
  HRDATA      integral  32    'd0       
  HSIZE       integral  3     'd0       
  HWRITE      integral  1     1         
  HREADY_OUT  integral  1     'd0       
----------------------------------------

                 245master monitor write operation mem[800002c4]=00000015
                 245slave monitor write operation mem[800002c4]= 00000015
UVM_INFO ../slave_agent/slave_monitor.sv(95) @ 245: uvm_test_top.env_h.s_agt[2].s_mon [slave monitor] Printing from slave monitor 
 ----------------------------------------
Name          Type      Size  Value     
----------------------------------------
txn           trans     -     @1952     
  HRESETn     integral  1     'd0       
  HBURST      integral  3     'd0       
  HRESP       integral  2     'd0       
  HADDR       integral  32    'h800002c4
  HTRANS      integral  2     'd0       
  HWDATA      integral  32    'h0       
  HLEN        integral  8     'd0       
  HRDATA      integral  32    'd0       
  HSIZE       integral  3     'd0       
  HWRITE      integral  1     1         
  HREADY_OUT  integral  1     'd0       
----------------------------------------

                 245slave monitor write operation mem[800002c4]= 00000015
UVM_INFO ../slave_agent/slave_monitor.sv(95) @ 245: uvm_test_top.env_h.s_agt[0].s_mon [slave monitor] Printing from slave monitor 
 ----------------------------------------
Name          Type      Size  Value     
----------------------------------------
txn           trans     -     @1956     
  HRESETn     integral  1     'd0       
  HBURST      integral  3     'd0       
  HRESP       integral  2     'd0       
  HADDR       integral  32    'h800002c4
  HTRANS      integral  2     'd0       
  HWDATA      integral  32    'h0       
  HLEN        integral  8     'd0       
  HRDATA      integral  32    'd0       
  HSIZE       integral  3     'd0       
  HWRITE      integral  1     1         
  HREADY_OUT  integral  1     'd0       
----------------------------------------

                 245slave haadr = 800002c4 
 master addr = 800002c4
UVM_INFO ../tb/scoreboard.sv(129) @ 245: uvm_test_top.env_h.sbh [SB] Address compared successfully
UVM_INFO ../tb/scoreboard.sv(135) @ 245: uvm_test_top.env_h.sbh [SB] write data matched successfully
                 255MM @@@@@@@@@@@@@@@@@@@@@@@  - 1410286613
UVM_INFO ../master_agent/master_monitor.sv(100) @ 255: uvm_test_top.env_h.m_agt[0].m_mon [master monitor] Printing from master monitor 
 ----------------------------------------
Name          Type      Size  Value     
----------------------------------------
txn           trans     -     @1964     
  HRESETn     integral  1     'd0       
  HBURST      integral  3     5         
  HRESP       integral  2     'd0       
  HADDR       integral  32    'h800002c4
  HTRANS      integral  2     3         
  HWDATA      integral  32    'h0       
  HLEN        integral  8     'd0       
  HRDATA      integral  32    'd0       
  HSIZE       integral  3     'd0       
  HWRITE      integral  1     1         
  HREADY_OUT  integral  1     'd0       
----------------------------------------

                 255master monitor write operation mem[800002c4]=00000015
                 255slave monitor write operation mem[800002c4]= 00000015
UVM_INFO ../slave_agent/slave_monitor.sv(95) @ 255: uvm_test_top.env_h.s_agt[2].s_mon [slave monitor] Printing from slave monitor 
 ----------------------------------------
Name          Type      Size  Value     
----------------------------------------
txn           trans     -     @1968     
  HRESETn     integral  1     'd0       
  HBURST      integral  3     'd0       
  HRESP       integral  2     'd0       
  HADDR       integral  32    'h800002c4
  HTRANS      integral  2     'd0       
  HWDATA      integral  32    'h0       
  HLEN        integral  8     'd0       
  HRDATA      integral  32    'd0       
  HSIZE       integral  3     'd0       
  HWRITE      integral  1     1         
  HREADY_OUT  integral  1     'd0       
----------------------------------------

                 255slave monitor write operation mem[800002c4]= 00000015
UVM_INFO ../slave_agent/slave_monitor.sv(95) @ 255: uvm_test_top.env_h.s_agt[0].s_mon [slave monitor] Printing from slave monitor 
 ----------------------------------------
Name          Type      Size  Value     
----------------------------------------
txn           trans     -     @1972     
  HRESETn     integral  1     'd0       
  HBURST      integral  3     'd0       
  HRESP       integral  2     'd0       
  HADDR       integral  32    'h800002c4
  HTRANS      integral  2     'd0       
  HWDATA      integral  32    'h0       
  HLEN        integral  8     'd0       
  HRDATA      integral  32    'd0       
  HSIZE       integral  3     'd0       
  HWRITE      integral  1     1         
  HREADY_OUT  integral  1     'd0       
----------------------------------------

                 255slave haadr = 800002c4 
 master addr = 800002c4
UVM_INFO ../tb/scoreboard.sv(129) @ 255: uvm_test_top.env_h.sbh [SB] Address compared successfully
UVM_INFO ../tb/scoreboard.sv(135) @ 255: uvm_test_top.env_h.sbh [SB] write data matched successfully
                 265MM @@@@@@@@@@@@@@@@@@@@@@@  - 1410286613
UVM_INFO ../master_agent/master_monitor.sv(100) @ 265: uvm_test_top.env_h.m_agt[0].m_mon [master monitor] Printing from master monitor 
 ----------------------------------------
Name          Type      Size  Value     
----------------------------------------
txn           trans     -     @1976     
  HRESETn     integral  1     'd0       
  HBURST      integral  3     5         
  HRESP       integral  2     'd0       
  HADDR       integral  32    'h800002c4
  HTRANS      integral  2     3         
  HWDATA      integral  32    'h0       
  HLEN        integral  8     'd0       
  HRDATA      integral  32    'd0       
  HSIZE       integral  3     'd0       
  HWRITE      integral  1     1         
  HREADY_OUT  integral  1     'd0       
----------------------------------------

                 265master monitor write operation mem[800002c4]=00000015
                 265slave monitor write operation mem[800002c4]= 00000015
UVM_INFO ../slave_agent/slave_monitor.sv(95) @ 265: uvm_test_top.env_h.s_agt[2].s_mon [slave monitor] Printing from slave monitor 
 ----------------------------------------
Name          Type      Size  Value     
----------------------------------------
txn           trans     -     @1980     
  HRESETn     integral  1     'd0       
  HBURST      integral  3     'd0       
  HRESP       integral  2     'd0       
  HADDR       integral  32    'h800002c4
  HTRANS      integral  2     'd0       
  HWDATA      integral  32    'h0       
  HLEN        integral  8     'd0       
  HRDATA      integral  32    'd0       
  HSIZE       integral  3     'd0       
  HWRITE      integral  1     1         
  HREADY_OUT  integral  1     'd0       
----------------------------------------

                 265slave monitor write operation mem[800002c4]= 00000015
UVM_INFO ../slave_agent/slave_monitor.sv(95) @ 265: uvm_test_top.env_h.s_agt[0].s_mon [slave monitor] Printing from slave monitor 
 ----------------------------------------
Name          Type      Size  Value     
----------------------------------------
txn           trans     -     @1984     
  HRESETn     integral  1     'd0       
  HBURST      integral  3     'd0       
  HRESP       integral  2     'd0       
  HADDR       integral  32    'h800002c4
  HTRANS      integral  2     'd0       
  HWDATA      integral  32    'h0       
  HLEN        integral  8     'd0       
  HRDATA      integral  32    'd0       
  HSIZE       integral  3     'd0       
  HWRITE      integral  1     1         
  HREADY_OUT  integral  1     'd0       
----------------------------------------

                 265slave haadr = 800002c4 
 master addr = 800002c4
UVM_INFO ../tb/scoreboard.sv(129) @ 265: uvm_test_top.env_h.sbh [SB] Address compared successfully
UVM_INFO ../tb/scoreboard.sv(135) @ 265: uvm_test_top.env_h.sbh [SB] write data matched successfully
UVM_INFO ../slave_agent/slave_driver.sv(40) @ 265: uvm_test_top.env_h.s_agt[1].s_drv [slave driver] slave driver reset  0
UVM_INFO ../slave_agent/slave_driver.sv(46) @ 265: uvm_test_top.env_h.s_agt[1].s_drv [slave driver] slave driver hready 1
                 275MM @@@@@@@@@@@@@@@@@@@@@@@  - 1410286613
UVM_INFO ../master_agent/master_monitor.sv(100) @ 275: uvm_test_top.env_h.m_agt[0].m_mon [master monitor] Printing from master monitor 
 ----------------------------------------
Name          Type      Size  Value     
----------------------------------------
txn           trans     -     @1988     
  HRESETn     integral  1     'd0       
  HBURST      integral  3     5         
  HRESP       integral  2     'd0       
  HADDR       integral  32    'h800002c4
  HTRANS      integral  2     3         
  HWDATA      integral  32    'h0       
  HLEN        integral  8     'd0       
  HRDATA      integral  32    'd0       
  HSIZE       integral  3     'd0       
  HWRITE      integral  1     1         
  HREADY_OUT  integral  1     'd0       
----------------------------------------

                 275master monitor write operation mem[800002c4]=00000015
                 275slave monitor write operation mem[800002c4]= 00000015
UVM_INFO ../slave_agent/slave_monitor.sv(95) @ 275: uvm_test_top.env_h.s_agt[2].s_mon [slave monitor] Printing from slave monitor 
 ----------------------------------------
Name          Type      Size  Value     
----------------------------------------
txn           trans     -     @1992     
  HRESETn     integral  1     'd0       
  HBURST      integral  3     'd0       
  HRESP       integral  2     'd0       
  HADDR       integral  32    'h800002c4
  HTRANS      integral  2     'd0       
  HWDATA      integral  32    'h0       
  HLEN        integral  8     'd0       
  HRDATA      integral  32    'd0       
  HSIZE       integral  3     'd0       
  HWRITE      integral  1     1         
  HREADY_OUT  integral  1     'd0       
----------------------------------------

                 275slave monitor write operation mem[800002c4]= 00000015
UVM_INFO ../slave_agent/slave_monitor.sv(95) @ 275: uvm_test_top.env_h.s_agt[0].s_mon [slave monitor] Printing from slave monitor 
 ----------------------------------------
Name          Type      Size  Value     
----------------------------------------
txn           trans     -     @1996     
  HRESETn     integral  1     'd0       
  HBURST      integral  3     'd0       
  HRESP       integral  2     'd0       
  HADDR       integral  32    'h800002c4
  HTRANS      integral  2     'd0       
  HWDATA      integral  32    'h0       
  HLEN        integral  8     'd0       
  HRDATA      integral  32    'd0       
  HSIZE       integral  3     'd0       
  HWRITE      integral  1     1         
  HREADY_OUT  integral  1     'd0       
----------------------------------------

                 275slave haadr = 800002c4 
 master addr = 800002c4
UVM_INFO ../tb/scoreboard.sv(129) @ 275: uvm_test_top.env_h.sbh [SB] Address compared successfully
UVM_INFO ../tb/scoreboard.sv(135) @ 275: uvm_test_top.env_h.sbh [SB] write data matched successfully
UVM_INFO ../master_agent/master_driver.sv(49) @ 285: uvm_test_top.env_h.m_agt[0].m_drv [MASTER DRV] THIS IS AHB DRIVER 
 ----------------------------------------
Name          Type      Size  Value     
----------------------------------------
req           trans     -     @2006     
  HRESETn     integral  1     'd0       
  HBURST      integral  3     'd2       
  HRESP       integral  2     'd0       
  HADDR       integral  32    'h8400031a
  HTRANS      integral  2     2         
  HWDATA      integral  32    'h18534138
  HLEN        integral  8     'd4       
  HRDATA      integral  32    'd0       
  HSIZE       integral  3     'd1       
  HWRITE      integral  1     1         
  HREADY_OUT  integral  1     'd0       
----------------------------------------

                 285MM @@@@@@@@@@@@@@@@@@@@@@@  - 1410286613
UVM_INFO ../master_agent/master_monitor.sv(100) @ 285: uvm_test_top.env_h.m_agt[0].m_mon [master monitor] Printing from master monitor 
 ----------------------------------------
Name          Type      Size  Value     
----------------------------------------
txn           trans     -     @2014     
  HRESETn     integral  1     'd0       
  HBURST      integral  3     5         
  HRESP       integral  2     'd0       
  HADDR       integral  32    'h800002c4
  HTRANS      integral  2     3         
  HWDATA      integral  32    'h0       
  HLEN        integral  8     'd0       
  HRDATA      integral  32    'd0       
  HSIZE       integral  3     'd0       
  HWRITE      integral  1     1         
  HREADY_OUT  integral  1     'd0       
----------------------------------------

                 285master monitor write operation mem[800002c4]=00000015
                 285slave monitor write operation mem[800002c4]= 00000015
UVM_INFO ../slave_agent/slave_monitor.sv(95) @ 285: uvm_test_top.env_h.s_agt[2].s_mon [slave monitor] Printing from slave monitor 
 ----------------------------------------
Name          Type      Size  Value     
----------------------------------------
txn           trans     -     @2018     
  HRESETn     integral  1     'd0       
  HBURST      integral  3     'd0       
  HRESP       integral  2     'd0       
  HADDR       integral  32    'h800002c4
  HTRANS      integral  2     'd0       
  HWDATA      integral  32    'h0       
  HLEN        integral  8     'd0       
  HRDATA      integral  32    'd0       
  HSIZE       integral  3     'd0       
  HWRITE      integral  1     1         
  HREADY_OUT  integral  1     'd0       
----------------------------------------

                 285slave monitor write operation mem[800002c4]= 00000015
UVM_INFO ../slave_agent/slave_monitor.sv(95) @ 285: uvm_test_top.env_h.s_agt[1].s_mon [slave monitor] Printing from slave monitor 
 ----------------------------------------
Name          Type      Size  Value     
----------------------------------------
txn           trans     -     @1723     
  HRESETn     integral  1     'd0       
  HBURST      integral  3     'd0       
  HRESP       integral  2     'd0       
  HADDR       integral  32    'h800002c4
  HTRANS      integral  2     'd0       
  HWDATA      integral  32    'h0       
  HLEN        integral  8     'd0       
  HRDATA      integral  32    'd0       
  HSIZE       integral  3     'd0       
  HWRITE      integral  1     1         
  HREADY_OUT  integral  1     'd0       
----------------------------------------

                 285slave monitor write operation mem[800002c4]= 00000015
UVM_INFO ../slave_agent/slave_monitor.sv(95) @ 285: uvm_test_top.env_h.s_agt[0].s_mon [slave monitor] Printing from slave monitor 
 ----------------------------------------
Name          Type      Size  Value     
----------------------------------------
txn           trans     -     @2022     
  HRESETn     integral  1     'd0       
  HBURST      integral  3     'd0       
  HRESP       integral  2     'd0       
  HADDR       integral  32    'h800002c4
  HTRANS      integral  2     'd0       
  HWDATA      integral  32    'h0       
  HLEN        integral  8     'd0       
  HRDATA      integral  32    'd0       
  HSIZE       integral  3     'd0       
  HWRITE      integral  1     1         
  HREADY_OUT  integral  1     'd0       
----------------------------------------

                 285slave haadr = 800002c4 
 master addr = 800002c4
UVM_INFO ../tb/scoreboard.sv(129) @ 285: uvm_test_top.env_h.sbh [SB] Address compared successfully
UVM_INFO ../tb/scoreboard.sv(135) @ 285: uvm_test_top.env_h.sbh [SB] write data matched successfully
UVM_INFO ../master_agent/master_driver.sv(49) @ 295: uvm_test_top.env_h.m_agt[0].m_drv [MASTER DRV] THIS IS AHB DRIVER 
 ----------------------------------------
Name          Type      Size  Value     
----------------------------------------
req           trans     -     @2006     
  HRESETn     integral  1     'd0       
  HBURST      integral  3     'd2       
  HRESP       integral  2     'd0       
  HADDR       integral  32    'h8400031c
  HTRANS      integral  2     3         
  HWDATA      integral  32    'hb976f584
  HLEN        integral  8     'd4       
  HRDATA      integral  32    'd0       
  HSIZE       integral  3     'd1       
  HWRITE      integral  1     1         
  HREADY_OUT  integral  1     'd0       
----------------------------------------

                 295MM @@@@@@@@@@@@@@@@@@@@@@@  - 408109368
UVM_INFO ../master_agent/master_monitor.sv(100) @ 295: uvm_test_top.env_h.m_agt[0].m_mon [master monitor] Printing from master monitor 
 ----------------------------------------
Name          Type      Size  Value     
----------------------------------------
txn           trans     -     @2031     
  HRESETn     integral  1     'd0       
  HBURST      integral  3     'd2       
  HRESP       integral  2     'd0       
  HADDR       integral  32    'h8400031a
  HTRANS      integral  2     2         
  HWDATA      integral  32    'h0       
  HLEN        integral  8     'd0       
  HRDATA      integral  32    'd0       
  HSIZE       integral  3     'd1       
  HWRITE      integral  1     1         
  HREADY_OUT  integral  1     'd0       
----------------------------------------

                 295master monitor write operation mem[8400031a]=00001853
                 295slave monitor write operation mem[8400031a]= 00001853
UVM_INFO ../slave_agent/slave_monitor.sv(95) @ 295: uvm_test_top.env_h.s_agt[2].s_mon [slave monitor] Printing from slave monitor 
 ----------------------------------------
Name          Type      Size  Value     
----------------------------------------
txn           trans     -     @2035     
  HRESETn     integral  1     'd0       
  HBURST      integral  3     'd0       
  HRESP       integral  2     'd0       
  HADDR       integral  32    'h8400031a
  HTRANS      integral  2     'd0       
  HWDATA      integral  32    'h0       
  HLEN        integral  8     'd0       
  HRDATA      integral  32    'd0       
  HSIZE       integral  3     'd1       
  HWRITE      integral  1     1         
  HREADY_OUT  integral  1     'd0       
----------------------------------------

                 295slave monitor write operation mem[8400031a]= 00001853
UVM_INFO ../slave_agent/slave_monitor.sv(95) @ 295: uvm_test_top.env_h.s_agt[1].s_mon [slave monitor] Printing from slave monitor 
 ----------------------------------------
Name          Type      Size  Value     
----------------------------------------
txn           trans     -     @2039     
  HRESETn     integral  1     'd0       
  HBURST      integral  3     'd0       
  HRESP       integral  2     'd0       
  HADDR       integral  32    'h8400031a
  HTRANS      integral  2     'd0       
  HWDATA      integral  32    'h0       
  HLEN        integral  8     'd0       
  HRDATA      integral  32    'd0       
  HSIZE       integral  3     'd1       
  HWRITE      integral  1     1         
  HREADY_OUT  integral  1     'd0       
----------------------------------------

                 295slave monitor write operation mem[8400031a]= 00001853
UVM_INFO ../slave_agent/slave_monitor.sv(95) @ 295: uvm_test_top.env_h.s_agt[0].s_mon [slave monitor] Printing from slave monitor 
 ----------------------------------------
Name          Type      Size  Value     
----------------------------------------
txn           trans     -     @2043     
  HRESETn     integral  1     'd0       
  HBURST      integral  3     'd0       
  HRESP       integral  2     'd0       
  HADDR       integral  32    'h8400031a
  HTRANS      integral  2     'd0       
  HWDATA      integral  32    'h0       
  HLEN        integral  8     'd0       
  HRDATA      integral  32    'd0       
  HSIZE       integral  3     'd1       
  HWRITE      integral  1     1         
  HREADY_OUT  integral  1     'd0       
----------------------------------------

                 295slave haadr = 8400031a 
 master addr = 8400031a
UVM_INFO ../tb/scoreboard.sv(129) @ 295: uvm_test_top.env_h.sbh [SB] Address compared successfully
UVM_INFO ../tb/scoreboard.sv(135) @ 295: uvm_test_top.env_h.sbh [SB] write data matched successfully
UVM_INFO ../master_agent/master_driver.sv(49) @ 305: uvm_test_top.env_h.m_agt[0].m_drv [MASTER DRV] THIS IS AHB DRIVER 
 ----------------------------------------
Name          Type      Size  Value     
----------------------------------------
req           trans     -     @2006     
  HRESETn     integral  1     'd0       
  HBURST      integral  3     'd2       
  HRESP       integral  2     'd0       
  HADDR       integral  32    'h8400031e
  HTRANS      integral  2     3         
  HWDATA      integral  32    'hc5288644
  HLEN        integral  8     'd4       
  HRDATA      integral  32    'd0       
  HSIZE       integral  3     'd1       
  HWRITE      integral  1     1         
  HREADY_OUT  integral  1     'd0       
----------------------------------------

                 305MM @@@@@@@@@@@@@@@@@@@@@@@  - 3111581060
UVM_INFO ../master_agent/master_monitor.sv(100) @ 305: uvm_test_top.env_h.m_agt[0].m_mon [master monitor] Printing from master monitor 
 ----------------------------------------
Name          Type      Size  Value     
----------------------------------------
txn           trans     -     @2047     
  HRESETn     integral  1     'd0       
  HBURST      integral  3     'd2       
  HRESP       integral  2     'd0       
  HADDR       integral  32    'h8400031c
  HTRANS      integral  2     3         
  HWDATA      integral  32    'h0       
  HLEN        integral  8     'd0       
  HRDATA      integral  32    'd0       
  HSIZE       integral  3     'd1       
  HWRITE      integral  1     1         
  HREADY_OUT  integral  1     'd0       
----------------------------------------

                 305master monitor write operation mem[8400031c]=0000f584
                 305slave monitor write operation mem[8400031c]= 0000f584
UVM_INFO ../slave_agent/slave_monitor.sv(95) @ 305: uvm_test_top.env_h.s_agt[2].s_mon [slave monitor] Printing from slave monitor 
 ----------------------------------------
Name          Type      Size  Value     
----------------------------------------
txn           trans     -     @2051     
  HRESETn     integral  1     'd0       
  HBURST      integral  3     'd0       
  HRESP       integral  2     'd0       
  HADDR       integral  32    'h8400031c
  HTRANS      integral  2     'd0       
  HWDATA      integral  32    'h0       
  HLEN        integral  8     'd0       
  HRDATA      integral  32    'd0       
  HSIZE       integral  3     'd1       
  HWRITE      integral  1     1         
  HREADY_OUT  integral  1     'd0       
----------------------------------------

                 305slave monitor write operation mem[8400031c]= 0000f584
UVM_INFO ../slave_agent/slave_monitor.sv(95) @ 305: uvm_test_top.env_h.s_agt[1].s_mon [slave monitor] Printing from slave monitor 
 ----------------------------------------
Name          Type      Size  Value     
----------------------------------------
txn           trans     -     @2055     
  HRESETn     integral  1     'd0       
  HBURST      integral  3     'd0       
  HRESP       integral  2     'd0       
  HADDR       integral  32    'h8400031c
  HTRANS      integral  2     'd0       
  HWDATA      integral  32    'h0       
  HLEN        integral  8     'd0       
  HRDATA      integral  32    'd0       
  HSIZE       integral  3     'd1       
  HWRITE      integral  1     1         
  HREADY_OUT  integral  1     'd0       
----------------------------------------

                 305slave monitor write operation mem[8400031c]= 0000f584
UVM_INFO ../slave_agent/slave_monitor.sv(95) @ 305: uvm_test_top.env_h.s_agt[0].s_mon [slave monitor] Printing from slave monitor 
 ----------------------------------------
Name          Type      Size  Value     
----------------------------------------
txn           trans     -     @2059     
  HRESETn     integral  1     'd0       
  HBURST      integral  3     'd0       
  HRESP       integral  2     'd0       
  HADDR       integral  32    'h8400031c
  HTRANS      integral  2     'd0       
  HWDATA      integral  32    'h0       
  HLEN        integral  8     'd0       
  HRDATA      integral  32    'd0       
  HSIZE       integral  3     'd1       
  HWRITE      integral  1     1         
  HREADY_OUT  integral  1     'd0       
----------------------------------------

                 305slave haadr = 8400031c 
 master addr = 8400031c
UVM_INFO ../tb/scoreboard.sv(129) @ 305: uvm_test_top.env_h.sbh [SB] Address compared successfully
UVM_INFO ../tb/scoreboard.sv(135) @ 305: uvm_test_top.env_h.sbh [SB] write data matched successfully
UVM_INFO ../master_agent/master_driver.sv(49) @ 315: uvm_test_top.env_h.m_agt[0].m_drv [MASTER DRV] THIS IS AHB DRIVER 
 ----------------------------------------
Name          Type      Size  Value     
----------------------------------------
req           trans     -     @2006     
  HRESETn     integral  1     'd0       
  HBURST      integral  3     'd2       
  HRESP       integral  2     'd0       
  HADDR       integral  32    'h84000320
  HTRANS      integral  2     3         
  HWDATA      integral  32    'h32ba16c7
  HLEN        integral  8     'd4       
  HRDATA      integral  32    'd0       
  HSIZE       integral  3     'd1       
  HWRITE      integral  1     1         
  HREADY_OUT  integral  1     'd0       
----------------------------------------

                 315MM @@@@@@@@@@@@@@@@@@@@@@@  - 3307767364
UVM_INFO ../master_agent/master_monitor.sv(100) @ 315: uvm_test_top.env_h.m_agt[0].m_mon [master monitor] Printing from master monitor 
 ----------------------------------------
Name          Type      Size  Value     
----------------------------------------
txn           trans     -     @2063     
  HRESETn     integral  1     'd0       
  HBURST      integral  3     'd2       
  HRESP       integral  2     'd0       
  HADDR       integral  32    'h8400031e
  HTRANS      integral  2     3         
  HWDATA      integral  32    'h0       
  HLEN        integral  8     'd0       
  HRDATA      integral  32    'd0       
  HSIZE       integral  3     'd1       
  HWRITE      integral  1     1         
  HREADY_OUT  integral  1     'd0       
----------------------------------------

                 315master monitor write operation mem[8400031e]=0000c528
                 315slave monitor write operation mem[8400031e]= 0000c528
UVM_INFO ../slave_agent/slave_monitor.sv(95) @ 315: uvm_test_top.env_h.s_agt[2].s_mon [slave monitor] Printing from slave monitor 
 ----------------------------------------
Name          Type      Size  Value     
----------------------------------------
txn           trans     -     @2067     
  HRESETn     integral  1     'd0       
  HBURST      integral  3     'd0       
  HRESP       integral  2     'd0       
  HADDR       integral  32    'h8400031e
  HTRANS      integral  2     'd0       
  HWDATA      integral  32    'h0       
  HLEN        integral  8     'd0       
  HRDATA      integral  32    'd0       
  HSIZE       integral  3     'd1       
  HWRITE      integral  1     1         
  HREADY_OUT  integral  1     'd0       
----------------------------------------

                 315slave monitor write operation mem[8400031e]= 0000c528
UVM_INFO ../slave_agent/slave_monitor.sv(95) @ 315: uvm_test_top.env_h.s_agt[1].s_mon [slave monitor] Printing from slave monitor 
 ----------------------------------------
Name          Type      Size  Value     
----------------------------------------
txn           trans     -     @2071     
  HRESETn     integral  1     'd0       
  HBURST      integral  3     'd0       
  HRESP       integral  2     'd0       
  HADDR       integral  32    'h8400031e
  HTRANS      integral  2     'd0       
  HWDATA      integral  32    'h0       
  HLEN        integral  8     'd0       
  HRDATA      integral  32    'd0       
  HSIZE       integral  3     'd1       
  HWRITE      integral  1     1         
  HREADY_OUT  integral  1     'd0       
----------------------------------------

                 315slave monitor write operation mem[8400031e]= 0000c528
UVM_INFO ../slave_agent/slave_monitor.sv(95) @ 315: uvm_test_top.env_h.s_agt[0].s_mon [slave monitor] Printing from slave monitor 
 ----------------------------------------
Name          Type      Size  Value     
----------------------------------------
txn           trans     -     @2075     
  HRESETn     integral  1     'd0       
  HBURST      integral  3     'd0       
  HRESP       integral  2     'd0       
  HADDR       integral  32    'h8400031e
  HTRANS      integral  2     'd0       
  HWDATA      integral  32    'h0       
  HLEN        integral  8     'd0       
  HRDATA      integral  32    'd0       
  HSIZE       integral  3     'd1       
  HWRITE      integral  1     1         
  HREADY_OUT  integral  1     'd0       
----------------------------------------

                 315slave haadr = 8400031e 
 master addr = 8400031e
UVM_INFO ../tb/scoreboard.sv(129) @ 315: uvm_test_top.env_h.sbh [SB] Address compared successfully
UVM_INFO ../tb/scoreboard.sv(135) @ 315: uvm_test_top.env_h.sbh [SB] write data matched successfully
                 325MM @@@@@@@@@@@@@@@@@@@@@@@  - 851056327
UVM_INFO ../master_agent/master_monitor.sv(100) @ 325: uvm_test_top.env_h.m_agt[0].m_mon [master monitor] Printing from master monitor 
 ----------------------------------------
Name          Type      Size  Value     
----------------------------------------
txn           trans     -     @2079     
  HRESETn     integral  1     'd0       
  HBURST      integral  3     'd2       
  HRESP       integral  2     'd0       
  HADDR       integral  32    'h84000320
  HTRANS      integral  2     3         
  HWDATA      integral  32    'h0       
  HLEN        integral  8     'd0       
  HRDATA      integral  32    'd0       
  HSIZE       integral  3     'd1       
