vsim -cvgperinstance -vopt -voptargs="+acc" -coverage -sva -c -do " log -r /* ;coverage save -onexit mem_cov4;run -all; exit" -wlf wave_file4.wlf -l test4.log -sv_seed random work.axi2ahb_bridge_tb_top "+UVM_TESTNAME=axi_read_test" "+UVM_VERBOSITY=UVM_HIGH" 
Start time: 18:37:13 on Sep 18,2024
** Note: (vsim-8009) Loading existing optimized design _opt
//  Questa Sim-64
//  Version 2019.2 linux_x86_64 Apr 16 2019
//
//  Copyright 1991-2019 Mentor Graphics Corporation
//  All Rights Reserved.
//
//  QuestaSim and its associated documentation contain trade
//  secrets and commercial or financial information that are the property of
//  Mentor Graphics Corporation and are privileged, confidential,
//  and exempt from disclosure under the Freedom of Information Act,
//  5 U.S.C. Section 552. Furthermore, this information
//  is prohibited from disclosure under the Trade Secrets Act,
//  18 U.S.C. Section 1905.
//
Loading sv_std.std
Loading work.ahb_if(fast)
Loading work.axi_rst_if(fast)
Loading mtiUvm.uvm_pkg
Loading work.axi2ahb_pkg(fast)
Loading work.axi_if(fast)
Loading work.ahb_rst_if(fast)
Loading mtiUvm.questa_uvm_pkg(fast)
Loading work.axi2ahb_bridge_tb_top(fast)
Loading work.axi_if(fast)
Loading work.ahb_if(fast)
Loading work.axi_rst_if(fast)
Loading work.ahb_rst_if(fast)
Loading work.axi2ahb_bridge_top(fast)
Loading work.axi_controller(fast)
Loading work.axi2fifo(fast)
Loading work.fifo2axi(fast)
Loading work.fifo_wrapper(fast)
Loading work.id_resp_fifo(fast)
Loading work.resp_fifo(fast)
Loading work.rdata_fifo(fast)
Loading work.size_fifo(fast)
Loading work.id_send_fifo(fast)
Loading work.write_fifo(fast)
Loading work.data_fifo(fast)
Loading work.addr_fifo(fast)
Loading work.ahb_controller(fast)
** Warning: (vsim-8441) Clocking block output vif.axi_drv_cb.arlen is not legal in this
or another expression.
   Time: 0 ns  Iteration: 0  Region: /axi2ahb_pkg::axi_driver File: ../axi_agent/axi_driver.sv Line: 203
# Loading /home/cad/eda/Questa_2019/questasim/uvm-1.1d/linux_x86_64/uvm_dpi.so
** Warning: (vsim-8634) Code was not compiled with coverage options.
Sv_Seed = 1863940026
 log -r /* 
coverage save -onexit mem_cov4
run -all
----------------------------------------------------------------
UVM-1.1d
(C) 2007-2013 Mentor Graphics Corporation
(C) 2007-2013 Cadence Design Systems, Inc.
(C) 2006-2013 Synopsys, Inc.
(C) 2011-2013 Cypress Semiconductor Corp.
----------------------------------------------------------------

  ***********       IMPORTANT RELEASE NOTES         ************

  You are using a version of the UVM library that has been compiled
  with `UVM_NO_DEPRECATED undefined.
  See http://www.eda.org/svdb/view.php?id=3313 for more details.

  You are using a version of the UVM library that has been compiled
  with `UVM_OBJECT_MUST_HAVE_CONSTRUCTOR undefined.
  See http://www.eda.org/svdb/view.php?id=3770 for more details.

      (Specify +UVM_NO_RELNOTES to turn off this notice)

UVM_INFO verilog_src/questa_uvm_pkg-1.2/src/questa_uvm_pkg.sv(277) @ 0: reporter [Questa UVM] QUESTA_UVM-1.2.3
UVM_INFO verilog_src/questa_uvm_pkg-1.2/src/questa_uvm_pkg.sv(278) @ 0: reporter [Questa UVM]  questa_uvm::init(+struct)
UVM_INFO @ 0: reporter [RNTST] Running test axi_read_test...
 lengths : 9
UVM_INFO ../test/test.sv(74) @ 0: uvm_test_top [axi_read_test] test build_phase
UVM_INFO ../tb/environment.sv(91) @ 0: uvm_test_top.envh [environment] env build_phase
UVM_INFO ../ahb_agent/ahb_agent.sv(52) @ 0: uvm_test_top.envh.ahb_agth[0] [ahb_agent] ahb agent build_phase
UVM_INFO ../ahb_agent/ahb_driver.sv(57) @ 0: uvm_test_top.envh.ahb_agth[0].drvh [ahb_driver] ahb driver build_phase
UVM_INFO ../ahb_agent/ahb_monitor.sv(49) @ 0: uvm_test_top.envh.ahb_agth[0].monh [ahb_monitor] ahb monitor build_phase
UVM_INFO ../ahb_rst_agent/ahb_rst_agent.sv(53) @ 0: uvm_test_top.envh.ahb_rst_agth[0] [ahb_rst_agent] ahb rst agent  build_phase
UVM_INFO ../ahb_rst_agent/ahb_rst_driver.sv(51) @ 0: uvm_test_top.envh.ahb_rst_agth[0].drvh [ahb_rst_driver] ahb rst driver build_phase
UVM_INFO ../ahb_rst_agent/ahb_rst_monitor.sv(53) @ 0: uvm_test_top.envh.ahb_rst_agth[0].monh [ahb_rst_monitor] ahb rst monitor build_phase
UVM_INFO ../axi_agent/axi_agent.sv(48) @ 0: uvm_test_top.envh.axi_agth[0] [axi_agent] axi agent build_phase
UVM_INFO ../axi_agent/axi_driver.sv(70) @ 0: uvm_test_top.envh.axi_agth[0].drvh [axi_driver] axi driver build_phase
UVM_INFO ../axi_agent/axi_monitor.sv(72) @ 0: uvm_test_top.envh.axi_agth[0].monh [axi_monitor] aXI MONITOR build_phase
UVM_INFO ../axi_rst_agent/axi_rst_agent.sv(50) @ 0: uvm_test_top.envh.axi_rst_agth[0] [axi_rst_agent] axi rst agent  build_phase
UVM_INFO ../axi_rst_agent/axi_rst_driver.sv(47) @ 0: uvm_test_top.envh.axi_rst_agth[0].drvh [axi_rst_driver] axi rst driver build_phase
UVM_INFO ../axi_rst_agent/axi_rst_monitor.sv(55) @ 0: uvm_test_top.envh.axi_rst_agth[0].monh [axi_rst_monitor] axi rst monitor build_phase
UVM_INFO ../ahb_agent/ahb_driver.sv(65) @ 0: uvm_test_top.envh.ahb_agth[0].drvh [ahb_driver] ahb driver connect_phase
UVM_INFO ../ahb_agent/ahb_monitor.sv(56) @ 0: uvm_test_top.envh.ahb_agth[0].monh [ahb_monitor] ahb monitor connect_phase
UVM_INFO ../ahb_agent/ahb_agent.sv(58) @ 0: uvm_test_top.envh.ahb_agth[0] [ahb_agent] ahb agent connect _phase
UVM_INFO ../ahb_rst_agent/ahb_rst_driver.sv(58) @ 0: uvm_test_top.envh.ahb_rst_agth[0].drvh [ahb_rst_driver] ahb rst driver connect_phase
UVM_INFO ../ahb_rst_agent/ahb_rst_monitor.sv(60) @ 0: uvm_test_top.envh.ahb_rst_agth[0].monh [ahb_rst_monitor] ahb rst monitor connect_phase
UVM_INFO ../ahb_rst_agent/ahb_rst_agent.sv(60) @ 0: uvm_test_top.envh.ahb_rst_agth[0] [ahb_rst_agent] ahb rst agent connect_phase
UVM_INFO ../axi_agent/axi_driver.sv(77) @ 0: uvm_test_top.envh.axi_agth[0].drvh [axi_driver] axi driver connect_phase
UVM_INFO ../axi_agent/axi_monitor.sv(78) @ 0: uvm_test_top.envh.axi_agth[0].monh [axi_monitor] axi monitor connect_phase
UVM_INFO ../axi_agent/axi_agent.sv(55) @ 0: uvm_test_top.envh.axi_agth[0] [axi_agent] axi agent connect_phase
UVM_INFO ../axi_rst_agent/axi_rst_driver.sv(53) @ 0: uvm_test_top.envh.axi_rst_agth[0].drvh [axi_rst_driver] axi rst driver connecr_phase
UVM_INFO ../axi_rst_agent/axi_rst_monitor.sv(62) @ 0: uvm_test_top.envh.axi_rst_agth[0].monh [axi_rst_monitor] axi rst monitor connect_phase
UVM_INFO ../axi_rst_agent/axi_rst_agent.sv(57) @ 0: uvm_test_top.envh.axi_rst_agth[0] [axi_rst_agent] axi rst agent connnect_phase
UVM_INFO ../tb/environment.sv(153) @ 0: uvm_test_top.envh [environment] env connect_phase
UVM_INFO ../test/test.sv(155) @ 0: uvm_test_top [axi_read_test] test end of elaboration__phase
UVM_INFO @ 0: reporter [UVMTOP] UVM testbench topology:
----------------------------------------------------------------------------
Name                                 Type                        Size  Value
----------------------------------------------------------------------------
uvm_test_top                         axi_read_test               -     @491 
  envh                               environment                 -     @511 
    ahb_agth[0]                      ahb_agent                   -     @541 
      drvh                           ahb_driver                  -     @696 
        rsp_port                     uvm_analysis_port           -     @711 
        seq_item_port                uvm_seq_item_pull_port      -     @703 
      monh                           ahb_monitor                 -     @681 
        monitor_port                 uvm_analysis_port           -     @688 
      seqrh                          ahb_sequencer               -     @719 
        rsp_export                   uvm_analysis_export         -     @726 
        seq_item_export              uvm_seq_item_pull_imp       -     @820 
        arbitration_queue            array                       0     -    
        lock_queue                   array                       0     -    
        num_last_reqs                integral                    32    'd1  
        num_last_rsps                integral                    32    'd1  
    ahb_rst_agth[0]                  ahb_rst_agent               -     @552 
      drvh                           ahb_rst_driver              -     @854 
        rsp_port                     uvm_analysis_port           -     @869 
        seq_item_port                uvm_seq_item_pull_port      -     @861 
      monh                           ahb_rst_monitor             -     @839 
        rst_monitor_port             uvm_analysis_port           -     @846 
      seqrh                          ahb_rst_sequencer           -     @877 
        rsp_export                   uvm_analysis_export         -     @884 
        seq_item_export              uvm_seq_item_pull_imp       -     @978 
        arbitration_queue            array                       0     -    
        lock_queue                   array                       0     -    
        num_last_reqs                integral                    32    'd1  
        num_last_rsps                integral                    32    'd1  
    axi_agth[0]                      axi_agent                   -     @519 
      drvh                           axi_driver                  -     @1028
        rsp_port                     uvm_analysis_port           -     @1043
        seq_item_port                uvm_seq_item_pull_port      -     @1035
      monh                           axi_monitor                 -     @997 
        axi_monitor_port             uvm_analysis_port           -     @1004
        axi_read_data_monitor_port   uvm_analysis_port           -     @1020
        axi_write_data_monitor_port  uvm_analysis_port           -     @1012
      seqrh                          axi_sequencer               -     @1051
        rsp_export                   uvm_analysis_export         -     @1058
        seq_item_export              uvm_seq_item_pull_imp       -     @1152
        arbitration_queue            array                       0     -    
        lock_queue                   array                       0     -    
        num_last_reqs                integral                    32    'd1  
        num_last_rsps                integral                    32    'd1  
    axi_rst_agth[0]                  axi_rst_agent               -     @530 
      drvh                           axi_rst_driver              -     @1185
        rsp_port                     uvm_analysis_port           -     @1200
        seq_item_port                uvm_seq_item_pull_port      -     @1192
      monh                           axi_rst_monitor             -     @1170
        rst_monitor_port             uvm_analysis_port           -     @1177
      seqrh                          axi_rst_sequencer           -     @1208
        rsp_export                   uvm_analysis_export         -     @1215
        seq_item_export              uvm_seq_item_pull_imp       -     @1309
        arbitration_queue            array                       0     -    
        lock_queue                   array                       0     -    
        num_last_reqs                integral                    32    'd1  
        num_last_rsps                integral                    32    'd1  
    scoreboardh                      scoreboard                  -     @672 
      fifo_ahb_h[0]                  uvm_tlm_analysis_fifo #(T)  -     @1565
        analysis_export              uvm_analysis_imp            -     @1604
        get_ap                       uvm_analysis_port           -     @1596
        get_peek_export              uvm_get_peek_imp            -     @1580
        put_ap                       uvm_analysis_port           -     @1588
        put_export                   uvm_put_imp                 -     @1572
      fifo_ahb_rst_h[0]              uvm_tlm_analysis_fifo #(T)  -     @1377
        analysis_export              uvm_analysis_imp            -     @1416
        get_ap                       uvm_analysis_port           -     @1408
        get_peek_export              uvm_get_peek_imp            -     @1392
        put_ap                       uvm_analysis_port           -     @1400
        put_export                   uvm_put_imp                 -     @1384
      fifo_axi_h[0]                  uvm_tlm_analysis_fifo #(T)  -     @1424
        analysis_export              uvm_analysis_imp            -     @1463
        get_ap                       uvm_analysis_port           -     @1455
        get_peek_export              uvm_get_peek_imp            -     @1439
        put_ap                       uvm_analysis_port           -     @1447
        put_export                   uvm_put_imp                 -     @1431
      fifo_axi_rdata_h[0]            uvm_tlm_analysis_fifo #(T)  -     @1518
        analysis_export              uvm_analysis_imp            -     @1557
        get_ap                       uvm_analysis_port           -     @1549
        get_peek_export              uvm_get_peek_imp            -     @1533
        put_ap                       uvm_analysis_port           -     @1541
        put_export                   uvm_put_imp                 -     @1525
      fifo_axi_rst_h[0]              uvm_tlm_analysis_fifo #(T)  -     @1330
        analysis_export              uvm_analysis_imp            -     @1369
        get_ap                       uvm_analysis_port           -     @1361
        get_peek_export              uvm_get_peek_imp            -     @1345
        put_ap                       uvm_analysis_port           -     @1353
        put_export                   uvm_put_imp                 -     @1337
      fifo_axi_wdata_h[0]            uvm_tlm_analysis_fifo #(T)  -     @1471
        analysis_export              uvm_analysis_imp            -     @1510
        get_ap                       uvm_analysis_port           -     @1502
        get_peek_export              uvm_get_peek_imp            -     @1486
        put_ap                       uvm_analysis_port           -     @1494
        put_export                   uvm_put_imp                 -     @1478
    vseqrh                           virtual_sequencer           -     @563 
      rsp_export                     uvm_analysis_export         -     @570 
      seq_item_export                uvm_seq_item_pull_imp       -     @664 
      arbitration_queue              array                       0     -    
      lock_queue                     array                       0     -    
      num_last_reqs                  integral                    32    'd1  
      num_last_rsps                  integral                    32    'd1  
----------------------------------------------------------------------------

UVM_INFO verilog_src/questa_uvm_pkg-1.2/src/questa_uvm_pkg.sv(339) @ 0: reporter [Questa UVM] End Of Elaboration
UVM_INFO ../test/test.sv(340) @ 0: uvm_test_top [axi_read_test] reset_test run phase
x
UVM_INFO ../tb/virtual_sequence.sv(57) @ 0: uvm_test_top.envh.vseqrh@@axi_rst_vseqh [axi_rst_vseq] virtual seq base body
UVM_INFO ../tb/virtual_sequence.sv(78) @ 0: uvm_test_top.envh.vseqrh@@axi_rst_vseqh [axi_rst_vseq] has_axi_rst_agent=1
/////////////////////// 0
UVM_INFO ../tb/scoreboard.sv(296) @ 25: uvm_test_top.envh.scoreboardh [scoreboard] axi reset operation is successful
UVM_INFO ../tb/virtual_sequence.sv(57) @ 25: uvm_test_top.envh.vseqrh@@ahb_rst_vseqh [ahb_rst_vseq] virtual seq base body
UVM_INFO ../tb/virtual_sequence.sv(106) @ 25: uvm_test_top.envh.vseqrh@@ahb_rst_vseqh [ahb_rst_vseq] has_ahb_rst_agent=1
/////////////////////// 1
&&&&&&&&&&&&&&&&& 0
UVM_INFO ../tb/scoreboard.sv(306) @ 70: uvm_test_top.envh.scoreboardh [scoreboard] ahb reset operation successful
&&&&&&&&&&&&&&&&& 1
UVM_INFO ../tb/virtual_sequence.sv(57) @ 110: uvm_test_top.envh.vseqrh@@axi_read_vseqh [axi_read_vseq] virtual seq base body
UVM_INFO ../tb/virtual_sequence.sv(215) @ 110: uvm_test_top.envh.vseqrh@@axi_read_vseqh [axi_read_vseq] has_axi_agent=1
UVM_INFO ../tb/virtual_sequence.sv(57) @ 110: uvm_test_top.envh.vseqrh@@ahb_vseqh [ahb_read_vseq] virtual seq base body
UVM_INFO ../tb/virtual_sequence.sv(242) @ 110: uvm_test_top.envh.vseqrh@@ahb_vseqh [ahb_read_vseq] has_ahb_agent=1
axi_length : '{9}
awlen$ :           9
ahb_length :'{9}
UVM_INFO ../ahb_agent/ahb_driver.sv(72) @ 110: uvm_test_top.envh.ahb_agth[0].drvh [ahb_driver] in ahb driver           0
UVM_INFO ../ahb_agent/ahb_driver.sv(80) @ 110: uvm_test_top.envh.ahb_agth[0].drvh [ahb_driver] inside task send to dut run_phase
UVM_INFO ../axi_agent/axi_driver.sv(85) @ 125: uvm_test_top.envh.axi_agth[0].drvh [axi_driver] axi_trans :
 "--------------------------------------------------------------------------------------------------
Name                           Type       Size  Value                                             
--------------------------------------------------------------------------------------------------
req                            axi_trans  -     @1828                                             
  begin_time                   time       64    110                                               
  depth                        int        32    'd2                                               
  parent sequence (name)       string     14    axi_read_vseqh                                    
  parent sequence (full name)  string     50    uvm_test_top.envh.axi_agth[0].seqrh.axi_read_vseqh
  sequencer                    string     35    uvm_test_top.envh.axi_agth[0].seqrh               
  awid                         integral   8     'd123                                             
  awaddr                       integral   32    3469746881                                        
  awlen                        integral   8     'd9                                               
  awsize                       integral   3     'd2                                               
  awburst                      integral   2     'd0                                               
  awvalid                      integral   1     'd0                                               
  awready                      integral   1     'd0                                               
  wid                          integral   8     'd123                                             
  wdata[0]                     integral   64    12244506538248961177                              
  wdata[1]                     integral   64    'd4726291854965754980                             
  wdata[2]                     integral   64    15609588260559208001                              
  wdata[3]                     integral   64    12699574990423770428                              
  wdata[4]                     integral   64    9735474718904514878                               
  wdata[5]                     integral   64    'd4331883517092595785                             
  wdata[6]                     integral   64    15918811157941772548                              
  wdata[7]                     integral   64    'd4597350730422866254                             
  wdata[8]                     integral   64    'd7963743728544711033                             
  wdata[9]                     integral   64    'd5613875657190223282                             
  wstrb[0]                     integral   8     'b1110                                            
  wstrb[1]                     integral   8     'b11110000                                        
  wstrb[2]                     integral   8     'b1111                                            
  wstrb[3]                     integral   8     'b11110000                                        
  wstrb[4]                     integral   8     'b1111                                            
  wstrb[5]                     integral   8     'b11110000                                        
  wstrb[6]                     integral   8     'b1111                                            
  wstrb[7]                     integral   8     'b11110000                                        
  wstrb[8]                     integral   8     'b1111                                            
  wstrb[9]                     integral   8     'b11110000                                        
  wlast                        integral   1     'd0                                               
  wvalid                       integral   1     'd0                                               
  wready                       integral   1     'd0                                               
  bid                          integral   8     'd0                                               
  bresp                        integral   2     'd0                                               
  bvalid                       integral   1     'd0                                               
  bready                       integral   1     'd0                                               
  arid                         integral   8     178                                               
  araddr                       integral   32    'd1825295852                                      
  arlen                        integral   8     'd9                                               
  arsize                       integral   3     'd2                                               
  arburst                      integral   2     2                                                 
  arvalid                      integral   1     1                                                 
  arready                      integral   1     'd0                                               
  rid                          integral   8     'd0                                               
  rlast                        integral   1     'd0                                               
  rvalid                       integral   1     'd0                                               
  rready                       integral   1     'd0                                               
--------------------------------------------------------------------------------------------------
"
UVM_INFO ../ahb_agent/ahb_driver.sv(72) @ 130: uvm_test_top.envh.ahb_agth[0].drvh [ahb_driver] in ahb driver           0
UVM_INFO ../ahb_agent/ahb_driver.sv(80) @ 130: uvm_test_top.envh.ahb_agth[0].drvh [ahb_driver] inside task send to dut run_phase
UVM_INFO ../axi_agent/axi_monitor.sv(116) @ 135: uvm_test_top.envh.axi_agth[0].monh [axi_monitor] after read address channel
UVM_INFO ../ahb_agent/ahb_driver.sv(72) @ 150: uvm_test_top.envh.ahb_agth[0].drvh [ahb_driver] in ahb driver           0
UVM_INFO ../ahb_agent/ahb_driver.sv(80) @ 150: uvm_test_top.envh.ahb_agth[0].drvh [ahb_driver] inside task send to dut run_phase
UVM_INFO ../ahb_agent/ahb_driver.sv(72) @ 170: uvm_test_top.envh.ahb_agth[0].drvh [ahb_driver] in ahb driver           0
UVM_INFO ../ahb_agent/ahb_driver.sv(80) @ 170: uvm_test_top.envh.ahb_agth[0].drvh [ahb_driver] inside task send to dut run_phase
UVM_INFO ../ahb_agent/ahb_driver.sv(72) @ 190: uvm_test_top.envh.ahb_agth[0].drvh [ahb_driver] in ahb driver           0
UVM_INFO ../ahb_agent/ahb_driver.sv(80) @ 190: uvm_test_top.envh.ahb_agth[0].drvh [ahb_driver] inside task send to dut run_phase
UVM_INFO ../ahb_agent/ahb_driver.sv(72) @ 210: uvm_test_top.envh.ahb_agth[0].drvh [ahb_driver] in ahb driver           0
UVM_INFO ../ahb_agent/ahb_driver.sv(80) @ 210: uvm_test_top.envh.ahb_agth[0].drvh [ahb_driver] inside task send to dut run_phase
hwrite =0 time=                 230 
UVM_INFO ../ahb_agent/ahb_driver.sv(72) @ 230: uvm_test_top.envh.ahb_agth[0].drvh [ahb_driver] in ahb driver           0
UVM_INFO ../ahb_agent/ahb_driver.sv(80) @ 230: uvm_test_top.envh.ahb_agth[0].drvh [ahb_driver] inside task send to dut run_phase
 hrdata time =                  250
UVM_INFO ../ahb_agent/ahb_monitor.sv(92) @ 250: uvm_test_top.envh.ahb_agth[0].monh [ahb_monitor] ahb_trans: 
 "------------------------------------------------
Name       Type       Size  Value               
------------------------------------------------
ahb_xtn    ahb_trans  -     @1661               
  hwrite   integral   1     'd0                 
  haddr    integral   32    'd1825295852        
  htrans   integral   2     2                   
  hsize    integral   3     'd2                 
  hburst   integral   3     'd0                 
  hrdata   integral   64    14569706925328028641
  hwdata   integral   64    'd0                 
  hready   integral   1     1                   
  hresp    integral   1     'd0                 
  hmaster  integral   1     'd0                 
------------------------------------------------
"
hwrite =0 time=                 250 
UVM_INFO ../ahb_agent/ahb_driver.sv(72) @ 250: uvm_test_top.envh.ahb_agth[0].drvh [ahb_driver] in ahb driver           0
UVM_INFO ../ahb_agent/ahb_driver.sv(80) @ 250: uvm_test_top.envh.ahb_agth[0].drvh [ahb_driver] inside task send to dut run_phase
 hrdata time =                  270
UVM_INFO ../ahb_agent/ahb_monitor.sv(92) @ 270: uvm_test_top.envh.ahb_agth[0].monh [ahb_monitor] ahb_trans: 
 "-----------------------------------------------
Name       Type       Size  Value              
-----------------------------------------------
ahb_xtn    ahb_trans  -     @1852              
  hwrite   integral   1     'd0                
  haddr    integral   32    'd1825295856       
  htrans   integral   2     2                  
  hsize    integral   3     'd2                
  hburst   integral   3     'd0                
  hrdata   integral   64    'd65312117449928855
  hwdata   integral   64    'd0                
  hready   integral   1     1                  
  hresp    integral   1     'd0                
  hmaster  integral   1     'd0                
-----------------------------------------------
"
hwrite =0 time=                 270 
UVM_INFO ../ahb_agent/ahb_driver.sv(72) @ 270: uvm_test_top.envh.ahb_agth[0].drvh [ahb_driver] in ahb driver           0
UVM_INFO ../ahb_agent/ahb_driver.sv(80) @ 270: uvm_test_top.envh.ahb_agth[0].drvh [ahb_driver] inside task send to dut run_phase
 hrdata time =                  290
UVM_INFO ../ahb_agent/ahb_monitor.sv(92) @ 290: uvm_test_top.envh.ahb_agth[0].monh [ahb_monitor] ahb_trans: 
 "------------------------------------------------
Name       Type       Size  Value               
------------------------------------------------
ahb_xtn    ahb_trans  -     @1856               
  hwrite   integral   1     'd0                 
  haddr    integral   32    'd1825295860        
  htrans   integral   2     2                   
  hsize    integral   3     'd2                 
  hburst   integral   3     'd0                 
  hrdata   integral   64    'd903049548043565070
  hwdata   integral   64    'd0                 
  hready   integral   1     1                   
  hresp    integral   1     'd0                 
  hmaster  integral   1     'd0                 
------------------------------------------------
"
hwrite =0 time=                 290 
UVM_INFO ../ahb_agent/ahb_driver.sv(72) @ 290: uvm_test_top.envh.ahb_agth[0].drvh [ahb_driver] in ahb driver           0
UVM_INFO ../ahb_agent/ahb_driver.sv(80) @ 290: uvm_test_top.envh.ahb_agth[0].drvh [ahb_driver] inside task send to dut run_phase
 hrdata time =                  310
UVM_INFO ../ahb_agent/ahb_monitor.sv(92) @ 310: uvm_test_top.envh.ahb_agth[0].monh [ahb_monitor] ahb_trans: 
 "-------------------------------------------------
Name       Type       Size  Value                
-------------------------------------------------
ahb_xtn    ahb_trans  -     @1860                
  hwrite   integral   1     'd0                  
  haddr    integral   32    'd1825295864         
  htrans   integral   2     2                    
  hsize    integral   3     'd2                  
  hburst   integral   3     'd0                  
  hrdata   integral   64    'd4772728488991085678
  hwdata   integral   64    'd0                  
  hready   integral   1     1                    
  hresp    integral   1     'd0                  
  hmaster  integral   1     'd0                  
-------------------------------------------------
"
hwrite =0 time=                 310 
UVM_INFO ../ahb_agent/ahb_driver.sv(72) @ 310: uvm_test_top.envh.ahb_agth[0].drvh [ahb_driver] in ahb driver           0
UVM_INFO ../ahb_agent/ahb_driver.sv(80) @ 310: uvm_test_top.envh.ahb_agth[0].drvh [ahb_driver] inside task send to dut run_phase
 hrdata time =                  330
UVM_INFO ../ahb_agent/ahb_monitor.sv(92) @ 330: uvm_test_top.envh.ahb_agth[0].monh [ahb_monitor] ahb_trans: 
 "------------------------------------------------
Name       Type       Size  Value               
------------------------------------------------
ahb_xtn    ahb_trans  -     @1864               
  hwrite   integral   1     'd0                 
  haddr    integral   32    'd1825295868        
  htrans   integral   2     2                   
  hsize    integral   3     'd2                 
  hburst   integral   3     'd0                 
  hrdata   integral   64    11102733732045675932
  hwdata   integral   64    'd0                 
  hready   integral   1     1                   
  hresp    integral   1     'd0                 
  hmaster  integral   1     'd0                 
------------------------------------------------
"
hwrite =0 time=                 330 
UVM_INFO ../ahb_agent/ahb_driver.sv(72) @ 330: uvm_test_top.envh.ahb_agth[0].drvh [ahb_driver] in ahb driver           0
UVM_INFO ../ahb_agent/ahb_driver.sv(80) @ 330: uvm_test_top.envh.ahb_agth[0].drvh [ahb_driver] inside task send to dut run_phase
 hrdata time =                  350
UVM_INFO ../ahb_agent/ahb_monitor.sv(92) @ 350: uvm_test_top.envh.ahb_agth[0].monh [ahb_monitor] ahb_trans: 
 "-------------------------------------------------
Name       Type       Size  Value                
-------------------------------------------------
ahb_xtn    ahb_trans  -     @1868                
  hwrite   integral   1     'd0                  
  haddr    integral   32    'd1825295872         
  htrans   integral   2     2                    
  hsize    integral   3     'd2                  
  hburst   integral   3     'd0                  
  hrdata   integral   64    'd2420479730043994363
  hwdata   integral   64    'd0                  
  hready   integral   1     1                    
  hresp    integral   1     'd0                  
  hmaster  integral   1     'd0                  
-------------------------------------------------
"
hwrite =0 time=                 350 
UVM_INFO ../ahb_agent/ahb_driver.sv(72) @ 350: uvm_test_top.envh.ahb_agth[0].drvh [ahb_driver] in ahb driver           0
UVM_INFO ../ahb_agent/ahb_driver.sv(80) @ 350: uvm_test_top.envh.ahb_agth[0].drvh [ahb_driver] inside task send to dut run_phase
UVM_ERROR ../tb/scoreboard.sv(340) @ 365: uvm_test_top.envh.scoreboardh [scoreboard] data is mismatched
UVM_ERROR ../tb/scoreboard.sv(341) @ 365: uvm_test_top.envh.scoreboardh [scoreboard] axi_temp_rdata: 65312117449928855 , ahb_hrdata: 14569706925328028641
 hrdata time =                  370
UVM_INFO ../ahb_agent/ahb_monitor.sv(92) @ 370: uvm_test_top.envh.ahb_agth[0].monh [ahb_monitor] ahb_trans: 
 "------------------------------------------------
Name       Type       Size  Value               
------------------------------------------------
ahb_xtn    ahb_trans  -     @1872               
  hwrite   integral   1     'd0                 
  haddr    integral   32    'd1825295876        
  htrans   integral   2     2                   
  hsize    integral   3     'd2                 
  hburst   integral   3     'd0                 
  hrdata   integral   64    12940166421918842925
  hwdata   integral   64    'd0                 
  hready   integral   1     1                   
  hresp    integral   1     'd0                 
  hmaster  integral   1     'd0                 
------------------------------------------------
"
hwrite =0 time=                 370 
UVM_INFO ../ahb_agent/ahb_driver.sv(72) @ 370: uvm_test_top.envh.ahb_agth[0].drvh [ahb_driver] in ahb driver           0
UVM_INFO ../ahb_agent/ahb_driver.sv(80) @ 370: uvm_test_top.envh.ahb_agth[0].drvh [ahb_driver] inside task send to dut run_phase
UVM_ERROR ../tb/scoreboard.sv(340) @ 375: uvm_test_top.envh.scoreboardh [scoreboard] data is mismatched
UVM_ERROR ../tb/scoreboard.sv(341) @ 375: uvm_test_top.envh.scoreboardh [scoreboard] axi_temp_rdata: 903049548043565070 , ahb_hrdata: 65312117449928855
 hrdata time =                  390
UVM_INFO ../ahb_agent/ahb_monitor.sv(92) @ 390: uvm_test_top.envh.ahb_agth[0].monh [ahb_monitor] ahb_trans: 
 "------------------------------------------------
Name       Type       Size  Value               
------------------------------------------------
ahb_xtn    ahb_trans  -     @1884               
  hwrite   integral   1     'd0                 
  haddr    integral   32    'd1825295840        
  htrans   integral   2     2                   
  hsize    integral   3     'd2                 
  hburst   integral   3     'd0                 
  hrdata   integral   64    'd533301990197587707
  hwdata   integral   64    'd0                 
  hready   integral   1     1                   
  hresp    integral   1     'd0                 
  hmaster  integral   1     'd0                 
------------------------------------------------
"
hwrite =0 time=                 390 
UVM_INFO ../ahb_agent/ahb_driver.sv(72) @ 390: uvm_test_top.envh.ahb_agth[0].drvh [ahb_driver] in ahb driver           0
UVM_INFO ../ahb_agent/ahb_driver.sv(80) @ 390: uvm_test_top.envh.ahb_agth[0].drvh [ahb_driver] inside task send to dut run_phase
UVM_ERROR ../tb/scoreboard.sv(340) @ 395: uvm_test_top.envh.scoreboardh [scoreboard] data is mismatched
UVM_ERROR ../tb/scoreboard.sv(341) @ 395: uvm_test_top.envh.scoreboardh [scoreboard] axi_temp_rdata: 4772728488991085678 , ahb_hrdata: 903049548043565070
 hrdata time =                  410
UVM_INFO ../ahb_agent/ahb_monitor.sv(92) @ 410: uvm_test_top.envh.ahb_agth[0].monh [ahb_monitor] ahb_trans: 
 "-------------------------------------------------
Name       Type       Size  Value                
-------------------------------------------------
ahb_xtn    ahb_trans  -     @1892                
  hwrite   integral   1     'd0                  
  haddr    integral   32    'd1825295844         
  htrans   integral   2     2                    
  hsize    integral   3     'd2                  
  hburst   integral   3     'd0                  
  hrdata   integral   64    'd7509657990284393780
  hwdata   integral   64    'd0                  
  hready   integral   1     1                    
  hresp    integral   1     'd0                  
  hmaster  integral   1     'd0                  
-------------------------------------------------
"
hwrite =0 time=                 410 
UVM_INFO ../ahb_agent/ahb_driver.sv(72) @ 410: uvm_test_top.envh.ahb_agth[0].drvh [ahb_driver] in ahb driver           0
UVM_INFO ../ahb_agent/ahb_driver.sv(80) @ 410: uvm_test_top.envh.ahb_agth[0].drvh [ahb_driver] inside task send to dut run_phase
UVM_ERROR ../tb/scoreboard.sv(340) @ 415: uvm_test_top.envh.scoreboardh [scoreboard] data is mismatched
UVM_ERROR ../tb/scoreboard.sv(341) @ 415: uvm_test_top.envh.scoreboardh [scoreboard] axi_temp_rdata: 11102733732045675932 , ahb_hrdata: 4772728488991085678
 hrdata time =                  430
UVM_INFO ../ahb_agent/ahb_monitor.sv(92) @ 430: uvm_test_top.envh.ahb_agth[0].monh [ahb_monitor] ahb_trans: 
 "-------------------------------------------------
Name       Type       Size  Value                
-------------------------------------------------
ahb_xtn    ahb_trans  -     @1900                
  hwrite   integral   1     'd0                  
  haddr    integral   32    'd1825295848         
  htrans   integral   2     2                    
  hsize    integral   3     'd2                  
  hburst   integral   3     'd0                  
  hrdata   integral   64    'd9177778461895597261
  hwdata   integral   64    'd0                  
  hready   integral   1     1                    
  hresp    integral   1     'd0                  
  hmaster  integral   1     'd0                  
-------------------------------------------------
"
UVM_INFO ../ahb_agent/ahb_driver.sv(72) @ 430: uvm_test_top.envh.ahb_agth[0].drvh [ahb_driver] in ahb driver           0
UVM_INFO ../ahb_agent/ahb_driver.sv(80) @ 430: uvm_test_top.envh.ahb_agth[0].drvh [ahb_driver] inside task send to dut run_phase
UVM_ERROR ../tb/scoreboard.sv(340) @ 435: uvm_test_top.envh.scoreboardh [scoreboard] data is mismatched
UVM_ERROR ../tb/scoreboard.sv(341) @ 435: uvm_test_top.envh.scoreboardh [scoreboard] axi_temp_rdata: 2420479730043994363 , ahb_hrdata: 11102733732045675932
UVM_INFO ../ahb_agent/ahb_driver.sv(72) @ 450: uvm_test_top.envh.ahb_agth[0].drvh [ahb_driver] in ahb driver           0
UVM_INFO ../ahb_agent/ahb_driver.sv(80) @ 450: uvm_test_top.envh.ahb_agth[0].drvh [ahb_driver] inside task send to dut run_phase
UVM_ERROR ../tb/scoreboard.sv(340) @ 455: uvm_test_top.envh.scoreboardh [scoreboard] data is mismatched
UVM_ERROR ../tb/scoreboard.sv(341) @ 455: uvm_test_top.envh.scoreboardh [scoreboard] axi_temp_rdata: 12940166421918842925 , ahb_hrdata: 2420479730043994363
UVM_INFO ../ahb_agent/ahb_driver.sv(72) @ 470: uvm_test_top.envh.ahb_agth[0].drvh [ahb_driver] in ahb driver           0
UVM_INFO ../ahb_agent/ahb_driver.sv(80) @ 470: uvm_test_top.envh.ahb_agth[0].drvh [ahb_driver] inside task send to dut run_phase
UVM_ERROR ../tb/scoreboard.sv(340) @ 475: uvm_test_top.envh.scoreboardh [scoreboard] data is mismatched
UVM_ERROR ../tb/scoreboard.sv(341) @ 475: uvm_test_top.envh.scoreboardh [scoreboard] axi_temp_rdata: 533301990197587707 , ahb_hrdata: 12940166421918842925
UVM_INFO ../ahb_agent/ahb_driver.sv(72) @ 490: uvm_test_top.envh.ahb_agth[0].drvh [ahb_driver] in ahb driver           0
UVM_INFO ../ahb_agent/ahb_driver.sv(80) @ 490: uvm_test_top.envh.ahb_agth[0].drvh [ahb_driver] inside task send to dut run_phase
UVM_ERROR ../tb/scoreboard.sv(340) @ 495: uvm_test_top.envh.scoreboardh [scoreboard] data is mismatched
UVM_ERROR ../tb/scoreboard.sv(341) @ 495: uvm_test_top.envh.scoreboardh [scoreboard] axi_temp_rdata: 7509657990284393780 , ahb_hrdata: 533301990197587707
UVM_ERROR ../tb/scoreboard.sv(340) @ 515: uvm_test_top.envh.scoreboardh [scoreboard] data is mismatched
UVM_ERROR ../tb/scoreboard.sv(341) @ 515: uvm_test_top.envh.scoreboardh [scoreboard] axi_temp_rdata: 9177778461895597261 , ahb_hrdata: 7509657990284393780
UVM_INFO verilog_src/uvm-1.1d/src/base/uvm_objection.svh(1267) @ 1510: reporter [TEST_DONE] 'run' phase is ready to proceed to the 'extract' phase

--- UVM Report Summary ---

** Report counts by severity
UVM_INFO :   97
UVM_WARNING :    0
UVM_ERROR :   18
UVM_FATAL :    0
** Report counts by id
[Questa UVM]     3
[RNTST]     1
[TEST_DONE]     1
[UVMTOP]     1
[ahb_agent]     2
[ahb_driver]    42
[ahb_monitor]    12
[ahb_read_vseq]     2
[ahb_rst_agent]     2
[ahb_rst_driver]     2
[ahb_rst_monitor]     2
[ahb_rst_vseq]     2
[axi_agent]     2
[axi_driver]     3
[axi_monitor]     3
[axi_read_test]     3
[axi_read_vseq]     2
[axi_rst_agent]     2
[axi_rst_driver]     2
[axi_rst_monitor]     2
[axi_rst_vseq]     2
[environment]     2
[scoreboard]    20
** Note: $finish    : /home/cad/eda/Questa_2019/questasim/linux_x86_64/../verilog_src/uvm-1.1d/src/base/uvm_root.svh(430)
   Time: 1510 ns  Iteration: 54  Instance: /axi2ahb_bridge_tb_top
Saving coverage database on exit...
End time: 18:37:15 on Sep 18,2024, Elapsed time: 0:00:02
Errors: 0, Warnings: 2
